#  HZ   S   RI   R     50.00 
! Rohde & Schwarz Vector Network Analyzer 
! Rohde-Schwarz,ZNL20-2Port,1323001220101312,1.72.1.6-23.02.1.246
! Created: UTC 10/14/2024, 9:01:55 PM
! freq[Hz]                re:S11                  im:S11                  re:S21                  im:S21                  re:S12                  im:S12                  re:S22                  im:S22
 3.900000000000000E6     1.009957787715504      -6.905271977416440E-3    1.663969260067924E-1   -3.401377494346675E-3    1.186660488905992E-5    3.927863907950983E-6    1.489254320867592E-2    1.455776645813805E-4
 7.800000000000000E6     1.007059558684095      -1.293328796758465E-2    1.651355096849189E-1   -6.543549613984463E-3    5.722078330660630E-6   -1.569280129347631E-6    1.401629399071021E-2    1.263875254364291E-3
 1.170000000000000E7     1.004277533144699      -1.972232547791744E-2    1.639402565493408E-1   -9.571233171471514E-3   -1.320315630672775E-6   -5.412099837023672E-6    1.314277584397640E-2    1.865973572883650E-3
 1.560000000000000E7     1.002186003970352      -2.666465645947766E-2    1.633783915016504E-1   -1.236674109478464E-2   -1.752649517077503E-6   -4.135609510501857E-6    1.273713019209121E-2    2.322366886919906E-3
 1.950000000000000E7     1.000354261342498      -3.368077375767897E-2    1.632517735435648E-1   -1.528344451222767E-2    1.770291435072850E-6   -9.907431034990943E-7    1.246387893993303E-2    2.672411605310118E-3
 2.340000000000000E7     9.988303264707883E-1   -4.038685833848868E-2    1.639178469393175E-1   -1.830600168153033E-2   -1.936245446142413E-5    5.679498118607712E-6    1.224503089411623E-2    3.045168770878612E-3
 2.730000000000000E7     9.972938663833167E-1   -4.703936625140590E-2    1.642379758486031E-1   -2.145015445630962E-2   -9.847493421433377E-6    5.086806562342947E-6    1.200612785085331E-2    3.423878818797620E-3
 3.120000000000000E7     9.957602061246758E-1   -5.379992646498377E-2    1.642629917177992E-1   -2.472002682486583E-2   -1.916250834412683E-5    5.468342738901003E-6    1.181206417591264E-2    3.837772488833786E-3
 3.510000000000000E7     9.946157418178059E-1   -6.055990485274821E-2    1.647233337009863E-1   -2.807890784142690E-2   -2.123739569442977E-5    4.372339457614931E-6    1.168984318834783E-2    4.050113184339211E-3
 3.900000000000000E7     9.935141070663022E-1   -6.748708158922241E-2    1.646661988587878E-1   -3.134555625724075E-2   -2.673153973120320E-5   -1.545676938809662E-5    1.154928892978595E-2    4.261528433422546E-3
 4.290000000000000E7     9.926836771501811E-1   -7.451269254335156E-2    1.644023613857887E-1   -3.466946118809087E-2   -2.458009634705494E-5    3.456595914422627E-6    1.146732471982614E-2    4.470002612378651E-3
 4.680000000000000E7     9.921487905795141E-1   -8.165832743634989E-2    1.638536824193012E-1   -3.798537081341077E-2   -3.871564313556714E-5   -3.229049215476867E-6    1.136091317898841E-2    4.627622985802758E-3
 5.070000000000000E7     9.917537012237582E-1   -8.887772601128344E-2    1.630566854596816E-1   -4.120420758653393E-2   -4.495159717876841E-5    1.723789671083178E-6    1.126771270282269E-2    4.722152329481779E-3
 5.460000000000000E7     9.916404408953809E-1   -9.615978402816738E-2    1.620145030032176E-1   -4.434087887302732E-2   -5.692220501189297E-5    6.425004877830318E-6    1.136454694652472E-2    4.893907233573661E-3
 5.850000000000000E7     9.916706502361731E-1   -1.035445761164134E-1    1.606417662540669E-1   -4.748524784199684E-2   -5.201986591405985E-5    8.215412707694254E-6    1.147666230346148E-2    5.081112564241217E-3
 6.240000000000000E7     9.917144310684847E-1   -1.110491285192487E-1    1.589729032921631E-1   -5.036033322714236E-2   -6.067644065245409E-5    7.378302336301985E-6    1.162756959649403E-2    5.253090064277119E-3
 6.630000000000000E7     9.915686359662843E-1   -1.181520825128420E-1    1.571133987667264E-1   -5.269379220116856E-2   -7.129175484000064E-5    1.823952694960174E-5    1.205824729244604E-2    5.677321460929786E-3
 7.020000000000000E7     9.915236516002309E-1   -1.255419869338972E-1    1.556664657270110E-1   -5.524142315988153E-2   -6.300089706810705E-5    2.480290741225570E-5    1.225162428817670E-2    5.844254009711031E-3
 7.410000000000000E7     9.913736245365493E-1   -1.326149024162148E-1    1.544959268806147E-1   -5.781721660876903E-2   -8.260901012529486E-5    2.632912920466712E-5    1.239269330262186E-2    6.129690031374923E-3
 7.800000000000000E7     9.910847404848854E-1   -1.396899533140797E-1    1.524271754790241E-1   -6.045600905849270E-2   -8.629807595269786E-5    3.377449579397988E-5    1.258623646853198E-2    6.388946344436954E-3
 8.190000000000000E7     9.906915479523650E-1   -1.467084392662054E-1    1.512536996444746E-1   -6.329618635294171E-2   -1.002122132019146E-4    3.001972289532068E-5    1.269698965127340E-2    6.596147398122851E-3
 8.580000000000000E7     9.902915180189523E-1   -1.536951885162518E-1    1.501346057027921E-1   -6.628127899265374E-2   -1.054052803404098E-4    4.193939263675355E-5    1.295434944839626E-2    6.876955461697935E-3
 8.970000000000000E7     9.896612606140572E-1   -1.605925404335205E-1    1.490753450320801E-1   -6.919135844452652E-2   -1.160555555876782E-4    4.737972040329739E-5    1.315575905317126E-2    7.092104122471037E-3
 9.360000000000000E7     9.885323814311546E-1   -1.672034245058035E-1    1.477589946577730E-1   -7.183853535181864E-2   -1.235481809581800E-4    6.104316772581561E-5    1.322776773990291E-2    7.529774828940555E-3
 9.750000000000000E7     9.876364007149303E-1   -1.736268653718533E-1    1.469572265531185E-1   -7.451818573424222E-2   -1.269786094001833E-4    5.246947184269126E-5    1.341104966763531E-2    7.818488555874156E-3
 1.014000000000000E8     9.865379238241242E-1   -1.799108961042203E-1    1.459401322831300E-1   -7.712513892348954E-2   -1.432104177341995E-4    6.047201255936644E-5    1.363317680750137E-2    8.158564933936503E-3
 1.053000000000000E8     9.854426128443005E-1   -1.859463556789142E-1    1.449170019872535E-1   -8.003756939529870E-2   -1.559023766990576E-4    6.765912229648953E-5    1.384734385492492E-2    8.439759818895425E-3
 1.092000000000000E8     9.841141644047325E-1   -1.919056660644879E-1    1.440986348820106E-1   -8.329009736586133E-2   -1.623751150707903E-4    8.321252506243661E-5    1.408576694284583E-2    8.828324734556484E-3
 1.131000000000000E8     9.827514369827649E-1   -1.976864923238672E-1    1.441655925056336E-1   -8.620404744583929E-2   -1.743106010119347E-4    7.762657150996401E-5    1.426695583870466E-2    9.152980179569592E-3
 1.170000000000000E8     9.814834586180504E-1   -2.036495794981087E-1    1.430059252137690E-1   -8.919135838243251E-2   -1.826868856174069E-4    9.762316518805145E-5    1.448900705420616E-2    9.505535738556663E-3
 1.209000000000000E8     9.798526504245549E-1   -2.097928120204279E-1    1.421500108415790E-1   -9.251145725974687E-2   -1.992876705992760E-4    8.956426536002258E-5    1.457545160641367E-2    9.772782859152335E-3
 1.248000000000000E8     9.784678896313778E-1   -2.158620371434820E-1    1.410363468202204E-1   -9.535568033096858E-2   -2.077466325759400E-4    1.065388246882396E-4    1.481650517842528E-2    1.009933000354717E-2
 1.287000000000000E8     9.772826760840639E-1   -2.223330162201300E-1    1.389141023363676E-1   -9.904499621797358E-2   -2.194427402686696E-4    1.188598437236470E-4    1.501665473395289E-2    1.052185055459156E-2
 1.326000000000000E8     9.759916638671740E-1   -2.289354974819390E-1    1.376347908716836E-1   -1.019229178014764E-1   -2.322205790718887E-4    1.270731662616522E-4    1.513736281790298E-2    1.085277568135561E-2
 1.365000000000000E8     9.749369668419253E-1   -2.361626576839419E-1    1.349182958304620E-1   -1.050728556820532E-1   -2.441869532923705E-4    1.401387418724389E-4    1.534579588094949E-2    1.117328616086657E-2
 1.404000000000000E8     9.738871838536060E-1   -2.437476733394264E-1    1.320623634042284E-1   -1.081317332709501E-1   -2.581736523635376E-4    1.520019483921280E-4    1.552278055700484E-2    1.153596961846321E-2
 1.443000000000000E8     9.728321712277088E-1   -2.517697025536997E-1    1.290936600153209E-1   -1.110547943143683E-1   -2.624091154220007E-4    1.652255579450114E-4    1.569372611320961E-2    1.180566236228887E-2
 1.482000000000000E8     9.716872348271053E-1   -2.601211437619899E-1    1.258284859831602E-1   -1.134920199370166E-1   -2.896692162056750E-4    1.756858312412026E-4    1.586349352993903E-2    1.209697835763051E-2
 1.521000000000000E8     9.704974701812458E-1   -2.685714691209028E-1    1.226295579342642E-1   -1.157654472731668E-1   -2.893894430253558E-4    1.968904982959239E-4    1.600813976986443E-2    1.234108998365605E-2
 1.560000000000000E8     9.691568472053903E-1   -2.768889317187138E-1    1.196746969289247E-1   -1.178240009590991E-1   -3.133722855130170E-4    2.152204160665299E-4    1.618529569281268E-2    1.257029496050759E-2
 1.599000000000000E8     9.675536265998683E-1   -2.849436422161366E-1    1.167690059278737E-1   -1.197245868639686E-1   -3.304221643093604E-4    2.276368940083460E-4    1.650607719755798E-2    1.275531236909908E-2
 1.638000000000000E8     9.658267906492589E-1   -2.931872545615599E-1    1.136478211676663E-1   -1.217919377198507E-1   -3.408528296026647E-4    2.455693500767525E-4    1.665698207594583E-2    1.298526440675511E-2
 1.677000000000000E8     9.643041787344871E-1   -3.009689565800863E-1    1.102781842480909E-1   -1.236294253752978E-1   -3.424289820082402E-4    2.662215950417631E-4    1.692437405659896E-2    1.320627022227195E-2
 1.716000000000000E8     9.627648307762026E-1   -3.084159469775663E-1    1.076135292638098E-1   -1.260455928874445E-1   -3.744533424866016E-4    2.972182595980405E-4    1.712871352514422E-2    1.331907500230734E-2
 1.755000000000000E8     9.615199850620900E-1   -3.159423692786005E-1    1.046531051311026E-1   -1.276752559975947E-1   -3.808201033095087E-4    3.170948434872077E-4    1.735847017421835E-2    1.352770862702446E-2
 1.794000000000000E8     9.601434852212967E-1   -3.229941741416200E-1    1.026853119997745E-1   -1.306500865544467E-1   -4.008008115330754E-4    3.334160827462700E-4    1.762558486738439E-2    1.369206754352424E-2
 1.833000000000000E8     9.583721466411677E-1   -3.301347262620937E-1    1.003254010109319E-1   -1.320840196431244E-1   -4.201013368147269E-4    3.615049375076711E-4    1.786461992571439E-2    1.386225279729515E-2
 1.872000000000000E8     9.566334476684323E-1   -3.368299909949051E-1    9.808285941744804E-2   -1.352771136464307E-1   -4.318739944664556E-4    3.910605737989175E-4    1.808777946645950E-2    1.398437409277259E-2
 1.911000000000000E8     9.544479008305469E-1   -3.436402912726590E-1    9.495173900900264E-2   -1.370295770799393E-1   -4.447739452704346E-4    4.147594145635028E-4    1.841836196992875E-2    1.411625974545089E-2
 1.950000000000000E8     9.523943173419659E-1   -3.501623578200309E-1    9.249793927192461E-2   -1.393825599585257E-1   -4.559500404966668E-4    4.473613493385970E-4    1.872279525978771E-2    1.432624423042831E-2
 1.989000000000000E8     9.501050572985701E-1   -3.565927184497772E-1    8.920387068274382E-2   -1.416228398357278E-1   -4.675097393834454E-4    4.738905821896049E-4    1.905140445855921E-2    1.453235780898737E-2
 2.028000000000000E8     9.479205883876924E-1   -3.629005161571064E-1    8.668726998388550E-2   -1.430111181963236E-1   -4.704618436414154E-4    5.145039110632500E-4    1.938951547915357E-2    1.480142309061644E-2
 2.067000000000000E8     9.458084108186665E-1   -3.694213942184558E-1    8.304418227054525E-2   -1.458945156349565E-1   -4.858921314918399E-4    5.443117721976178E-4    1.975347019973045E-2    1.500214226502007E-2
 2.106000000000000E8     9.433453443971571E-1   -3.758276086075666E-1    8.055357341475967E-2   -1.472279170500979E-1   -4.966286707680193E-4    5.810063368971057E-4    2.002999641216372E-2    1.523206484770077E-2
 2.145000000000000E8     9.407629899370268E-1   -3.822469515663343E-1    7.799637082628803E-2   -1.480982009179756E-1   -5.051490891617907E-4    6.297743768889599E-4    2.038947098977076E-2    1.551384213186072E-2
 2.184000000000000E8     9.379970945062570E-1   -3.889668504422138E-1    7.466262736551221E-2   -1.494067020034420E-1   -5.061447602007147E-4    6.594278239505484E-4    2.072166961158902E-2    1.577521086741968E-2
 2.223000000000000E8     9.349215751555685E-1   -3.956490690145599E-1    7.237586015133493E-2   -1.503199674050511E-1   -5.156180034086150E-4    7.131622146497959E-4    2.097366812686399E-2    1.604374867681120E-2
 2.262000000000000E8     9.316330230555290E-1   -4.025797912228425E-1    6.912917991139218E-2   -1.510224071930592E-1   -5.165791363828191E-4    7.593850930776066E-4    2.119209707180827E-2    1.632109596728335E-2
 2.301000000000000E8     9.280500736688149E-1   -4.099234805147904E-1    6.539126033097734E-2   -1.515330766798342E-1   -5.129953485987439E-4    8.048328638984333E-4    2.143860833721189E-2    1.662210500203973E-2
 2.340000000000000E8     9.243700132938786E-1   -4.173510915255211E-1    6.149652981875302E-2   -1.522707262236896E-1   -5.137649544185740E-4    8.505185355051185E-4    2.161724086525114E-2    1.684722965980260E-2
 2.379000000000000E8     9.206440283364909E-1   -4.248826486206398E-1    5.656979092800628E-2   -1.528100647217033E-1   -5.001351205035577E-4    8.950444279962117E-4    2.177730602302091E-2    1.705288974867421E-2
 2.418000000000000E8     9.168731896364308E-1   -4.326088709253026E-1    5.216687615833613E-2   -1.531956178426536E-1   -4.891715457763080E-4    9.544251217772384E-4    2.198374733157683E-2    1.726907297054272E-2
 2.457000000000000E8     9.132688425406729E-1   -4.401363705559388E-1    4.780897295462532E-2   -1.537558653785263E-1   -4.742330512900840E-4    1.011301470711371E-3    2.214742943096564E-2    1.747181735064901E-2
 2.496000000000000E8     9.100892157910127E-1   -4.475887341516676E-1    4.247517438792244E-2   -1.537386292907251E-1   -4.506921296226860E-4    1.051193584958292E-3    2.234492217001788E-2    1.762540660700980E-2
 2.535000000000000E8     9.072221593182631E-1   -4.549282212356535E-1    3.822544137827178E-2   -1.537139590819323E-1   -4.298573228075249E-4    1.109104297783224E-3    2.254411977726583E-2    1.783249947819988E-2
 2.574000000000000E8     9.048683391025372E-1   -4.620205231569483E-1    3.347438073859123E-2   -1.533441414612534E-1   -3.953841609812041E-4    1.145686517666904E-3    2.273908113962153E-2    1.793888210122421E-2
 2.613000000000000E8     9.026970535639582E-1   -4.691160532817468E-1    3.000127887862323E-2   -1.529078001816357E-1   -3.590389969911290E-4    1.210351522689194E-3    2.300902829796313E-2    1.801877612033532E-2
 2.652000000000000E8     9.007185088293274E-1   -4.762621641474765E-1    2.652445732116569E-2   -1.537010758385136E-1   -3.152373942823170E-4    1.251149271740676E-3    2.323302146210060E-2    1.807707601953509E-2
 2.691000000000000E8     8.989389714624570E-1   -4.833696354217328E-1    2.285930588623174E-2   -1.548276026189260E-1   -2.757628854693916E-4    1.298227499591603E-3    2.350375319127641E-2    1.815636569956679E-2
 2.730000000000000E8     8.963820093781912E-1   -4.896529268613024E-1    2.184113604555308E-2   -1.549747569748371E-1   -2.218005731107661E-4    1.318916224048007E-3    2.378767293030221E-2    1.817198079955899E-2
 2.769000000000000E8     8.936791004816087E-1   -4.960068897087178E-1    1.967162178231148E-2   -1.552889425471632E-1   -1.698837081442980E-4    1.352279257968015E-3    2.409390707470726E-2    1.822568553647170E-2
 2.808000000000000E8     8.912015423174958E-1   -5.026340823854969E-1    1.546370288423727E-2   -1.567323648634172E-1   -1.158409415157438E-4    1.381097771008369E-3    2.441612961932306E-2    1.818582503364361E-2
 2.847000000000000E8     8.881529445028228E-1   -5.086186307150080E-1    1.281453422584544E-2   -1.570936042385167E-1   -6.036438005569824E-5    1.385271811824964E-3    2.476703650019162E-2    1.814991440946692E-2
 2.886000000000000E8     8.848130662603595E-1   -5.140847949478204E-1    1.061959456926545E-2   -1.567704775055274E-1   -5.490733228864360E-6    1.391968677720882E-3    2.521249177148360E-2    1.815038406548120E-2
 2.925000000000000E8     8.820972344363165E-1   -5.200692308214804E-1    6.290094559187543E-3   -1.566676138676188E-1    4.404503950258256E-5    1.381307690057885E-3    2.561714095430053E-2    1.812581609932924E-2
 2.964000000000000E8     8.793579742611987E-1   -5.262726737172612E-1    1.721320961604119E-3   -1.568896493021580E-1    9.534871703931898E-5    1.387437984358291E-3    2.605591096304443E-2    1.809306808376566E-2
 3.003000000000000E8     8.767830721995346E-1   -5.325129342226392E-1   -2.593731804259774E-3   -1.567137268082598E-1    1.340092161820245E-4    1.385430942031977E-3    2.655598889335982E-2    1.800571854261496E-2
 3.042000000000000E8     8.744200919332855E-1   -5.397236202268044E-1   -8.037482182538209E-3   -1.555695412334819E-1    1.594201475436322E-4    1.370473951358217E-3    2.696632463654276E-2    1.798268380097414E-2
 3.081000000000000E8     8.717003563293718E-1   -5.476424944588918E-1   -1.348151382815947E-2   -1.540624479683624E-1    1.910810048902842E-4    1.356690059985826E-3    2.749818867242989E-2    1.801219256114192E-2
 3.120000000000000E8     8.678338755416204E-1   -5.557949508416216E-1   -1.757650012572708E-2   -1.522858113131738E-1    2.143973819044298E-4    1.339365259592571E-3    2.805882334031113E-2    1.796685083610904E-2
 3.159000000000000E8     8.633746536007462E-1   -5.638320539832579E-1   -2.175335302994318E-2   -1.507687830177510E-1    2.421054566801130E-4    1.314884720302936E-3    2.858436513211730E-2    1.798193787171978E-2
 3.198000000000000E8     8.585898602925575E-1   -5.724172184113998E-1   -2.683975876224306E-2   -1.488558510933231E-1    2.490762650411759E-4    1.300665163006427E-3    2.906880977829415E-2    1.799343312692615E-2
 3.237000000000000E8     8.530882028125563E-1   -5.810907110563195E-1   -3.169564633527521E-2   -1.457848723220595E-1    2.594747408895028E-4    1.287082918926297E-3    2.952032327684524E-2    1.801444483311756E-2
 3.276000000000000E8     8.473368654446397E-1   -5.898688500336364E-1   -3.676525220454422E-2   -1.418506924721644E-1    2.633543988107868E-4    1.267576826983709E-3    3.000356737413927E-2    1.805484428567401E-2
 3.315000000000000E8     8.411115233547636E-1   -5.981926694376748E-1   -4.076810567339914E-2   -1.379952775865239E-1    2.619473928329362E-4    1.260855545340450E-3    3.042107477724867E-2    1.812400727913192E-2
 3.354000000000000E8     8.350641026923398E-1   -6.057650724137017E-1   -4.352018035211730E-2   -1.348289057230871E-1    2.650024772371537E-4    1.248811491340529E-3    3.080977701240752E-2    1.817914996342476E-2
 3.393000000000000E8     8.292916767132683E-1   -6.129863890448773E-1   -4.633295345186918E-2   -1.315493176598631E-1    2.533046876537858E-4    1.248060148140818E-3    3.120168419036291E-2    1.826551422983506E-2
 3.432000000000000E8     8.241839754223022E-1   -6.202007362139275E-1   -4.904155787726835E-2   -1.282412099757578E-1    2.477338568851078E-4    1.257734689977351E-3    3.147004617626283E-2    1.831089802517244E-2
 3.471000000000000E8     8.196885127281289E-1   -6.266244925627121E-1   -5.019203112484009E-2   -1.260825199912994E-1    2.392142204998586E-4    1.259504415011494E-3    3.175716030692543E-2    1.833408932043844E-2
 3.510000000000000E8     8.160470174875712E-1   -6.331090328949434E-1   -5.103625986949144E-2   -1.252139519647102E-1    2.205959951839186E-4    1.262992781864914E-3    3.206226219006796E-2    1.838072263225438E-2
 3.549000000000000E8     8.130032572069731E-1   -6.402418237994690E-1   -5.311508523115096E-2   -1.247493754182880E-1    2.136148061911696E-4    1.273667684540413E-3    3.227428373939054E-2    1.840549575393283E-2
