#  HZ   S   RI   R     50.00 
! Rohde & Schwarz Vector Network Analyzer 
! Rohde-Schwarz,ZNL20-2Port,1323001220101312,1.72.1.6-23.02.1.246
! Created: UTC 10/14/2024, 9:12:47 PM
! freq[Hz]                re:S11                  im:S11                  re:S21                  im:S21                  re:S12                  im:S12                  re:S22                  im:S22
 3.900000000000000E6     1.026126229397303      -8.138044752022316E-3    1.346242787970348E-1   -4.024767748355659E-3    1.924717082612130E-6   -9.099301354858489E-6    2.054341295168769E-2    1.068525808003098E-3
 7.800000000000000E6     1.013695584423494      -1.278070512090025E-2    1.328639870827888E-1   -6.905499102855921E-3   -5.392408833522753E-6    4.137030883179473E-6    1.560611563088140E-2    3.107287656412497E-3
 1.170000000000000E7     1.007366404409510      -1.980936082463997E-2    1.319429508724161E-1   -9.299880315172817E-3   -5.239519494513230E-6   -1.075970459321660E-5    1.316321756846001E-2    4.045925165231484E-3
 1.560000000000000E7     1.002947251849884      -2.713580248922055E-2    1.316460212685813E-1   -1.143652163062374E-2   -1.275290144229647E-5    4.279254433735681E-6    1.197407015287346E-2    4.585472164017355E-3
 1.950000000000000E7     9.996072673094630E-1   -3.430084854255204E-2    1.315569922566238E-1   -1.361435842911436E-2   -8.260241858633538E-6   -1.653233019639400E-7    1.102550127608747E-2    5.096386876277195E-3
 2.340000000000000E7     9.965610207636100E-1   -4.143745392882101E-2    1.318361689064868E-1   -1.584189777810278E-2   -1.321001371827906E-5    2.544368625167829E-6    1.022532995697412E-2    5.260970504173566E-3
 2.730000000000000E7     9.936817577525110E-1   -4.871325204328869E-2    1.319125274155434E-1   -1.812859088375203E-2   -1.987017766800377E-5    7.793074211330977E-6    9.481918304633215E-3    5.600458716655701E-3
 3.120000000000000E7     9.908641885949024E-1   -5.616586212125368E-2    1.318360248700160E-1   -2.055791378656707E-2   -2.400513389425682E-5    6.941181496398790E-6    8.899203477899643E-3    5.820383761705004E-3
 3.510000000000000E7     9.883517646962550E-1   -6.408380568408700E-2    1.319151984269642E-1   -2.322458824589690E-2   -2.591788348057579E-5    4.291890697272025E-6    8.244271550645201E-3    5.790650987999413E-3
 3.900000000000000E7     9.861813236723843E-1   -7.209681170645367E-2    1.316748696377886E-1   -2.591221688469009E-2   -3.471798880572205E-5    8.693718653313517E-6    7.782793612433126E-3    5.654207169072366E-3
 4.290000000000000E7     9.846159431158780E-1   -8.043947610901350E-2    1.312423417205655E-1   -2.872134388086100E-2   -4.147840127659057E-5    1.268396755388205E-5    7.425298600501640E-3    5.451143820390156E-3
 4.680000000000000E7     9.836683224386871E-1   -8.905564160782109E-2    1.305884463028851E-1   -3.149183306269603E-2   -4.899932909245654E-5    1.951544837615795E-5    7.234176688813276E-3    5.152608181120063E-3
 5.070000000000000E7     9.832772332490507E-1   -9.779090652467011E-2    1.297979926723647E-1   -3.412807233483243E-2   -5.576807883731310E-5    2.210878738273260E-5    7.128788180901161E-3    4.833328617748467E-3
 5.460000000000000E7     9.833487183630215E-1   -1.065040581196685E-1    1.289056905555998E-1   -3.646527666059687E-2   -6.259713351116840E-5    2.616573810534474E-5    7.248100312796575E-3    4.635380399923710E-3
 5.850000000000000E7     9.836161901442192E-1   -1.153636416150911E-1    1.278790652297899E-1   -3.866370758622955E-2   -7.756263453026546E-5    2.503901401689417E-5    7.557543374406098E-3    4.424786831876406E-3
 6.240000000000000E7     9.840187606160128E-1   -1.240421507222311E-1    1.268002421141722E-1   -4.073375664619319E-2   -8.529480968694482E-5    3.339512824613031E-5    7.845788275080427E-3    4.280405137722683E-3
 6.630000000000000E7     9.844281106516419E-1   -1.320021460614024E-1    1.256682068117678E-1   -4.270312620848406E-2   -9.348802365699651E-5    3.617077943968042E-5    8.568751455729473E-3    4.572300950540162E-3
 7.020000000000000E7     9.845110741660094E-1   -1.401437181285168E-1    1.247927652448680E-1   -4.467429971306541E-2   -1.012077272451618E-4    4.865159792005561E-5    9.038175653772530E-3    4.534590253552389E-3
 7.410000000000000E7     9.844775614299437E-1   -1.480635188287910E-1    1.242068464177519E-1   -4.658333194761979E-2   -1.105954737730925E-4    4.863115273859976E-5    9.535267586582127E-3    4.595529891203786E-3
 7.800000000000000E7     9.840243172904645E-1   -1.557077773308472E-1    1.229997492682060E-1   -4.870962711910362E-2   -1.168480078746335E-4    6.007815201261866E-5    9.994333552384270E-3    4.825269690690554E-3
 8.190000000000000E7     9.833847705398155E-1   -1.633001986477862E-1    1.223543181468772E-1   -5.101302204968188E-2   -1.318396693741773E-4    6.718958332812664E-5    1.048082206520936E-2    5.029977409305235E-3
 8.580000000000000E7     9.826561516422686E-1   -1.708500450132765E-1    1.219300554984579E-1   -5.310576211190566E-2   -1.473085361212398E-4    6.838984734714373E-5    1.095535338721185E-2    5.298009567019116E-3
 8.970000000000000E7     9.817695143575244E-1   -1.780339882993545E-1    1.211455036350661E-1   -5.552707661757848E-2   -1.534493909141071E-4    7.963745758801132E-5    1.138590361788242E-2    5.790097453762504E-3
 9.360000000000000E7     9.804323390425290E-1   -1.848632911235381E-1    1.206079266321357E-1   -5.735871094077630E-2   -1.648920069446605E-4    9.188189602008187E-5    1.160005347633102E-2    6.404454686628361E-3
 9.750000000000000E7     9.792612116799128E-1   -1.914118279300328E-1    1.198898494891736E-1   -5.942468618361687E-2   -1.829503671864351E-4    1.001059176222121E-4    1.198883946694431E-2    6.915674544616136E-3
 1.014000000000000E8     9.779581956868625E-1   -1.975142964316691E-1    1.194491871922164E-1   -6.117667383304072E-2   -2.030497662454087E-4    1.130682595496117E-4    1.229584692137569E-2    7.468232581294649E-3
 1.053000000000000E8     9.766618474152859E-1   -2.034106718513538E-1    1.187249735016676E-1   -6.351190219194802E-2   -2.050540580546974E-4    1.274612176998390E-4    1.259226386900183E-2    8.079562911658704E-3
 1.092000000000000E8     9.748812444586414E-1   -2.090855576150041E-1    1.181333036548424E-1   -6.603490148970137E-2   -2.175396913165926E-4    1.376235987876589E-4    1.276169223207832E-2    8.663357182210797E-3
 1.131000000000000E8     9.727756579293543E-1   -2.145150188171588E-1    1.173253058522974E-1   -6.837699152890188E-2   -2.378225328870054E-4    1.501623592475908E-4    1.298988178766599E-2    9.229900589693652E-3
 1.170000000000000E8     9.704921151134218E-1   -2.200672584319361E-1    1.164518028442671E-1   -7.087793557908496E-2   -2.533985998697206E-4    1.683643289221604E-4    1.306406361336515E-2    9.895656855081801E-3
 1.209000000000000E8     9.677240105994890E-1   -2.260737218375511E-1    1.146054214558618E-1   -7.380922174051768E-2   -2.702167350874163E-4    1.910621817800300E-4    1.301907045173914E-2    1.032294756529175E-2
 1.248000000000000E8     9.651654707174905E-1   -2.322307622667256E-1    1.134759061964774E-1   -7.610157861446627E-2   -2.821619983224666E-4    2.064643233807278E-4    1.296813801761096E-2    1.092397679081313E-2
 1.287000000000000E8     9.627526188379028E-1   -2.388087517936137E-1    1.115577928280241E-1   -7.907553398564518E-2   -3.048518764031249E-4    2.198286418840829E-4    1.297627617458982E-2    1.141685717405655E-2
 1.326000000000000E8     9.603620730397117E-1   -2.460255868635347E-1    1.094547159808062E-1   -8.191638513356134E-2   -3.158274044919494E-4    2.419154541175553E-4    1.298219097399648E-2    1.180015466878876E-2
 1.365000000000000E8     9.581757475109866E-1   -2.537025505046497E-1    1.074516698932714E-1   -8.432168471305239E-2   -3.393736597137560E-4    2.563908379802543E-4    1.288161122272852E-2    1.217672127359517E-2
 1.404000000000000E8     9.561308709429108E-1   -2.621081215125009E-1    1.053523420522427E-1   -8.668791875403732E-2   -3.443120164026524E-4    2.817330023144760E-4    1.280363608629049E-2    1.245086570803913E-2
 1.443000000000000E8     9.539718258350047E-1   -2.710015891731858E-1    1.027265439945240E-1   -8.917023460238636E-2   -3.610541363747229E-4    3.083046865531882E-4    1.275026571059285E-2    1.260860971816500E-2
 1.482000000000000E8     9.518749002990347E-1   -2.801210517967548E-1    9.996318126724973E-2   -9.117864828632413E-2   -3.823801001028305E-4    3.343931087262310E-4    1.271086707048273E-2    1.275754898734124E-2
 1.521000000000000E8     9.500251488679198E-1   -2.892474394525335E-1    9.742029719829243E-2   -9.319156703668066E-2   -3.978826652564663E-4    3.647231757768559E-4    1.271027844830530E-2    1.276974927564193E-2
 1.560000000000000E8     9.482894331462940E-1   -2.981802515428825E-1    9.539695018171776E-2   -9.472734996331041E-2   -4.156674379258017E-4    3.972233694563623E-4    1.274136484018731E-2    1.276456692952539E-2
 1.599000000000000E8     9.462683347279373E-1   -3.066335517267074E-1    9.300040543781569E-2   -9.612812942544377E-2   -4.259761213573777E-4    4.268937479414115E-4    1.316640248794745E-2    1.259658338666437E-2
 1.638000000000000E8     9.441217950554075E-1   -3.151296896991856E-1    9.092129214356065E-2   -9.776960720423505E-2   -4.420370975406681E-4    4.574155180648215E-4    1.336436261246831E-2    1.261364555288539E-2
 1.677000000000000E8     9.421291157437383E-1   -3.232021739142774E-1    8.840343344891234E-2   -9.930573624036917E-2   -4.545836749308588E-4    4.926391573487475E-4    1.364666813378311E-2    1.258901599407489E-2
 1.716000000000000E8     9.403517987666531E-1   -3.309386179654323E-1    8.582742173149929E-2   -1.015808869441917E-1   -4.714373956933863E-4    5.344737563965762E-4    1.390798392919622E-2    1.246214789349920E-2
 1.755000000000000E8     9.388293039383963E-1   -3.385076341530672E-1    8.291624917195407E-2   -1.032420721897493E-1   -4.806419333006995E-4    5.771429162946350E-4    1.430065424901939E-2    1.245865952456345E-2
 1.794000000000000E8     9.373714154178958E-1   -3.458422451713762E-1    8.111325047334232E-2   -1.053943292687456E-1   -5.009453691237855E-4    6.179012351597049E-4    1.475333743292036E-2    1.241481922390402E-2
 1.833000000000000E8     9.359577973503365E-1   -3.531172349017381E-1    7.889935992323642E-2   -1.064387834534426E-1   -5.079345583109194E-4    6.660785950388333E-4    1.520368658196090E-2    1.240558661138115E-2
 1.872000000000000E8     9.342995343418580E-1   -3.600634080951472E-1    7.697356438710425E-2   -1.079830167377085E-1   -5.186086365092400E-4    7.121887165360807E-4    1.575325020140792E-2    1.251116171310697E-2
 1.911000000000000E8     9.323583191031841E-1   -3.663992594431297E-1    7.490548492062685E-2   -1.091635944421196E-1   -5.245988452081743E-4    7.660270297810134E-4    1.628022255071028E-2    1.267141587617038E-2
 1.950000000000000E8     9.300141941241338E-1   -3.726922219371601E-1    7.233489044948140E-2   -1.104128847121548E-1   -5.233902235872687E-4    8.222770433741086E-4    1.681446849807872E-2    1.287622303822666E-2
 1.989000000000000E8     9.277001464736507E-1   -3.785919577344437E-1    6.952090795395331E-2   -1.124480334311648E-1   -5.225574651201045E-4    8.743241266891486E-4    1.739107733287644E-2    1.310423700659198E-2
 2.028000000000000E8     9.252279188098667E-1   -3.842767507473888E-1    6.638590084743502E-2   -1.138663218206614E-1   -5.245002022471463E-4    9.334961928830987E-4    1.799430881749910E-2    1.345361529785310E-2
 2.067000000000000E8     9.225059945261868E-1   -3.900889153327359E-1    6.217062930462496E-2   -1.158517164916693E-1   -5.220755576185700E-4    9.901953776440707E-4    1.849724384813593E-2    1.382850186926591E-2
 2.106000000000000E8     9.198960183312375E-1   -3.962592246429655E-1    5.690592552411244E-2   -1.175003380520973E-1   -5.150880666487447E-4    1.059967310231809E-3    1.895056701401914E-2    1.428615680156073E-2
 2.145000000000000E8     9.170906274455319E-1   -4.025387920493211E-1    5.244316485990112E-2   -1.189064836254117E-1   -4.979992933208210E-4    1.121872063240471E-3    1.930935641026562E-2    1.478437179987617E-2
 2.184000000000000E8     9.137945215374946E-1   -4.090704656278153E-1    4.920792276672054E-2   -1.191687164475703E-1   -4.831601683307998E-4    1.194930411935447E-3    1.961898335146541E-2    1.525383399742013E-2
 2.223000000000000E8     9.098525240596400E-1   -4.157681892619610E-1    4.644057651017609E-2   -1.191796375271324E-1   -4.579370237914350E-4    1.266820258295258E-3    1.982313058041746E-2    1.578246299825981E-2
 2.262000000000000E8     9.052277900567426E-1   -4.227540544105320E-1    4.396711093654827E-2   -1.192960021936860E-1   -4.283776124687198E-4    1.339033974484608E-3    1.990892015037173E-2    1.619125868298631E-2
 2.301000000000000E8     8.999053249795130E-1   -4.294310283353635E-1    4.285275491693707E-2   -1.180096409622658E-1   -3.925759567639073E-4    1.405878516738947E-3    1.994576450526274E-2    1.664225642755515E-2
 2.340000000000000E8     8.945802875220558E-1   -4.361308934802967E-1    4.140115378868138E-2   -1.169131421792366E-1   -3.506832983637987E-4    1.480268072200391E-3    1.995720003588604E-2    1.693116516705565E-2
 2.379000000000000E8     8.892394694700771E-1   -4.431230623621127E-1    3.831684192676878E-2   -1.173415475164974E-1   -2.990072331911172E-4    1.551118326760739E-3    1.973935335280187E-2    1.735376492019750E-2
 2.418000000000000E8     8.848554897004365E-1   -4.513580032845719E-1    3.243367696527399E-2   -1.182925135752970E-1   -2.389085012786939E-4    1.617084503984186E-3    1.968379709395392E-2    1.746980030576568E-2
 2.457000000000000E8     8.805234750476222E-1   -4.594194375931963E-1    2.769089375842058E-2   -1.187749847076742E-1   -1.746248809160423E-4    1.688005487375195E-3    1.965153773153806E-2    1.753228337665808E-2
 2.496000000000000E8     8.764432502843984E-1   -4.674950218669942E-1    2.297469750369196E-2   -1.191315031964231E-1   -1.022874179504469E-4    1.749352779711946E-3    1.958609364695879E-2    1.751100014078254E-2
 2.535000000000000E8     8.728677796411040E-1   -4.754156874777885E-1    1.797342927202630E-2   -1.186190491399145E-1   -1.416892086801745E-5    1.809442885188596E-3    1.964700572360420E-2    1.744299429425182E-2
 2.574000000000000E8     8.697543918555164E-1   -4.833001888328126E-1    1.410448528034840E-2   -1.177570417188007E-1    7.918134841992858E-5    1.857682049393384E-3    1.971133462144585E-2    1.734971682542648E-2
 2.613000000000000E8     8.668520990449015E-1   -4.910585797688332E-1    1.135524887798767E-2   -1.165312411765815E-1    1.786676715010636E-4    1.896687687166826E-3    1.986985574844802E-2    1.718523377046812E-2
 2.652000000000000E8     8.642324525247360E-1   -4.989441863810914E-1    8.112795222691977E-3   -1.159127431637748E-1    2.838053735376406E-4    1.931974298496222E-3    2.009206825373490E-2    1.698086125726033E-2
 2.691000000000000E8     8.619197440956720E-1   -5.068496217152314E-1    4.413014490025258E-3   -1.159901792350306E-1    3.878180775725978E-4    1.949070182971160E-3    2.036183417277538E-2    1.677748191826515E-2
 2.730000000000000E8     8.593992116892104E-1   -5.146340938569315E-1    8.175954306732322E-4   -1.158137594727999E-1    5.027725693366030E-4    1.951339393308049E-3    2.067664857333918E-2    1.662965211860976E-2
 2.769000000000000E8     8.562407023212819E-1   -5.214733914114154E-1   -8.060394460391578E-4   -1.146395615821804E-1    6.204434131974302E-4    1.943973284809980E-3    2.106778561114138E-2    1.648100677545021E-2
 2.808000000000000E8     8.529716142362850E-1   -5.280509509872782E-1   -2.899511525598968E-3   -1.137562688458272E-1    7.282198802276843E-4    1.922445307419523E-3    2.149839002813251E-2    1.631809974019068E-2
 2.847000000000000E8     8.495668032810098E-1   -5.346582004328436E-1   -6.153067198452360E-3   -1.128727397643894E-1    8.343698073763165E-4    1.888808567878918E-3    2.194009847267061E-2    1.623110658870405E-2
 2.886000000000000E8     8.457416161688905E-1   -5.409238526520300E-1   -8.420954960528811E-3   -1.109689232862988E-1    9.249533557440581E-4    1.840121127318901E-3    2.247511175969230E-2    1.613510349850856E-2
 2.925000000000000E8     8.412569783959891E-1   -5.464953585026009E-1   -9.152255049815348E-3   -1.083458457246093E-1    1.023921362574283E-3    1.782565357564446E-3    2.296572570425861E-2    1.610010186001324E-2
 2.964000000000000E8     8.362523683562354E-1   -5.522019200452115E-1   -1.051644190232606E-2   -1.056094064167565E-1    1.099368758821260E-3    1.710821724663958E-3    2.351612792678453E-2    1.614262470262891E-2
 3.003000000000000E8     8.309771262821631E-1   -5.583422433718644E-1   -1.160483400114443E-2   -1.024796099796862E-1    1.167127562640238E-3    1.633471356610685E-3    2.404982175685699E-2    1.622152929119890E-2
 3.042000000000000E8     8.252566691415283E-1   -5.651465370042832E-1   -1.271719731701091E-2   -9.956223227607969E-2    1.223493884502228E-3    1.556630886998719E-3    2.457177710574196E-2    1.632471749707161E-2
 3.081000000000000E8     8.191281988930001E-1   -5.723352402367980E-1   -1.357016657112271E-2   -9.710144101261572E-2    1.270161944035833E-3    1.470193865022383E-3    2.506273542235614E-2    1.650013193352597E-2
 3.120000000000000E8     8.122585848837919E-1   -5.793592189965960E-1   -1.433449537662454E-2   -9.500242223868792E-2    1.296535640909215E-3    1.393550589376537E-3    2.554416181425897E-2    1.665494212892248E-2
 3.159000000000000E8     8.048990254253597E-1   -5.865690532973696E-1   -1.571962906295523E-2   -9.289638803650468E-2    1.316931847365554E-3    1.314225231923859E-3    2.595520265332009E-2    1.690825549982163E-2
 3.198000000000000E8     7.967091409157353E-1   -5.943719764023416E-1   -1.762395992584050E-2   -9.053602607307501E-2    1.322126868485967E-3    1.230457643046830E-3    2.639070137237032E-2    1.711622340797788E-2
 3.237000000000000E8     7.881797667512397E-1   -6.014340420180797E-1   -1.960603334367526E-2   -8.828987198283743E-2    1.315572850411739E-3    1.161769054781514E-3    2.675138669248341E-2    1.734134403574198E-2
 3.276000000000000E8     7.789788436612436E-1   -6.083706591205106E-1   -2.138084532001733E-2   -8.588649743941879E-2    1.312348989727526E-3    1.090994790567049E-3    2.703500486712785E-2    1.764917334277443E-2
 3.315000000000000E8     7.692941394822792E-1   -6.151984447311054E-1   -2.307267305150463E-2   -8.329206557421151E-2    1.284662460241780E-3    1.032930399569735E-3    2.726538411022507E-2    1.789872782431135E-2
 3.354000000000000E8     7.591882065627639E-1   -6.220873955438362E-1   -2.487305708259073E-2   -8.036665714457186E-2    1.259859401331410E-3    9.763534271312220E-4    2.740855240280608E-2    1.812931249926525E-2
 3.393000000000000E8     7.491442963092515E-1   -6.292920882901688E-1   -2.688553401905104E-2   -7.720394676743959E-2    1.232058833408182E-3    9.252423199101477E-4    2.757728140822911E-2    1.835190947619648E-2
 3.432000000000000E8     7.398285779149836E-1   -6.371975098919062E-1   -2.911984955996893E-2   -7.420187461372253E-2    1.193680121034697E-3    8.815452131444152E-4    2.767947711250572E-2    1.846039613509489E-2
 3.471000000000000E8     7.315767659603963E-1   -6.456144946242701E-1   -3.122598324144111E-2   -7.174244801181758E-2    1.156503582363361E-3    8.471294508835756E-4    2.772819870974481E-2    1.855793440945677E-2
 3.510000000000000E8     7.249187287350628E-1   -6.546692618195940E-1   -3.304821803844097E-2   -6.993101922554949E-2    1.110827740018632E-3    8.205889525593808E-4    2.777517156868333E-2    1.863258466857240E-2
 3.549000000000000E8     7.197246157609783E-1   -6.636894653100573E-1   -3.481748792249244E-2   -6.862753384782369E-2    1.073252214085825E-3    8.013524121388848E-4    2.780014957604178E-2    1.860964620628534E-2
