#  HZ   S   RI   R     50.00 
! Rohde & Schwarz Vector Network Analyzer 
! Rohde-Schwarz,ZNL20-2Port,1323001220101312,1.72.1.6-23.02.1.246
! Created: UTC 10/15/2024, 7:51:49 PM
! freq[Hz]                re:S11                  im:S11                  re:S21                  im:S21                  re:S12                  im:S12                  re:S22                  im:S22
 1.000000000000000E7     6.298966711760390E-3    5.405983498825125E-3    1.002328733639921      -2.351836485796544E-2    9.959318943012567E-1   -2.028959949649458E-2    8.334440197572769E-3    4.193106900990293E-3
 2.000000000000000E7     4.532992797410148E-3    9.239577683141023E-3    9.992517854434018E-1   -4.229799923679860E-2    9.963729540272108E-1   -3.934272407778596E-2    7.425375667257005E-3    8.383992021645073E-3
 3.000000000000000E7     3.683887741132065E-3    1.156510056266666E-2    9.975683898405794E-1   -5.930875153246427E-2    9.945155842295883E-1   -5.576536173923666E-2    8.451977461049368E-3    9.952773071651263E-3
 4.000000000000000E7     2.984096914788275E-3    1.352256376693883E-2    9.959213115186568E-1   -7.714340777119957E-2    9.929556217564174E-1   -7.329148404653302E-2    6.803588843699897E-3    1.134411835003612E-2
 5.000000000000000E7     3.755796749892411E-3    1.578065382573580E-2    9.937268295330046E-1   -9.489559410248334E-2    9.906743103033362E-1   -9.115012584189042E-2    7.670349114708330E-3    1.362234890390227E-2
 6.000000000000000E7     4.728103592326588E-3    1.657903004575763E-2    9.916867403613496E-1   -1.118596317581640E-1    9.886767697395247E-1   -1.077963639055722E-1    7.322809768152447E-3    1.433426625761972E-2
 7.000000000000000E7     7.647698843713797E-3    1.956831854832131E-2    9.890682462922439E-1   -1.287712987911920E-1    9.856347995848507E-1   -1.249274916231942E-1    9.272599521865609E-3    1.726196700521487E-2
 8.000000000000000E7     9.348809461046432E-3    2.231885270816386E-2    9.862702242326917E-1   -1.456777320328626E-1    9.828080635389997E-1   -1.418741187860332E-1    1.056192295692952E-2    1.950787829207346E-2
 9.000000000000000E7     1.134754811928338E-2    2.473495404320054E-2    9.831666758978952E-1   -1.625643137050262E-1    9.796225800625259E-1   -1.586484902678159E-1    1.117417120270822E-2    2.323598282676324E-2
 1.000000000000000E8     1.188578500068367E-2    2.812118069500621E-2    9.798969864902430E-1   -1.792362808721891E-1    9.764522928526532E-1   -1.752017288155747E-1    1.432273029362960E-2    2.593291838558554E-2
 1.100000000000000E8     1.231746997365985E-2    3.213337919610916E-2    9.763545709130107E-1   -1.960418440196753E-1    9.728875533087292E-1   -1.921242625318064E-1    1.431431889458792E-2    2.950013330127551E-2
 1.200000000000000E8     1.230404601744758E-2    3.388885973845934E-2    9.724688082543580E-1   -2.125323871846458E-1    9.690565593900707E-1   -2.084899902750280E-1    1.614046154071631E-2    3.181098503629418E-2
 1.300000000000000E8     1.233599912783619E-2    3.645460226846512E-2    9.685916461984803E-1   -2.295060886377644E-1    9.652429200032689E-1   -2.254507749197179E-1    1.754707976965007E-2    3.335362181830288E-2
 1.400000000000000E8     1.346298603123132E-2    3.853062199209303E-2    9.639942166900073E-1   -2.461638522850644E-1    9.608588704166293E-1   -2.419504068622266E-1    1.736420734824536E-2    3.481091495588359E-2
 1.500000000000000E8     1.447056822181492E-2    3.948233301892265E-2    9.589524826956045E-1   -2.630237835932057E-1    9.559527403881141E-1   -2.589140641551674E-1    1.711174043560013E-2    3.764612710586682E-2
 1.600000000000000E8     1.725301994048141E-2    4.218227550495635E-2    9.536765258033615E-1   -2.790578169426642E-1    9.509861626693087E-1   -2.748143514839870E-1    1.916828595548917E-2    3.937881659016228E-2
 1.700000000000000E8     1.985454643547650E-2    4.402084605992807E-2    9.484594386421465E-1   -2.949550698637661E-1    9.457774158463156E-1   -2.909279162483836E-1    2.006606981650363E-2    4.197129727945109E-2
 1.800000000000000E8     2.266371493142746E-2    4.672805117951170E-2    9.429461949796771E-1   -3.108792105986566E-1    9.405634248193883E-1   -3.069502052725879E-1    2.321277403627406E-2    4.414537231815483E-2
 1.900000000000000E8     2.440036253942083E-2    5.046843188371983E-2    9.372321340342329E-1   -3.268134541393356E-1    9.348346901267853E-1   -3.230480519209551E-1    2.559475281949379E-2    4.603188842607234E-2
 2.000000000000000E8     2.659578746770477E-2    5.433590918697009E-2    9.314962746504828E-1   -3.424498424567097E-1    9.289808731094793E-1   -3.387930395150196E-1    2.840815292433479E-2    4.698773661576119E-2
 2.100000000000000E8     2.745188637352344E-2    5.705261977736667E-2    9.254262778021464E-1   -3.585766466394579E-1    9.225741325712242E-1   -3.548758375835965E-1    2.944185922315489E-2    4.980255019974724E-2
 2.200000000000000E8     2.738344909549536E-2    5.807705623564137E-2    9.188177830574250E-1   -3.744962356171374E-1    9.159216783819578E-1   -3.703125036633995E-1    3.126223577770130E-2    5.138494947480424E-2
 2.300000000000000E8     2.722930996662918E-2    5.792771526421153E-2    9.119765563830109E-1   -3.902611420074593E-1    9.088017316393346E-1   -3.856967884268763E-1    3.231527192626248E-2    5.353404263068741E-2
 2.400000000000000E8     3.009358862202277E-2    5.924491588650049E-2    9.043085093206739E-1   -4.056290981394204E-1    9.017066023815370E-1   -4.010090592141285E-1    3.312055907611369E-2    5.620205211484791E-2
 2.500000000000000E8     3.259297936806996E-2    6.036347544545285E-2    8.965410821990619E-1   -4.207937050347461E-1    8.942268148238720E-1   -4.162389208642795E-1    3.438016224453271E-2    5.763622086355084E-2
 2.600000000000000E8     3.578363883906489E-2    6.202011074707227E-2    8.886988094544105E-1   -4.355487188303115E-1    8.864881234127184E-1   -4.310018326127995E-1    3.731027933049004E-2    5.879475479256831E-2
 2.700000000000000E8     3.969210377732584E-2    6.451614813695875E-2    8.808653749873765E-1   -4.504286504512302E-1    8.787873956124684E-1   -4.457465467892102E-1    4.021557738352387E-2    6.094381296046961E-2
 2.800000000000000E8     4.312014863116508E-2    6.525823938964356E-2    8.728368262291286E-1   -4.651005177120448E-1    8.706756724049022E-1   -4.605323731508839E-1    4.310721529852055E-2    6.267163804920388E-2
 2.900000000000000E8     4.621373413189411E-2    6.829800841297276E-2    8.644665212836254E-1   -4.796377178483359E-1    8.624287164313145E-1   -4.750942909772725E-1    4.618378952850611E-2    6.261454786493247E-2
 3.000000000000000E8     4.793324552448898E-2    6.943762821273948E-2    8.558950559704385E-1   -4.939858069690183E-1    8.538972786137468E-1   -4.893947310641633E-1    4.929924587099954E-2    6.456101209401437E-2
 3.100000000000000E8     4.923399844263254E-2    7.286059409456354E-2    8.469548441674123E-1   -5.083757598146182E-1    8.450822965113804E-1   -5.037289172018615E-1    5.200882149039542E-2    6.616808137483071E-2
 3.200000000000000E8     4.995769571798006E-2    7.306838805386329E-2    8.377018866975026E-1   -5.223683694071666E-1    8.359385903744904E-1   -5.176201195079073E-1    5.371577502106347E-2    6.740867200937604E-2
 3.300000000000000E8     5.179008635740861E-2    7.352695212628133E-2    8.285471194337503E-1   -5.360526966682718E-1    8.266480147616421E-1   -5.317347806665140E-1    5.586640555195617E-2    6.948555260433142E-2
 3.400000000000000E8     5.419594875097418E-2    7.403783831883634E-2    8.192418938735607E-1   -5.497465951292564E-1    8.175537383437230E-1   -5.453359234317147E-1    5.715876182348381E-2    7.005797391923439E-2
 3.500000000000000E8     5.626144567476529E-2    7.475202609288369E-2    8.096557939515405E-1   -5.629786241866062E-1    8.079089737097744E-1   -5.585707067494775E-1    5.975605862714228E-2    7.111606100587310E-2
 3.600000000000000E8     6.050739546800046E-2    7.561822624395437E-2    8.000541814065963E-1   -5.763080397007756E-1    7.984284730929648E-1   -5.716798588309633E-1    6.248354913503711E-2    7.195935111341084E-2
 3.700000000000000E8     6.427149367745438E-2    7.598715113980595E-2    7.902576902308392E-1   -5.892509871682591E-1    7.884596634124430E-1   -5.847052291948741E-1    6.545133365580759E-2    7.273705115787432E-2
 3.800000000000000E8     6.866458346939812E-2    7.833831465941346E-2    7.799005553636053E-1   -6.023172385878826E-1    7.784038645817754E-1   -5.977423909435869E-1    6.809149344834174E-2    7.140031170425772E-2
 3.900000000000000E8     7.159837973587987E-2    7.998913409358178E-2    7.691693816016196E-1   -6.151666188628634E-1    7.678127314953456E-1   -6.104001531025861E-1    7.128318423476826E-2    7.174526659398113E-2
 4.000000000000000E8     7.373117967363464E-2    8.135724459357165E-2    7.583466035960078E-1   -6.277142319326678E-1    7.570092236930497E-1   -6.232172308948661E-1    7.570365976168003E-2    7.290345999474784E-2
 4.100000000000000E8     7.504899448978736E-2    8.208787377381291E-2    7.469926192432015E-1   -6.403522825469552E-1    7.457437906662046E-1   -6.357757286948807E-1    7.806523725158238E-2    7.363994627458943E-2
 4.200000000000000E8     7.700914898548086E-2    8.249223809960389E-2    7.351337776589836E-1   -6.527557253564957E-1    7.340049641543994E-1   -6.482243257308405E-1    8.049137118504932E-2    7.526527155012683E-2
 4.300000000000000E8     8.016392553870792E-2    8.011046405460517E-2    7.275201344905078E-1   -6.604747891127664E-1    7.234055891897671E-1   -6.587934127953257E-1    8.555794747937326E-2    7.710414876754274E-2
 4.400000000000000E8     8.282127403021833E-2    8.088751039347838E-2    7.163674304386199E-1   -6.723082939327896E-1    7.122400265004364E-1   -6.705305499471377E-1    8.866408483170292E-2    7.761521166761683E-2
 4.500000000000000E8     8.646842540237550E-2    8.112503867015561E-2    7.046963422318078E-1   -6.839937460805723E-1    7.008379262289656E-1   -6.823134407678977E-1    9.084492487504736E-2    7.831134186056508E-2
 4.600000000000000E8     8.955805621926584E-2    8.215565801337495E-2    6.928173386878995E-1   -6.955258006247711E-1    6.890313579886550E-1   -6.936404028415531E-1    9.375272730316189E-2    7.743011317774980E-2
 4.700000000000000E8     9.163647361817223E-2    8.397591540296610E-2    6.802476207289199E-1   -7.071649285053764E-1    6.766317928277917E-1   -7.051228920751266E-1    9.732260939313775E-2    7.532357533722923E-2
 4.800000000000000E8     9.823362855700775E-2    8.186862306029329E-2    6.636929585587636E-1   -7.223854247896400E-1    6.627646261265354E-1   -7.177856106297988E-1    9.807449876853486E-2    7.328255645164972E-2
 4.900000000000000E8     9.998383916624326E-2    8.295564080808407E-2    6.505356955493905E-1   -7.333207397757494E-1    6.497505430849836E-1   -7.286866143716677E-1    1.011496872037134E-1    7.270046967804136E-2
 5.000000000000000E8     1.034112579456271E-1    8.366602016125757E-2    6.368630058974605E-1   -7.440453195278143E-1    6.361964112665945E-1   -7.399222627330460E-1    1.021942098589602E-1    7.388700852266708E-2
 5.100000000000000E8     1.045437657310525E-1    8.392380124631510E-2    6.236534797349527E-1   -7.540846744675647E-1    6.231433294237370E-1   -7.498612504904713E-1    1.062767854501625E-1    7.368771298596247E-2
 5.200000000000000E8     1.061384912225987E-1    8.147671697781227E-2    6.110551449228052E-1   -7.640730999904114E-1    6.104738431398911E-1   -7.598164702323927E-1    1.092525722186633E-1    7.387481766650220E-2
 5.300000000000000E8     1.084389328563345E-1    8.066670868324755E-2    5.980831172749994E-1   -7.740921976027703E-1    5.974476216325632E-1   -7.696308269388511E-1    1.130952744589899E-1    7.414205358536771E-2
 5.400000000000000E8     1.125635082696223E-1    7.935508549833331E-2    5.848132275561773E-1   -7.837704969926071E-1    5.842181488112513E-1   -7.793038625966795E-1    1.173839179880535E-1    7.349629072613437E-2
 5.500000000000000E8     1.167496861609742E-1    7.840480908144049E-2    5.714290606902060E-1   -7.931287187842200E-1    5.708501525158431E-1   -7.887802167573139E-1    1.187293248089057E-1    7.147207334433286E-2
 5.600000000000000E8     1.216268396423376E-1    7.742149443895366E-2    5.575051237937740E-1   -8.023694586151630E-1    5.570041214079323E-1   -7.980283199534106E-1    1.215714332591094E-1    7.017247939711542E-2
 5.700000000000000E8     1.266111573239742E-1    7.751781457291816E-2    5.440341978071478E-1   -8.110409822762605E-1    5.435767931241577E-1   -8.067169839249256E-1    1.245493911372617E-1    6.901292254854652E-2
 5.800000000000000E8     1.298843877724695E-1    7.810641174730851E-2    5.305831342249011E-1   -8.193714885187573E-1    5.302447725456446E-1   -8.151325639773214E-1    1.277164910013049E-1    6.875716653953300E-2
 5.900000000000000E8     1.283372181489063E-1    7.839666224101800E-2    5.214637648316542E-1   -8.250329926878257E-1    5.184855432278361E-1   -8.220330080818906E-1    1.334941827839014E-1    6.633644043759906E-2
 6.000000000000000E8     1.311499592732106E-1    7.694537396388930E-2    5.076847316675155E-1   -8.328998544509905E-1    5.050728777114594E-1   -8.299054575712328E-1    1.361812067016723E-1    6.519863915870761E-2
 6.100000000000000E8     1.336065964438093E-1    7.535454633709866E-2    4.926937747664573E-1   -8.405360780066157E-1    4.899433458712018E-1   -8.376040164614268E-1    1.391010194159474E-1    6.444301484438560E-2
 6.200000000000000E8     1.356744890023016E-1    7.375108371670744E-2    4.778425759351450E-1   -8.484080506430524E-1    4.749635628304987E-1   -8.453860719379384E-1    1.421583798484622E-1    6.435574360239152E-2
 6.300000000000000E8     1.390734329248403E-1    7.251286318525894E-2    4.628689839986568E-1   -8.561190023994369E-1    4.602186805742114E-1   -8.530696845755327E-1    1.459135790785071E-1    6.243250741547284E-2
 6.400000000000000E8     1.419378153127625E-1    7.049499396458658E-2    4.441273461744273E-1   -8.659296900564932E-1    4.440492411493335E-1   -8.615714766018034E-1    1.460167166970136E-1    6.161430564020617E-2
 6.500000000000000E8     1.467223213898450E-1    6.872002136906566E-2    4.292218145530882E-1   -8.726829800694086E-1    4.292625984625297E-1   -8.685110168652934E-1    1.477358501606673E-1    5.943976254656554E-2
 6.600000000000000E8     1.509158692457334E-1    6.717517371001230E-2    4.141092308829384E-1   -8.792477221602083E-1    4.142665315146801E-1   -8.750871052130549E-1    1.503726021933662E-1    5.742039169306588E-2
 6.700000000000000E8     1.550284882638496E-1    6.558357692947436E-2    3.987214170894999E-1   -8.860345516559270E-1    3.988910879796029E-1   -8.817476555965783E-1    1.515587902630210E-1    5.579483088630334E-2
 6.800000000000000E8     1.584671839521644E-1    6.536331855861546E-2    3.827743450463343E-1   -8.921265094472003E-1    3.833228215401389E-1   -8.878889698779694E-1    1.544956029304707E-1    5.436945158842854E-2
 6.900000000000000E8     1.606641511328083E-1    6.431895701127843E-2    3.671056148360859E-1   -8.977988187985476E-1    3.677958563666286E-1   -8.934870755759362E-1    1.575402515757671E-1    5.225920269822851E-2
 7.000000000000000E8     1.619903356226687E-1    6.329106073382945E-2    3.508366197793363E-1   -9.033488392012099E-1    3.516359166709229E-1   -8.991325801424961E-1    1.622905654618491E-1    5.080137340291162E-2
 7.100000000000000E8     1.631116720564693E-1    6.066898958003543E-2    3.339874111692707E-1   -9.093987282803905E-1    3.347940121039008E-1   -9.051144214387755E-1    1.651827639205086E-1    4.939576576574394E-2
 7.200000000000000E8     1.643707865426706E-1    5.791907145389297E-2    3.178006390509711E-1   -9.153496211562274E-1    3.185960730212679E-1   -9.111561258032633E-1    1.688542655831418E-1    4.683621842665105E-2
 7.300000000000000E8     1.673660285766940E-1    5.667512522245836E-2    3.040013197588786E-1   -9.194127274133005E-1    3.048434804123149E-1   -9.153032995414030E-1    1.712710482834652E-1    4.432574516031852E-2
 7.400000000000000E8     1.704172868968246E-1    5.339218123803999E-2    2.915599982937888E-1   -9.222879716834155E-1    2.923950499395945E-1   -9.184321268576755E-1    1.719417673703871E-1    4.123186439211909E-2
 7.500000000000000E8     1.748171742740682E-1    5.142421079486668E-2    2.785345056824848E-1   -9.248554309793192E-1    2.793622712771496E-1   -9.212396201732743E-1    1.732927217043187E-1    3.879424561109943E-2
 7.600000000000000E8     1.781165357259853E-1    4.961754598486736E-2    2.622353229544129E-1   -9.289421604044995E-1    2.632219981236161E-1   -9.252983437313061E-1    1.747672786140231E-1    3.629319156610634E-2
 7.700000000000000E8     1.808439104331049E-1    4.774466750692502E-2    2.457511912034121E-1   -9.328810659395711E-1    2.468658473271387E-1   -9.290764037988352E-1    1.760069835491989E-1    3.410821155155300E-2
 7.800000000000000E8     1.828084457414894E-1    4.586754462626974E-2    2.292188652953246E-1   -9.365210032995431E-1    2.306904454467331E-1   -9.325527911134553E-1    1.788794575833617E-1    3.182244884537860E-2
 7.900000000000000E8     1.837550682687692E-1    4.290763554365810E-2    2.134516033677751E-1   -9.397008192695560E-1    2.146518617067834E-1   -9.354311057400851E-1    1.822947308226781E-1    2.881270604000368E-2
 8.000000000000000E8     1.848245610581083E-1    4.161068364449963E-2    1.973702837417436E-1   -9.429894799193335E-1    1.987361731687972E-1   -9.386905130141368E-1    1.846536863741762E-1    2.694974197302984E-2
 8.100000000000000E8     1.862029246184274E-1    3.882633445314106E-2    1.812414917637712E-1   -9.457855372527493E-1    1.825808362622352E-1   -9.416121716904651E-1    1.876429789290041E-1    2.371497893103824E-2
 8.200000000000000E8     1.880256622857053E-1    3.479864707854032E-2    1.647770699911610E-1   -9.483697055762321E-1    1.662289815774388E-1   -9.442846211752897E-1    1.899219491112254E-1    2.023479579950222E-2
 8.300000000000000E8     1.920799481465266E-1    3.152223861155089E-2    1.482053623362266E-1   -9.505526453184056E-1    1.495753271401296E-1   -9.466413676632923E-1    1.922409110502165E-1    1.711489753737611E-2
 8.400000000000000E8     1.941629674370212E-1    2.836823174342233E-2    1.319545869661914E-1   -9.524875126855921E-1    1.333614460770818E-1   -9.486566589310473E-1    1.931749786634668E-1    1.440528607702387E-2
 8.500000000000000E8     1.980771966233036E-1    2.528726103865010E-2    1.159167348611886E-1   -9.539442790214678E-1    1.177357273557122E-1   -9.501431407081599E-1    1.945200626880227E-1    1.109118122721049E-2
 8.600000000000000E8     2.008795113321384E-1    2.211577710671974E-2    1.003029564050737E-1   -9.550331407701015E-1    1.021120895313651E-1   -9.513218544487385E-1    1.957761939938436E-1    7.873608367961138E-3
 8.700000000000000E8     2.031308589080606E-1    2.017497777067375E-2    8.423735415616064E-2   -9.558543503303849E-1    8.617182967628326E-2   -9.520904333584859E-1    1.968966302609963E-1    6.038769363093308E-3
 8.800000000000000E8     2.040021365062908E-1    1.815896413216109E-2    6.834913877158123E-2   -9.566303841251949E-1    7.041078515384587E-2   -9.525460290297668E-1    1.990373635389756E-1    1.674851281935799E-3
 8.900000000000000E8     2.052024816293639E-1    1.541769659302344E-2    5.290147878840194E-2   -9.570144740878551E-1    5.498913352166147E-2   -9.529047746270097E-1    2.013268016512945E-1   -7.554245982177993E-4
 9.000000000000000E8     2.053370186218048E-1    1.301978666456022E-2    4.115248652580986E-2   -9.567722521174131E-1    4.070247842910044E-2   -9.533673183587345E-1    2.040758007064168E-1   -7.451450167792868E-3
 9.100000000000000E8     2.054981151620361E-1    9.941951713946080E-3    2.605058625339287E-2   -9.568606187055602E-1    2.546945545257685E-2   -9.533143932522117E-1    2.059257934370478E-1   -1.041376869458883E-2
