#  HZ   S   RI   R     50.00 
! Rohde & Schwarz Vector Network Analyzer 
! Rohde-Schwarz,ZNL20-2Port,1323001220101312,1.72.1.6-23.02.1.246
! Created: UTC 10/14/2024, 8:32:38 PM
! freq[Hz]                re:S11                  im:S11                  re:S21                  im:S21                  re:S12                  im:S12                  re:S22                  im:S22
 3.900000000000000E6     1.000281321596704      -5.406437655950851E-3    2.022031588753671      -2.259596421575399E-2   -1.786278412033305E-5   -5.108821706065061E-5   -1.028367759269690       8.853843024975456E-3
 7.800000000000000E6     1.000007728788779      -1.035898599306113E-2    2.028002621919887      -4.682234272586858E-2    3.461334834323076E-5   -3.679159361686946E-5   -1.027863921803321       1.884187239947995E-2
 1.170000000000000E7     9.998352744071144E-1   -1.611683947837050E-2    2.029164203353707      -7.106549454319745E-2   -2.296371998104011E-5   -3.843792553025806E-5   -1.027377185519230       2.852416105745641E-2
 1.560000000000000E7     9.999784163067572E-1   -2.176820369097268E-2    2.029638218307715      -9.103823716789525E-2   -1.252855042023387E-5   -9.082556282665536E-6   -1.027173911816927       3.802629702196395E-2
 1.950000000000000E7     9.999417557168863E-1   -2.749676784414094E-2    2.029830235106688      -1.158356524284992E-1   -4.859639125556680E-5   -1.592834960942681E-5   -1.026895762683614       4.796156122004969E-2
 2.340000000000000E7     9.998311835844393E-1   -3.311091900985503E-2    2.029013744434653      -1.343955831874736E-1   -4.332800719731904E-5   -5.804662997948493E-5   -1.026446699987393       5.717630771470444E-2
 2.730000000000000E7     9.998907353914221E-1   -3.875191035005926E-2    2.027187397608585      -1.575798819426099E-1   -6.672163114390001E-5   -6.369737628148704E-5   -1.025689920170345       6.610463196900501E-2
 3.120000000000000E7     9.997970352184506E-1   -4.422104364427173E-2    2.028057706287407      -1.801267005795563E-1   -8.065591481453995E-5   -4.670983423741882E-5   -1.025267080158391       7.483135011935389E-2
 3.510000000000000E7     9.996225543700031E-1   -4.971237602918075E-2    2.025540046783509      -2.010078157468166E-1   -1.430521861608464E-4   -5.409176191827490E-5   -1.024839456911886       8.336801916536168E-2
 3.900000000000000E7     9.996281710868213E-1   -5.526131904546896E-2    2.026399298629140      -2.216932245033247E-1   -1.446008947287903E-4   -7.056791658728050E-5   -1.024802693176505       9.215900467904291E-2
 4.290000000000000E7     9.995169216993820E-1   -6.083006327272376E-2    2.023923799007676      -2.461081929559906E-1   -1.468756233743385E-4   -6.276786834805210E-5   -1.024690277986655       1.014086679919369E-1
 4.680000000000000E7     9.994455743318041E-1   -6.645955547399408E-2    2.020706454074278      -2.685647876694491E-1   -2.118523930998636E-4   -6.239723904381036E-5   -1.025111642859968       1.110029972140472E-1
 5.070000000000000E7     9.992295711509941E-1   -7.212806766930012E-2    2.020512390338658      -2.956950482159197E-1   -2.389832563839034E-4   -7.671081131831761E-5   -1.025113094090879       1.207710764605537E-1
 5.460000000000000E7     9.990963975549766E-1   -7.770856225332147E-2    2.015625796252507      -3.144500764610338E-1   -2.715045515959141E-4   -1.180820518223431E-4   -1.025161502223009       1.303520202511629E-1
 5.850000000000000E7     9.990433876042648E-1   -8.329431508916973E-2    2.013771017939349      -3.380380877435333E-1   -3.293744065092408E-4   -1.031870180818045E-4   -1.025142444864052       1.402583348289650E-1
 6.240000000000000E7     9.988631114941797E-1   -8.883187293582680E-2    2.010803871483918      -3.618197864247626E-1   -3.360331915570502E-4   -1.057794651550116E-4   -1.024325315347807       1.503539152707428E-1
 6.630000000000000E7     9.987440711057021E-1   -9.442333488998617E-2    2.008547160761429      -3.848183982687651E-1   -3.958981245028320E-4   -1.280647708762209E-4   -1.023333859424660       1.608381750425754E-1
 7.020000000000000E7     9.984651403989966E-1   -1.001083915335177E-1    2.004821649121217      -4.071798326908431E-1   -4.348145529750313E-4   -1.152191088285294E-4   -1.021681091090737       1.713888632563271E-1
 7.410000000000000E7     9.983728685377541E-1   -1.055800352219127E-1    1.999792527217960      -4.289879305651164E-1   -5.070686253737769E-4   -1.062439967363706E-4   -1.019864394352499       1.814436726206018E-1
 7.800000000000000E7     9.980959134204799E-1   -1.111443834273911E-1    1.994980485173770      -4.494394505732358E-1   -5.854540073471904E-4   -1.262768525416267E-4   -1.017814098155147       1.913815997602722E-1
 8.190000000000000E7     9.979778198732280E-1   -1.166848902137580E-1    1.990818719712496      -4.703076979193774E-1   -6.008199347699120E-4   -1.362796577907780E-4   -1.015528848647831       2.011060146498279E-1
 8.580000000000000E7     9.975772127488023E-1   -1.223466862256717E-1    1.986552823453216      -4.943645330388782E-1   -6.450168695769600E-4   -1.235741887371093E-4   -1.013150912856062       2.105137641891754E-1
 8.970000000000000E7     9.973451365661649E-1   -1.281320700746081E-1    1.980587282900513      -5.163709986886095E-1   -7.445255036261032E-4   -1.235092291249549E-4   -1.010517576989042       2.197854798858921E-1
 9.360000000000000E7     9.969342218881582E-1   -1.332411909217816E-1    1.977878576521723      -5.366161014554783E-1   -8.039364106733849E-4   -1.251689220481752E-4   -1.008201920869620       2.287798766802240E-1
 9.750000000000000E7     9.966923875751778E-1   -1.393097034081040E-1    1.972839519881191      -5.598361854446675E-1   -8.595300243320140E-4   -1.382702005773446E-4   -1.005770604825480       2.375427650412876E-1
 1.014000000000000E8     9.964441879920063E-1   -1.448976747352963E-1    1.967421364508687      -5.791498843551799E-1   -9.231110315096763E-4   -1.018658346747307E-4   -1.003710481084472       2.462563203951346E-1
 1.053000000000000E8     9.960910027598638E-1   -1.504952808697692E-1    1.961153023029011      -6.022500459831542E-1   -1.002965938524234E-3   -1.276123775255665E-4   -1.001764493948564       2.550575540971826E-1
 1.092000000000000E8     9.957563072695600E-1   -1.560548063483258E-1    1.957404924016484      -6.231423915239511E-1   -1.067405196351362E-3   -1.201355413612864E-4   -9.998703419871284E-1    2.639387164537776E-1
 1.131000000000000E8     9.952884048377861E-1   -1.616987549576142E-1    1.952787094718781      -6.466263343140237E-1   -1.174707252356051E-3   -1.218377128528574E-4   -9.980959190633014E-1    2.730527354683583E-1
 1.170000000000000E8     9.949468635304237E-1   -1.672678464375382E-1    1.948252132149574      -6.682437343893814E-1   -1.235511587252049E-3   -1.315185615087830E-4   -9.960133759852619E-1    2.824449699558007E-1
 1.209000000000000E8     9.945555670680847E-1   -1.729519955869104E-1    1.939977884435662      -6.916465542004149E-1   -1.309551034277944E-3   -1.201602745254521E-4   -9.939367575951902E-1    2.917774446825411E-1
 1.248000000000000E8     9.940742455251836E-1   -1.785087063519417E-1    1.933600491830977      -7.126771135938855E-1   -1.423015996385826E-3   -1.054482189894622E-4   -9.918145120636828E-1    3.012303713460252E-1
 1.287000000000000E8     9.936699173689502E-1   -1.842318420023708E-1    1.926707387166546      -7.359198589496447E-1   -1.489545588644823E-3   -1.088484987892601E-4   -9.894002405140025E-1    3.106597219635175E-1
 1.326000000000000E8     9.932139839827654E-1   -1.899133711790261E-1    1.919420560780816      -7.578950895516566E-1   -1.593006013466218E-3   -9.833465757948934E-5   -9.869857666168191E-1    3.202800442316989E-1
 1.365000000000000E8     9.928197914764063E-1   -1.956110651094465E-1    1.912616862390238      -7.816389336793061E-1   -1.678442682022259E-3   -1.148602460609504E-4   -9.845094039913944E-1    3.296896946132161E-1
 1.404000000000000E8     9.923323973596337E-1   -2.013726495207956E-1    1.903482749224948      -8.021097853164467E-1   -1.798578773453850E-3   -1.088930734383066E-4   -9.819678341598473E-1    3.392482685667917E-1
 1.443000000000000E8     9.918082640667669E-1   -2.073449849587632E-1    1.894637099023401      -8.254081350804680E-1   -1.919634639934237E-3   -9.290611138956838E-5   -9.789877986421111E-1    3.490020669621933E-1
 1.482000000000000E8     9.912395970971476E-1   -2.132824245879074E-1    1.886209952402130      -8.464867810480035E-1   -2.057767266983562E-3   -1.164596814518070E-4   -9.760581971693642E-1    3.589872605266579E-1
 1.521000000000000E8     9.908345936790488E-1   -2.190714329772285E-1    1.878440735672485      -8.697207792967910E-1   -2.146499308954033E-3   -7.002638752460565E-5   -9.730869298411842E-1    3.686068739723684E-1
 1.560000000000000E8     9.901921694165942E-1   -2.248792085323851E-1    1.868963957414195      -8.889950247511129E-1   -2.268334835673270E-3   -7.866993876687217E-5   -9.700644411208760E-1    3.782956291274926E-1
 1.599000000000000E8     9.897283277360532E-1   -2.305733636161938E-1    1.858500354656322      -9.089150703482057E-1   -2.386071341274144E-3   -4.808650380186500E-5   -9.666820266114420E-1    3.878919300937270E-1
 1.638000000000000E8     9.890250008446440E-1   -2.363004472708070E-1    1.847279034611625      -9.323208781567894E-1   -2.532616983142992E-3   -5.214143036672808E-5   -9.629910997032973E-1    3.975226985970310E-1
 1.677000000000000E8     9.885789800493193E-1   -2.421880421859618E-1    1.839622347647739      -9.514145253968227E-1   -2.666490783874044E-3    5.283825954847963E-6   -9.592393663225258E-1    4.070084858284677E-1
 1.716000000000000E8     9.877843021693204E-1   -2.480193956996262E-1    1.827352747373051      -9.717365649239901E-1   -2.805354500606421E-3   -3.062322637449325E-6   -9.548919076068777E-1    4.162135567615645E-1
 1.755000000000000E8     9.871519041158849E-1   -2.540255062882457E-1    1.818135341475955      -9.915388542639407E-1   -2.962596001519304E-3    1.029192024434540E-5   -9.506329813905725E-1    4.253983439879435E-1
 1.794000000000000E8     9.864846457286948E-1   -2.599003805617474E-1    1.808247067295151      -1.011624277525535      -3.077203364543303E-3    9.302090103715738E-5   -9.462716641224763E-1    4.343239540053549E-1
 1.833000000000000E8     9.857333965265047E-1   -2.659237627718187E-1    1.798987683328997      -1.031729965823849      -3.264499485263602E-3    1.022159129139977E-4   -9.418328140146504E-1    4.430097893232502E-1
 1.872000000000000E8     9.851083574349058E-1   -2.719015987982843E-1    1.788251269354183      -1.051656011973599      -3.382816926112309E-3    1.335564743219379E-4   -9.373979019462573E-1    4.515412661449262E-1
 1.911000000000000E8     9.842205486797481E-1   -2.777546885809338E-1    1.777743192743550      -1.072056173006189      -3.527468387839829E-3    1.986292791547982E-4   -9.329335169773287E-1    4.598908880847942E-1
 1.950000000000000E8     9.834292169902261E-1   -2.838490132017368E-1    1.768176302579600      -1.095104973419665      -3.672418719002272E-3    2.387511633644714E-4   -9.286613293084556E-1    4.680478493004139E-1
 1.989000000000000E8     9.826062978507336E-1   -2.899438838236454E-1    1.756188802909477      -1.116200537923184      -3.821387173457497E-3    2.673830069374744E-4   -9.244608367968083E-1    4.764708966705280E-1
 2.028000000000000E8     9.818063629520264E-1   -2.958668656030406E-1    1.745454782891583      -1.132934995597514      -3.994505018997148E-3    2.704980945904417E-4   -9.204506820504577E-1    4.847380877617165E-1
 2.067000000000000E8     9.808773128660988E-1   -3.019611001269534E-1    1.736652968022841      -1.157314515633996      -4.125313240910243E-3    3.335448333348241E-4   -9.163735719098550E-1    4.933393985615396E-1
 2.106000000000000E8     9.799220724094477E-1   -3.079606729969349E-1    1.723465302490111      -1.176220803304143      -4.313002695134733E-3    3.860187831625945E-4   -9.121305543079540E-1    5.020008636291571E-1
 2.145000000000000E8     9.790599097736594E-1   -3.140478218581093E-1    1.712929809343075      -1.196312747769456      -4.517586538458657E-3    4.358183474031502E-4   -9.079558795703981E-1    5.106185632073694E-1
 2.184000000000000E8     9.780873327477421E-1   -3.202560700834422E-1    1.698340809389219      -1.216386185163693      -4.585876642412019E-3    4.466674410755020E-4   -9.035283739188772E-1    5.196480979384391E-1
 2.223000000000000E8     9.771584502484689E-1   -3.262573874747809E-1    1.688697559345832      -1.238368745804497      -4.847468294156510E-3    5.125238829620492E-4   -8.991628834021841E-1    5.282934726105668E-1
 2.262000000000000E8     9.760516343332546E-1   -3.324571761942602E-1    1.675335985331563      -1.255142548218562      -5.052947192538809E-3    5.806267125147831E-4   -8.944129181180379E-1    5.369590934971793E-1
 2.301000000000000E8     9.750394069317928E-1   -3.385871113932596E-1    1.662926485185563      -1.277519117295999      -5.245510706853220E-3    6.271155435990315E-4   -8.895308328815159E-1    5.456502205547856E-1
 2.340000000000000E8     9.739467543051692E-1   -3.447957426130083E-1    1.650217828952509      -1.293728710344915      -5.429606437776256E-3    6.913947013433360E-4   -8.847886749828602E-1    5.544032968799462E-1
 2.379000000000000E8     9.727724975741058E-1   -3.509361036208999E-1    1.634769958160848      -1.312576398661415      -5.630465736099794E-3    8.046748815996463E-4   -8.796712961685309E-1    5.631951274471215E-1
 2.418000000000000E8     9.716856436407391E-1   -3.571836218436337E-1    1.620469555888470      -1.330532167290163      -5.856301030783296E-3    8.506645218860316E-4   -8.745214361912554E-1    5.717117872072064E-1
 2.457000000000000E8     9.704765381221311E-1   -3.633326563891621E-1    1.607705457017775      -1.349846053705421      -6.043057895923674E-3    8.845552325142150E-4   -8.693409434832361E-1    5.803253536608283E-1
 2.496000000000000E8     9.692254098054331E-1   -3.694978502259419E-1    1.592792896421020      -1.367453986494993      -6.291846170787935E-3    9.789426002565407E-4   -8.640575286583427E-1    5.888254625638607E-1
 2.535000000000000E8     9.680743173845774E-1   -3.757669738831363E-1    1.581432193641493      -1.385688634702895      -6.506048083755643E-3    1.038711927869546E-3   -8.586310567520010E-1    5.974533300987094E-1
 2.574000000000000E8     9.667572295879338E-1   -3.818833241277685E-1    1.564171844244970      -1.400289946863092      -6.720428436476709E-3    1.163611287487186E-3   -8.529337730849045E-1    6.057355510436256E-1
 2.613000000000000E8     9.654628649922062E-1   -3.881605981089714E-1    1.550675550792109      -1.419268780284987      -6.985982868174713E-3    1.246337335423860E-3   -8.474008831858683E-1    6.142121109791249E-1
 2.652000000000000E8     9.642257021831294E-1   -3.944652217512297E-1    1.535706036262279      -1.437586775897171      -7.213046317865959E-3    1.348825589315674E-3   -8.415414750058290E-1    6.222288714664705E-1
 2.691000000000000E8     9.628216767575877E-1   -4.006275011021589E-1    1.522017374210080      -1.453007525991679      -7.446841438403191E-3    1.475337127392074E-3   -8.357391301883197E-1    6.303574580163167E-1
 2.730000000000000E8     9.613326200054142E-1   -4.070143221619358E-1    1.505354596347936      -1.469320041607219      -7.721962261909568E-3    1.559073272045000E-3   -8.296509956736156E-1    6.382168615915123E-1
 2.769000000000000E8     9.598619364028553E-1   -4.131668351709669E-1    1.490721816655683      -1.486376351693808      -7.941793490420840E-3    1.691460491534481E-3   -8.236856082149854E-1    6.457446707089833E-1
 2.808000000000000E8     9.584022375778520E-1   -4.194268180639229E-1    1.476419299319200      -1.504065545423957      -8.224865408647912E-3    1.527816703338583E-3   -8.175083024979096E-1    6.539500924929177E-1
 2.847000000000000E8     9.567989086428353E-1   -4.256652854403200E-1    1.461062883628520      -1.522451684927583      -8.427912097227479E-3    1.936993147237353E-3   -8.117564396629530E-1    6.609147618359391E-1
 2.886000000000000E8     9.551799117366314E-1   -4.320489698315502E-1    1.447681576334014      -1.539987888742070      -8.688301583317834E-3    2.068444497471006E-3   -8.057562200255260E-1    6.683362968736787E-1
 2.925000000000000E8     9.536097220126767E-1   -4.385053303708770E-1    1.430027500445078      -1.557901264316250      -8.926754395961509E-3    2.231928179052330E-3   -7.998683327576096E-1    6.757231390398264E-1
 2.964000000000000E8     9.520161613121667E-1   -4.446688811982688E-1    1.416870682910707      -1.575304384140744      -9.170709088562424E-3    2.367280302007370E-3   -7.939451862608744E-1    6.831522577278289E-1
 3.003000000000000E8     9.503021280205782E-1   -4.510594141314614E-1    1.402835647804212      -1.592669120896363      -9.425489404822652E-3    2.509076740803901E-3   -7.880771999269781E-1    6.906314779863484E-1
 3.042000000000000E8     9.484303025670532E-1   -4.574739443874759E-1    1.388047038811129      -1.608629395133993      -9.680756517355168E-3    2.674958995025769E-3   -7.820243234309369E-1    6.982688908289033E-1
 3.081000000000000E8     9.467816963322013E-1   -4.636587431737416E-1    1.374213821335067      -1.626234250407841      -9.986174160773402E-3    2.821314899974889E-3   -7.757703900293632E-1    7.059388849230960E-1
 3.120000000000000E8     9.448375156522106E-1   -4.701959241015024E-1    1.358313869351181      -1.638419393821163      -1.027986973452034E-2    3.010779028230708E-3   -7.694740453948853E-1    7.136795188985799E-1
 3.159000000000000E8     9.429305670074388E-1   -4.766507306394927E-1    1.342335004961166      -1.658648458576854      -1.056672400588840E-2    3.206172048522058E-3   -7.630241529530639E-1    7.212066841742625E-1
 3.198000000000000E8     9.409977888247815E-1   -4.830317725551602E-1    1.330427185086094      -1.670569473247589      -1.083659048283166E-2    3.376315089766335E-3   -7.564000733151554E-1    7.289676015850594E-1
 3.237000000000000E8     9.389954035910573E-1   -4.894332721349545E-1    1.315565372849804      -1.686471589209581      -1.110640494836542E-2    3.599868889779048E-3   -7.496400812504823E-1    7.364846201978309E-1
 3.276000000000000E8     9.368798170327889E-1   -4.958842122538022E-1    1.299954671192964      -1.700397391801949      -1.140805723186716E-2    3.786493108622171E-3   -7.428444727668770E-1    7.439482620094920E-1
 3.315000000000000E8     9.347849418507778E-1   -5.023012159447944E-1    1.286879336793876      -1.715796811760753      -1.170253610435306E-2    4.008558540339299E-3   -7.358442501724438E-1    7.515158681280749E-1
 3.354000000000000E8     9.326670791282393E-1   -5.087521080120668E-1    1.271039017901529      -1.731541039578000      -1.198312867369804E-2    4.214196030800043E-3   -7.288555807121091E-1    7.588751929120969E-1
 3.393000000000000E8     9.304635308181316E-1   -5.150703416279593E-1    1.254551585457446      -1.743652714901047      -1.229212304066470E-2    4.484788985754531E-3   -7.217292519140601E-1    7.662781459994552E-1
 3.432000000000000E8     9.283255208015254E-1   -5.215103546722379E-1    1.238560622717533      -1.757300801201956      -1.259343929766980E-2    4.686717750230087E-3   -7.148279971458431E-1    7.734987552656507E-1
 3.471000000000000E8     9.260653197823493E-1   -5.280402740842745E-1    1.218532524179199      -1.775557752162027      -1.286560997936632E-2    4.964736557394328E-3   -7.077381340117025E-1    7.807122557227919E-1
 3.510000000000000E8     9.237750812806865E-1   -5.346279064775805E-1    1.197215592042005      -1.786644767381115      -1.316322805030261E-2    5.231876986153706E-3   -7.003450873989649E-1    7.878491810705653E-1
 3.549000000000000E8     9.214616925858496E-1   -5.409784547063227E-1    1.175748929358444      -1.798470109577582      -1.347124401662640E-2    5.497101035799567E-3   -6.930649329606197E-1    7.949840646459415E-1
