# HZ S RI R 50
3900000 0.5420043858976602 -0.0006200328575811982 1.671273507003124 -0.023116123715423896 0 0 0 0
7800000 0.5382248820454437 0.00017816775966753387 1.6792562206895996 -0.05979052047432873 0 0 0 0
11700000 0.5358307232705658 -0.001301784773735364 1.6867279240227173 -0.11711481022072243 0 0 0 0
15600000 0.5337156138294336 -0.0019712531838260603 1.6896856708116452 -0.16735362404592885 0 0 0 0
19500000 0.5305642235889476 -0.0019887206233184297 1.6929315107816254 -0.2093966539679274 0 0 0 0
23400000 0.5285307394724378 -0.0029134178666443537 1.6936534113195645 -0.25540642703241645 0 0 0 0
27300000 0.5270883827663055 -0.0033161652232155895 1.6927906125627237 -0.29904917786872726 0 0 0 0
31200000 0.5247199583184923 -0.004364321478864721 1.6915113198882812 -0.3567812602545982 0 0 0 0
35100000 0.5233657971308495 -0.004999844976838637 1.6840190413209966 -0.4162637219273122 0 0 0 0
39000000 0.5217635419562667 -0.006497746122015723 1.6818583270432792 -0.4632271479185304 0 0 0 0
42900000 0.5199978508892694 -0.007353885243598723 1.675478009315995 -0.5165187768411987 0 0 0 0
46800000 0.5180107871402123 -0.008942500460115414 1.6673183137762297 -0.5653015395996507 0 0 0 0
50700000 0.5165476851893583 -0.009068057915590613 1.6499671055630658 -0.6459875596336344 0 0 0 0
54600000 0.5158567678000745 -0.01023244312328298 1.6434032198853972 -0.684730968926926 0 0 0 0
58500000 0.5150942448291357 -0.011262404154257472 1.639556677430298 -0.7131869148671877 0 0 0 0
62400000 0.5138014879115786 -0.012909049595281333 1.607592852128929 -0.8133652792198235 0 0 0 0
66300000 0.5120631382077789 -0.013673780698256425 1.590712316379562 -0.8686610585915817 0 0 0 0
70200000 0.5110622626927321 -0.015552121803623482 1.6015957455909517 -0.8628073014959365 0 0 0 0
74100000 0.5098386841296692 -0.017841998859436735 1.5736111277196048 -0.9356908100860386 0 0 0 0
78000000 0.5089751860854483 -0.018663017651098675 1.560312903820125 -0.980936741710169 0 0 0 0
81900000 0.508757910026268 -0.020669164256741097 1.5061609998600158 -1.0903028249162454 0 0 0 0
85800000 0.5077488737938246 -0.02227510233359047 1.500130184809131 -1.1130002682589792 0 0 0 0
89700000 0.5069907421152839 -0.02352866628613116 1.4744935243597326 -1.162420393478544 0 0 0 0
93600000 0.5059392613558337 -0.02559033098881316 1.447565460391238 -1.2163172837712355 0 0 0 0
97500000 0.5051296079685127 -0.027164257103146957 1.4121716099632582 -1.273891463293836 0 0 0 0
101400000 0.5032596578729119 -0.02945812838637065 1.3562759650704466 -1.3574740112835686 0 0 0 0
105300000 0.5020812370098467 -0.03221072533886389 1.2890985062098723 -1.4374942236594148 0 0 0 0
109200000 0.5014404907184132 -0.03493611363492185 1.3059542552660965 -1.4318512049770549 0 0 0 0
113100000 0.5011300816919052 -0.037173452885331984 1.251524481411646 -1.4917853334758455 0 0 0 0
117000000 0.4997437396449755 -0.04107199186085326 1.152418157193115 -1.5918687989883926 0 0 0 0
120900000 0.4990378814893238 -0.04288712431923923 1.1658750199213668 -1.5928365800396658 0 0 0 0
124800000 0.49736815924328087 -0.045592148874334874 1.0753613516605178 -1.6688942812397687 0 0 0 0
128700000 0.496294947007113 -0.04896168672574577 1.0822557447123293 -1.6754919593351247 0 0 0 0
132600000 0.4939048770796562 -0.05046625962212444 0.9735204000627575 -1.7516424205029368 0 0 0 0
136500000 0.49316483700448355 -0.05417565816395288 0.9686864328153415 -1.7645917103230442 0 0 0 0
140400000 0.5408047503591445 -0.06781823887251122 0.4222067614829962 -1.4651128120096606 0 0 0 0
144300000 0.539523780717959 -0.06953040605400823 0.41163671915977573 -1.4667168755820754 0 0 0 0
148200000 0.5383535048329949 -0.07164683270467084 0.4054633574920379 -1.474421156237697 0 0 0 0
152100000 0.5377846314718034 -0.07488809945106362 0.3577864167541257 -1.4858976883005683 0 0 0 0
156000000 0.5370414501925856 -0.07743834300248205 0.32168602376656796 -1.4948438664710335 0 0 0 0
159900000 0.536204733755258 -0.08034345772477604 0.13737614584177804 -1.5249694166629193 0 0 0 0
163800000 0.5356874983478619 -0.08250890492996191 0.09866856118163712 -1.5242336107514245 0 0 0 0
167700000 0.5348848260390655 -0.08608943837259446 0.08257368600918674 -1.528310284689308 0 0 0 0
171600000 0.5337203964580062 -0.08764760406858946 0.09108121479136556 -1.5248539151837714 0 0 0 0
175500000 0.5333840081581727 -0.0891568248681874 -0.039640432734469495 -1.5244800624714014 0 0 0 0
179400000 0.531448921366347 -0.09221744114443407 -0.023656209318271608 -1.5235085000425974 0 0 0 0
183300000 0.5310281178536826 -0.09434944535186243 -0.074692171412289 -1.534013198241469 0 0 0 0
187200000 0.5313717544571653 -0.09647891404638446 -0.2647856462625959 -1.5115106230004711 0 0 0 0
191100000 0.5301103635866463 -0.09847428516656931 -0.3128669202173283 -1.4955978945233839 0 0 0 0
195000000 0.5301668830394803 -0.09994834228473613 -0.34179146606179484 -1.4842719583210486 0 0 0 0
198900000 0.5298281955429625 -0.10175526941365727 -0.36121565061702926 -1.4799503461059083 0 0 0 0
202800000 0.5299506512604809 -0.10413224127488618 -0.36221910048491673 -1.4778749405652745 0 0 0 0
206700000 0.5299158174362979 -0.10543805548556542 -0.4655546799975518 -1.4434797516909592 0 0 0 0
210600000 0.5295145131758221 -0.10773414809050136 -0.5538744186253247 -1.4067242196371672 0 0 0 0
214500000 0.5299371660372204 -0.10868010854517357 -0.5419790552840099 -1.4068157242514803 0 0 0 0
218400000 0.5293005075670453 -0.11148294187289051 -0.6104717979058784 -1.3733792416278128 0 0 0 0
222300000 0.5288482291777935 -0.11340129522929195 -0.5877013449271167 -1.379898842824797 0 0 0 0
226200000 0.5284283856675354 -0.1162856223823054 -0.7992146158866584 -1.2681936302377037 0 0 0 0
230100000 0.5277707029618979 -0.11799120895601674 -0.8456310366113062 -1.2275922154908119 0 0 0 0
234000000 0.5261633460093138 -0.11982713814446164 -0.8863165687253274 -1.2073610537708175 0 0 0 0
237900000 0.5261896645587439 -0.12190207662949448 -0.9160668236570761 -1.1867805489762666 0 0 0 0
241800000 0.5255813284011707 -0.12439972027598009 -0.9377535242500987 -1.1636839461261674 0 0 0 0
245700000 0.5248673484212031 -0.1254776935154582 -0.9448341423357025 -1.1448702191759743 0 0 0 0
249600000 0.5242383160025633 -0.12868353924547896 -0.9460739687620022 -1.1374598460329899 0 0 0 0
253500000 0.5237062838901649 -0.1296789264915843 -0.9550770458011625 -1.1189465687576894 0 0 0 0
257400000 0.5238916502541604 -0.1325551589757882 -1.0750163435188413 -1.001238334719733 0 0 0 0
261300000 0.5233717647060447 -0.13383218911741818 -1.125271485800232 -0.9264070707023033 0 0 0 0
265200000 0.5239701148074544 -0.13590612832979448 -1.0867589860929068 -0.9617385601175369 0 0 0 0
269100000 0.5232508374495962 -0.13707103540531565 -1.1170006538077626 -0.9078919958748538 0 0 0 0
273000000 0.5237240298514789 -0.1397712089294693 -1.145874944346409 -0.861812898398395 0 0 0 0
276900000 0.5241289526659694 -0.14134308794130454 -1.1851910089026085 -0.8059646563080187 0 0 0 0
280800000 0.5226872960474302 -0.14392615181501528 -1.1932325111858237 -0.7910380116517503 0 0 0 0
284700000 0.5229866008357016 -0.14651434956988366 -1.1903715744866579 -0.7943083867757295 0 0 0 0
288600000 0.5228000256783458 -0.14734247068494902 -1.2968016454178413 -0.6001313188907226 0 0 0 0
292500000 0.5224547650727465 -0.14955175719807023 -1.3148208023983714 -0.53353291705129 0 0 0 0
296400000 0.5222993315640825 -0.15149983339588297 -1.323759566644282 -0.4807654241942147 0 0 0 0
300300000 0.5223843727602007 -0.15329344204691317 -1.3324006494548657 -0.4394402726513617 0 0 0 0
304200000 0.5224581236764447 -0.15562661265240094 -1.3385922209594494 -0.4040691006999491 0 0 0 0
308100000 0.5221586384553236 -0.1576216156003253 -1.3399008898180478 -0.37855248635335453 0 0 0 0
312000000 0.5231468949076319 -0.15873721220027187 -1.3394023571395066 -0.3641321726441704 0 0 0 0
315900000 0.5224163466983531 -0.16107340569549863 -1.3340963573209434 -0.3510118103630563 0 0 0 0
319800000 0.5218686893646416 -0.16399842547184548 -1.3417575008532123 -0.31102925350225963 0 0 0 0
323700000 0.5215664794741779 -0.16607004370921485 -1.3470932325617027 -0.28002027130138596 0 0 0 0
327600000 0.5219398190125699 -0.1682363785242517 -1.3438456217036303 -0.27413988218348384 0 0 0 0
331500000 0.5205304456520872 -0.1714126367831324 -1.3468171297530804 -0.22880252841511156 0 0 0 0
335400000 0.5212631799382519 -0.1719800453085252 -1.3550843270207056 -0.0967092858635644 0 0 0 0
339300000 0.5196675255408244 -0.174163621817409 -1.3498418140604427 0.018405333733931738 0 0 0 0
343200000 0.5191374485723061 -0.17605343379122537 -1.3439277719550504 0.0855140805803069 0 0 0 0
347100000 0.518020719398363 -0.17966839123526865 -1.341599503849716 0.12456748275940654 0 0 0 0
351000000 0.5177596533179453 -0.1798033653638106 -1.3461647733989504 0.07742105578967484 0 0 0 0
354900000 0.5166341987361309 -0.18148635619956285 -1.33683935289039 0.11711751816096039 0 0 0 0
358800000 0.5169002357671184 -0.1822135963423297 -1.3337889517542216 0.15327190943244645 0 0 0 0
362700000 0.5140375189510829 -0.18456588887398684 -1.3269704003429958 0.22567160277129802 0 0 0 0
366600000 0.5129314473621807 -0.18698673673599986 -1.3154556640598163 0.29359106178452915 0 0 0 0
370500000 0.5110251688307476 -0.18926748027272772 -1.3131268941563383 0.3440565497450468 0 0 0 0
374400000 0.5112085443954534 -0.18960996695110788 -1.3095878458761545 0.33194708790139377 0 0 0 0
378300000 0.510881771248838 -0.19074361927627315 -1.306198755835348 0.3903634933460753 0 0 0 0
382200000 0.5093094732645379 -0.19417294954938466 -1.303556299736954 0.41349848000175843 0 0 0 0
386100000 0.5077291587929976 -0.19490143504842414 -1.2957252703205482 0.4501658916087533 0 0 0 0
390000000 0.5072694411990857 -0.19777547762456246 -1.1562264644848208 0.7501161756615846 0 0 0 0
393900000 0.5056209557560203 -0.19906514715729723 -1.112464193763909 0.7986862613385028 0 0 0 0
397800000 0.5051051022468488 -0.1998498430674633 -1.0642604069770831 0.8436146469725428 0 0 0 0
401700000 0.503707775332145 -0.20114187078344686 -1.018813900954847 0.8868298668213259 0 0 0 0
405600000 0.5017805396103067 -0.20410321241563267 -0.9766006903179242 0.9236611014584233 0 0 0 0
409500000 0.5010407324140531 -0.20499296842825976 -0.9392737770924685 0.956146326922113 0 0 0 0
413400000 0.4992743623638388 -0.2065269532378434 -0.9016894035447104 0.984387902740702 0 0 0 0
417300000 0.49905743652608553 -0.20783898453039126 -0.8667094712121386 1.0124401234758245 0 0 0 0
421200000 0.4978807463143247 -0.2095856703938832 -0.8336080953117638 1.036435429488356 0 0 0 0
425100000 0.49665103351716205 -0.21182466326646526 -0.8026008705915177 1.0591141800746466 0 0 0 0
429000000 0.4962462698906646 -0.2119567300674425 -0.7679360025938183 1.082652544097729 0 0 0 0
432900000 0.49516980207377775 -0.21393623902111292 -0.7360012121618674 1.1062178178190147 0 0 0 0
436800000 0.49432738941243637 -0.21590073319030575 -0.7032055940194579 1.1252979644962626 0 0 0 0
440700000 0.4934236591676969 -0.2173036581379361 -0.6734002389344486 1.144734978067981 0 0 0 0
444600000 0.4925717572653186 -0.22042200880282217 -0.6400497887934474 1.1623450705007712 0 0 0 0
448500000 0.4909849306762666 -0.22083010205907075 -0.6108027535221131 1.1772316761341404 0 0 0 0
452400000 0.4921662481627866 -0.22290000389572698 -0.5857800594702092 1.1898820197167905 0 0 0 0
456300000 0.49197923614381256 -0.2236732321678107 -0.5624411787190181 1.2009389825070655 0 0 0 0
460200000 0.48942076934108797 -0.22735216476014264 -0.5413737954070944 1.2060154436449506 0 0 0 0
464100000 0.4871411410450265 -0.22803725869183059 -0.52733952584721 1.2226712252839653 0 0 0 0
468000000 0.486409549943963 -0.23050279039295307 -0.5033564255743906 1.2269712433111584 0 0 0 0
471900000 0.48621118254824 -0.2314567936754519 -0.4846287319433132 1.2314453909600496 0 0 0 0
475800000 0.48427140409824077 -0.2348870969009459 -0.4584341902272755 1.2377124458008946 0 0 0 0
479700000 0.48468619121169493 -0.23669148245256794 -0.43422023828578105 1.2431601171433881 0 0 0 0
483600000 0.48219520095552293 -0.23920483777272014 -0.38570791087174267 1.2346775386901039 0 0 0 0
487500000 0.48116451030511387 -0.24114546993963962 -0.36529955633204814 1.2378235806212998 0 0 0 0
491400000 0.48073594002420494 -0.24427232133954677 -0.3357157562587326 1.2486814531961756 0 0 0 0
495300000 0.4795540566731163 -0.24541524743121879 -0.2931683264345536 1.257598338159773 0 0 0 0
499200000 0.47897526390131434 -0.2477810971517047 -0.2418191172256558 1.2625352353253227 0 0 0 0
503100000 0.47903394907891444 -0.2486916041713645 -0.198542097756774 1.2634098221540204 0 0 0 0
507000000 0.47783007273376665 -0.25102821781023266 -0.1538783002577617 1.2611764395290472 0 0 0 0
510900000 0.4765880431352961 -0.253513373116767 -0.12429320870891108 1.258211510175862 0 0 0 0
514800000 0.47645961899833 -0.25498105321224523 -0.1004046466712758 1.2531634693153406 0 0 0 0
518700000 0.4760351002880753 -0.25759425792054014 -0.08256149474941801 1.252751084465959 0 0 0 0
522600000 0.47489229897906676 -0.26075922248018996 -0.05640912339573895 1.2609362948983662 0 0 0 0
526500000 0.4735802826115729 -0.2611605014184903 0.0046641382645892585 1.2701956617666292 0 0 0 0
530400000 0.473312293586428 -0.26413700726170203 0.08294504028806853 1.268972184050624 0 0 0 0
534300000 0.47221833370789407 -0.26644756822618765 0.14971654459345513 1.260606372723505 0 0 0 0
538200000 0.4713636317551617 -0.2681039375621265 0.20389640873361192 1.2482646399753943 0 0 0 0
542100000 0.47012892117095567 -0.27159386355369425 0.2529127548441206 1.2361388841511665 0 0 0 0
546000000 0.4693728710777605 -0.27243487220363255 0.2944080639086918 1.2209848684911364 0 0 0 0
549900000 0.46807845849565044 -0.27510365475326387 0.3361300408913876 1.2093040559681663 0 0 0 0
553800000 0.46525253347365064 -0.2781738400232145 0.3699927076447982 1.1890663005648798 0 0 0 0
557700000 0.46484034585281825 -0.2781083081692303 0.40933254961078636 1.1747644057613442 0 0 0 0
561600000 0.4643091343262278 -0.2815838505938369 0.43886175402120225 1.160587860054187 0 0 0 0
565500000 0.46457641257375476 -0.28509565372380996 0.44265289583744294 1.1526669961912628 0 0 0 0
569400000 0.460404555635261 -0.2878453208618866 0.4654367512927552 1.1432935590070035 0 0 0 0
573300000 0.4599440345885385 -0.28901564090843274 0.494557883914399 1.1248564570003865 0 0 0 0
577200000 0.45981640482506914 -0.29100657481885644 0.5249515934412678 1.1060924124012863 0 0 0 0
581100000 0.4574309815011112 -0.2927874856433764 0.5560430494619624 1.0900810235102536 0 0 0 0
585000000 0.45665987022079174 -0.2947170504745619 0.5902601764845786 1.0706805825150814 0 0 0 0
588900000 0.45642621358166313 -0.2960096355022818 0.6194539644069066 1.0533637424747786 0 0 0 0
592800000 0.45474322859274396 -0.2986476213866387 0.6501183783204878 1.0305721735249924 0 0 0 0
596700000 0.45270595361414945 -0.3003516076281861 0.6805234426606996 1.0029858399696703 0 0 0 0
600600000 0.4525915220499904 -0.3017470325467143 0.7174231616180826 0.9805337899654922 0 0 0 0
604500000 0.45001106467543867 -0.3048554801896846 0.7555846495687719 0.9541574044185941 0 0 0 0
608400000 0.44928894903950817 -0.30591143107371876 0.7897324323309988 0.9292249291241698 0 0 0 0
612300000 0.4467311629200823 -0.30830963776690906 0.8187512010264609 0.9049370908328447 0 0 0 0
616200000 0.44626619600448747 -0.31012891745852417 0.8518183069018053 0.8856133094490283 0 0 0 0
620100000 0.44561217988752166 -0.3111106607780487 0.8836192625034923 0.8638581167107549 0 0 0 0
624000000 0.44419459801821937 -0.31415884604179906 0.9123099693579674 0.8372418822187891 0 0 0 0
627900000 0.4425423929306324 -0.31212631564035337 0.9327467630107007 0.8265267096303297 0 0 0 0
631800000 0.4424064434244567 -0.3154330781035332 0.9601304042489898 0.8119132157590551 0 0 0 0
635700000 0.4413179769165095 -0.3167111169308463 0.9818596523638563 0.7871840653313714 0 0 0 0
639600000 0.43767841272369856 -0.31915800225849766 0.9973768983950737 0.7764417184386943 0 0 0 0
643500000 0.43671727310359004 -0.31808845788361595 1.0180551586716384 0.7573909605455799 0 0 0 0
647400000 0.4345679265430067 -0.32091451270938626 1.042292141965841 0.7171981407302651 0 0 0 0
651300000 0.4333316763083881 -0.3223628010855799 1.0789562794997234 0.6707695058959332 0 0 0 0
655200000 0.43182517620671346 -0.3242177232631047 1.2415604103457265 0.2374082801714354 0 0 0 0
659100000 0.42964206411391764 -0.3248634752135657 1.2480112005035306 0.14559366187498435 0 0 0 0
663000000 0.42779077287210787 -0.3256343451378892 1.2494646353316037 0.07386429721243734 0 0 0 0
666900000 0.4264928246724381 -0.32563671442523673 1.2450785003046536 0.0074774084805481825 0 0 0 0
670800000 0.4253090323579314 -0.32714726359306 1.2369717986681146 -0.054615960127625346 0 0 0 0
674700000 0.4233960883863614 -0.32757058186271915 1.2293398523328647 -0.10945984447820936 0 0 0 0
678600000 0.4231879016554188 -0.3277160648704113 1.2212450907428796 -0.16252950726697876 0 0 0 0
682500000 0.4210012354315861 -0.32908552374625155 1.2063869603582331 -0.2122330838800583 0 0 0 0
686400000 0.4204128977499903 -0.3287408736277716 1.1944195989767183 -0.2622844244411864 0 0 0 0
690300000 0.4178325042043989 -0.32976231450293747 1.1790220277988264 -0.3064801505863757 0 0 0 0
694200000 0.4175535750338219 -0.329639291469621 1.1641637301051335 -0.34795371622702465 0 0 0 0
698100000 0.41748566342631527 -0.32960478308682295 1.147426126596546 -0.38811041062780743 0 0 0 0
702000000 0.41522369221038147 -0.3308201234159924 1.1334855257754675 -0.4237996057006418 0 0 0 0
705900000 0.41629704188543304 -0.33113562115043665 1.1145602890306436 -0.46381261252257167 0 0 0 0
709800000 0.4166718665383046 -0.332247840896865 1.095259071048989 -0.502466774755742 0 0 0 0
713700000 0.415425823494428 -0.3320685117031088 1.0690374178841675 -0.5374820477478858 0 0 0 0
717600000 0.4118334412478863 -0.33366270295230616 1.052231101279142 -0.5739795053482691 0 0 0 0
721500000 0.41240181536626797 -0.3318361093487291 1.0271792458472258 -0.6078255221860883 0 0 0 0
725400000 0.41456488415219805 -0.3322437549943829 1.0122419333009678 -0.6545985208723201 0 0 0 0
729300000 0.41358975140336135 -0.3316792475326975 0.9835951078486802 -0.6859387210047195 0 0 0 0
733200000 0.41408626359825573 -0.3327743853579729 0.9572360950831545 -0.7209054062355847 0 0 0 0
737100000 0.41255484077736376 -0.33205045490851504 0.9230740788136876 -0.7549248316046331 0 0 0 0
741000000 0.4107222538417172 -0.3339363504542129 0.8937419036995458 -0.7909660240563396 0 0 0 0
744900000 0.412169009675515 -0.33465294140065033 0.861703136121782 -0.822157842762766 0 0 0 0
748800000 0.4108488404992719 -0.33517895113904306 0.8269822705681495 -0.8543527026179065 0 0 0 0
752700000 0.40960298193143035 -0.3378214304015225 0.7943819672934209 -0.8823582008670945 0 0 0 0
756600000 0.4089185512996662 -0.33830312367325277 0.7581246134239141 -0.9101501109581589 0 0 0 0
760500000 0.4072256763850965 -0.34109761186001114 0.7203349411176678 -0.9387985213042971 0 0 0 0
764400000 0.40659398611521996 -0.3406014373390141 0.6858239171428874 -0.9607746204743125 0 0 0 0
768300000 0.4067957402420049 -0.3428343831767893 0.6465063891804005 -0.9901447695239372 0 0 0 0
772200000 0.40243117031796805 -0.3446371265399493 0.6041503468811675 -1.0089571213235504 0 0 0 0
776100000 0.401874374411468 -0.34380072450014615 0.5646792195765079 -1.0285403836475726 0 0 0 0
780000000 0.3971521059521763 -0.3438976766971163 0.5208399727873844 -1.0443164327673922 0 0 0 0
783900000 0.39765410369925513 -0.3455392689552856 0.4827547235418481 -1.0607573732537556 0 0 0 0
787800000 0.39576730098489027 -0.34608455206384403 0.4498732832004543 -1.078346587305571 0 0 0 0
791700000 0.39515626403694865 -0.3484748323144389 0.4014500592942622 -1.0946487223429018 0 0 0 0
795600000 0.3928846277238818 -0.3485835439751068 0.3597174391618124 -1.106831151851769 0 0 0 0
