# HZ S RI R 50
3900000 0.5409659675710133 -0.0007735582610346861 1.1509597900109823 -0.028177852227646377 0 0 0 0
7800000 0.5368482656739799 -0.0002465038445202665 1.1484020618944615 -0.07241449611734567 0 0 0 0
11700000 0.5348488454196494 -0.00035659925986579976 1.1423691065224892 -0.11572639793385602 0 0 0 0
15600000 0.5334580927823762 -0.0009216067319278512 1.1686855243235619 -0.1882134380938478 0 0 0 0
19500000 0.5302861322400126 -0.0017296080560486285 1.1480135362871398 -0.23777604233786215 0 0 0 0
23400000 0.5287887351789506 -0.0016944058500597795 1.125371578846979 -0.27725984424132055 0 0 0 0
27300000 0.5274708418833997 -0.002435776617707171 1.1095606766693245 -0.31760779853414567 0 0 0 0
31200000 0.5244182694820503 -0.0025018371921690366 1.1003798692163307 -0.37372691564280747 0 0 0 0
35100000 0.5228616396214604 -0.003538395919663518 1.0817597946738948 -0.414266292023022 0 0 0 0
39000000 0.5223614978880182 -0.004641073735499034 1.0836345765172892 -0.4858325819537662 0 0 0 0
42900000 0.5213295745952669 -0.005296123199389343 1.0506483779119042 -0.5080577795793517 0 0 0 0
46800000 0.5188065391201486 -0.007103411198876294 1.0347724403559817 -0.5510696449105663 0 0 0 0
50700000 0.5176555135674699 -0.007646776888105567 1.0079807528428826 -0.5818649906157274 0 0 0 0
54600000 0.5172588603469375 -0.00856982258721263 0.9867339484834307 -0.6109658373783209 0 0 0 0
58500000 0.5163248674698161 -0.008473618323466787 0.9616595937502395 -0.6826101158809253 0 0 0 0
62400000 0.5155092305329275 -0.011122665634817938 0.9423562398726848 -0.7199664285513834 0 0 0 0
66300000 0.5141468000364974 -0.011879074504120594 0.9131596843533826 -0.71114676023464 0 0 0 0
70200000 0.5132941902382989 -0.013317166867967866 0.8937003741362544 -0.8665706516049312 0 0 0 0
74100000 0.5122595805914563 -0.014992624310969708 0.848565312246262 -0.8395966866814614 0 0 0 0
78000000 0.5114124213187617 -0.017601599254300986 0.8255556060528709 -0.8721548056449199 0 0 0 0
81900000 0.5107591355835599 -0.018546197209629366 0.7975970535544391 -0.8822265910460365 0 0 0 0
85800000 0.5108707815440191 -0.018911754653924844 0.7548369134721424 -0.9251454409517095 0 0 0 0
89700000 0.510786299725077 -0.020440708650761454 0.6989144550646552 -1.0321968435762912 0 0 0 0
93600000 0.5097506272917328 -0.02429627380877707 0.6628860660078629 -1.0201598508326364 0 0 0 0
97500000 0.5086079033616663 -0.026298103361401527 0.627098201256107 -1.030421307966084 0 0 0 0
101400000 0.5060133546414416 -0.028431902377779508 0.6134079914797934 -1.012164260405679 0 0 0 0
105300000 0.5056395427277993 -0.031158222193312827 0.5578602760121862 -1.0701253817206364 0 0 0 0
109200000 0.5053998562349422 -0.03219103836298489 0.5021694862079097 -1.1078402382350285 0 0 0 0
113100000 0.5055203817407512 -0.03372376496098225 0.43414550196340856 -1.161109380275135 0 0 0 0
117000000 0.5041485314755898 -0.03670019095350536 0.3938952154216467 -1.1629309537479735 0 0 0 0
120900000 0.5038019030956217 -0.038789543440774295 0.37176330378163797 -1.1439812352706302 0 0 0 0
124800000 0.5027792789141443 -0.04218324915709334 0.30866354054698325 -1.1750124657088643 0 0 0 0
128700000 0.5019051590270937 -0.04566208000722688 0.21751215566693227 -1.2522061319018245 0 0 0 0
132600000 0.49829703236777884 -0.05129872500906523 0.009246797161241826 -1.2383304299496278 0 0 0 0
136500000 0.4974187826681917 -0.055060223475921904 0.004833369896907504 -1.2119671454120309 0 0 0 0
140400000 0.5457789739216781 -0.059661945556073764 -0.14598387021013393 -0.8964285602778765 0 0 0 0
144300000 0.5437476475117604 -0.0617175049946176 -0.17127786980161283 -0.8787267331879836 0 0 0 0
148200000 0.544207428444797 -0.06373840604006771 -0.27142371573937063 -0.879945908783175 0 0 0 0
152100000 0.5440005107704412 -0.06513036989306775 -0.3562315063969499 -0.8673237195806976 0 0 0 0
156000000 0.5441529439257381 -0.06773123127027908 -0.3855962257494716 -0.8413293173945507 0 0 0 0
159900000 0.5440113492700289 -0.07040390568888585 -0.3983932335646739 -0.8150491861092132 0 0 0 0
163800000 0.5428534270052665 -0.07346064612574361 -0.3978833454283233 -0.7857823087305295 0 0 0 0
167700000 0.5429355016018941 -0.07631155823838874 -0.41558900948281285 -0.7619070635577071 0 0 0 0
171600000 0.542548013153084 -0.07786753504207568 -0.4847383365289814 -0.7375632402362159 0 0 0 0
175500000 0.5431502182468354 -0.07945407797824748 -0.5786836041787329 -0.707963619466093 0 0 0 0
179400000 0.5446661766698759 -0.08165099632297829 -0.650676412696711 -0.6734737966499217 0 0 0 0
183300000 0.5435942710217904 -0.0845544466161615 -0.6792827456660397 -0.6475865617293683 0 0 0 0
187200000 0.5433493281947067 -0.08714741972520859 -0.6911083427758017 -0.6174016891755577 0 0 0 0
191100000 0.54315576629573 -0.09070281071241887 -0.6957627425650255 -0.5909109907409311 0 0 0 0
195000000 0.5421379496910325 -0.09400801734822663 -0.6956202021270528 -0.562187124543867 0 0 0 0
198900000 0.5428287347992565 -0.09629727837211989 -0.7032440110833612 -0.5314637584810584 0 0 0 0
202800000 0.5419875500556297 -0.09944899738790663 -0.6989849845330541 -0.49867045415222105 0 0 0 0
206700000 0.5426726412851307 -0.10177053765488206 -0.6863000888295012 -0.47162477175215245 0 0 0 0
210600000 0.5421266185003971 -0.1052575330924452 -0.6696587415565082 -0.4464072852017977 0 0 0 0
214500000 0.542042727210737 -0.10823945848858199 -0.6560181259900373 -0.4178993155173612 0 0 0 0
218400000 0.5410406115658019 -0.1109545639734865 -0.6769723040691322 -0.3813949697861574 0 0 0 0
222300000 0.5408250224847293 -0.11378462466251843 -0.7189584392086498 -0.33567965174309145 0 0 0 0
226200000 0.5394018572397318 -0.11606915528332643 -0.7661492862674305 -0.2886768344082209 0 0 0 0
230100000 0.5370579612880388 -0.12030186994798127 -0.8026840784466758 -0.24461660220687362 0 0 0 0
234000000 0.5351040657314201 -0.1217615204745694 -0.8581137091018981 -0.1918982624308963 0 0 0 0
237900000 0.5344901946616978 -0.12399899952211045 -0.9085242161189211 -0.13317525255653276 0 0 0 0
241800000 0.5334326824503269 -0.12712921064412663 -0.9314437881888794 -0.07396085284010916 0 0 0 0
245700000 0.5323600101943354 -0.12939888081100356 -0.9282286995649417 -0.03602253001197306 0 0 0 0
249600000 0.5319049432056128 -0.1321253048415569 -0.921960798174197 -0.006912723748781047 0 0 0 0
253500000 0.5313266662054185 -0.13427346622711275 -0.9115908713145252 0.02049908323732479 0 0 0 0
257400000 0.5305663357152135 -0.1371361171753086 -0.902828974682313 0.04244285604066116 0 0 0 0
261300000 0.529876667074793 -0.13983367658319598 -0.8892244312117661 0.06700150148365534 0 0 0 0
265200000 0.5297588700588853 -0.14160208883690242 -0.8756347239181687 0.09506746197930595 0 0 0 0
269100000 0.5283519780068552 -0.14422860527086198 -0.8623439707967547 0.11847622284582611 0 0 0 0
273000000 0.5287487707380554 -0.14655490549314357 -0.8489018023875347 0.13831215950665926 0 0 0 0
276900000 0.5280694556515197 -0.14855282295501124 -0.8324107273987714 0.15536115906712447 0 0 0 0
280800000 0.5275194457830337 -0.15028550332275084 -0.8196992575518721 0.17440623461584448 0 0 0 0
284700000 0.5270027368828283 -0.15301193751724593 -0.801576763081559 0.19496527623181764 0 0 0 0
288600000 0.5281450575588449 -0.154030283604561 -0.7848485851100315 0.21302556857504099 0 0 0 0
292500000 0.526865672127035 -0.15651090648801783 -0.7649122591619404 0.2275376575429186 0 0 0 0
296400000 0.5273907860795275 -0.15785954930759352 -0.7412502320760134 0.23921783450598924 0 0 0 0
300300000 0.52708658240976 -0.1593917164807705 -0.7144260734102323 0.2474266985687426 0 0 0 0
304200000 0.5271402818531755 -0.16155380227417726 -0.6884484473867595 0.25944126712493726 0 0 0 0
308100000 0.5276144987094289 -0.16301205640083052 -0.663323629499971 0.2712951177194664 0 0 0 0
312000000 0.5280008439665047 -0.1655573784032588 -0.6357347833135384 0.28127485885819786 0 0 0 0
315900000 0.5274123580497528 -0.1664617072122838 -0.6081576355882665 0.2884278431833158 0 0 0 0
319800000 0.5269237298454417 -0.16966000424857736 -0.5817238039761521 0.2995137292989709 0 0 0 0
323700000 0.5268640973159469 -0.17231866533357226 -0.5569308546964381 0.31069756429781525 0 0 0 0
327600000 0.5254137223926312 -0.17535029962854282 -0.5332462050765445 0.3204904680863739 0 0 0 0
331500000 0.5250255758064422 -0.17770267431889264 -0.512925026949332 0.3278339328995042 0 0 0 0
335400000 0.523574317735905 -0.17988783817621076 -0.4907032200951544 0.33286275515327596 0 0 0 0
339300000 0.5227881514787477 -0.18255857411466056 -0.4696503014026184 0.33816664656035206 0 0 0 0
343200000 0.5216449772049789 -0.18538280086961637 -0.45011917366444276 0.3413304243901275 0 0 0 0
347100000 0.5206288161879687 -0.1874287867740269 -0.43050325623397273 0.3442384412089302 0 0 0 0
351000000 0.5201041258116563 -0.1891841762137024 -0.41087329434298786 0.3453675569297503 0 0 0 0
354900000 0.5188960108201621 -0.19100994545996194 -0.3935241409765657 0.3467477553607864 0 0 0 0
358800000 0.5182174976249545 -0.19270597690085978 -0.3766132953389388 0.3476229513199396 0 0 0 0
362700000 0.5152716371782391 -0.19361921900865806 -0.3647215592432699 0.351288594329993 0 0 0 0
366600000 0.5140377564378035 -0.19605491809094044 -0.3482888444408442 0.3525807732427114 0 0 0 0
370500000 0.513150163789576 -0.19912203512115423 -0.33308268414619185 0.3535570855093122 0 0 0 0
374400000 0.5114344501836131 -0.20054492318191833 -0.31834069838909107 0.35405637509906396 0 0 0 0
378300000 0.510942696876391 -0.2020315997872561 -0.304586601284096 0.3546314052740482 0 0 0 0
382200000 0.5083903258274781 -0.20522848263180019 -0.2909312660517773 0.3552081943820657 0 0 0 0
386100000 0.5066741023762485 -0.20718501931757935 -0.2774070785788041 0.35659320684930595 0 0 0 0
390000000 0.5060555781471303 -0.2094078295302642 -0.26408238108584586 0.35867813338020793 0 0 0 0
393900000 0.5046635399808163 -0.21158572610336493 -0.25145402856667237 0.36208966096146705 0 0 0 0
397800000 0.5036049141104593 -0.21272330802120165 -0.23762764356423524 0.36426839540629186 0 0 0 0
401700000 0.5020026635742872 -0.2144260262735869 -0.2235343658086185 0.3667775181315152 0 0 0 0
405600000 0.5017615035922111 -0.21688272935508762 -0.20866004812636854 0.36881957785294867 0 0 0 0
409500000 0.5006532750492965 -0.21824610177628076 -0.19529095600934598 0.3708274241834358 0 0 0 0
413400000 0.49990313976254785 -0.2188664355562187 -0.18164555783880937 0.37244610705259923 0 0 0 0
417300000 0.4990559656547367 -0.22034313067290132 -0.16739152212496614 0.374268899045312 0 0 0 0
421200000 0.4990923645963783 -0.22119682724621437 -0.1534753489234327 0.37498865235682566 0 0 0 0
425100000 0.4987152789632289 -0.22321739868546484 -0.13952287814737496 0.3758261283861534 0 0 0 0
429000000 0.4981792249070989 -0.22438146734125522 -0.1254205452533643 0.3757747682831869 0 0 0 0
432900000 0.4969724696463351 -0.2256046188546266 -0.1114344162985927 0.3763601564784364 0 0 0 0
436800000 0.49621257425648213 -0.22782742966490357 -0.09834167717274034 0.37552442853281154 0 0 0 0
440700000 0.49514077662101896 -0.23007975224233093 -0.08547832709104106 0.37428125592664613 0 0 0 0
444600000 0.49491554180495717 -0.23165676284280698 -0.07195796985160434 0.3733565249610927 0 0 0 0
448500000 0.49353566391779946 -0.2329201680802931 -0.05967112627114741 0.3715590703879491 0 0 0 0
452400000 0.4932936500342387 -0.2341313507044224 -0.04768857944720928 0.369896559806312 0 0 0 0
456300000 0.4931342862653698 -0.23676515607546195 -0.03576210018589643 0.36745597624671245 0 0 0 0
460200000 0.4919710244809023 -0.23957653743050789 -0.024865303478968794 0.3643237843456158 0 0 0 0
464100000 0.48924152782199165 -0.23961556489383257 -0.012369139568080941 0.36743959657031305 0 0 0 0
468000000 0.48896169564476955 -0.24120481494800547 0.00023016729404698596 0.3633157554622511 0 0 0 0
471900000 0.48831097259233863 -0.24288937864295404 0.011887668520721739 0.3605332949557258 0 0 0 0
475800000 0.4867189087018215 -0.24499752821811915 0.023371004012104762 0.356804816305163 0 0 0 0
479700000 0.4861752623695503 -0.24850728183935233 0.034554261584294726 0.35405963658572176 0 0 0 0
483600000 0.48468998094477933 -0.24950566836780316 0.0461757445678638 0.34797995841050744 0 0 0 0
487500000 0.4836686991248706 -0.25142227435420256 0.05642241365377112 0.3427156899431919 0 0 0 0
491400000 0.4824999961794833 -0.25359315009539435 0.06764784373158382 0.33692134868853707 0 0 0 0
495300000 0.48157606574913725 -0.255524332410728 0.07744967006314131 0.33200326193641966 0 0 0 0
499200000 0.479981529293845 -0.2573871104044528 0.08795769306090968 0.32638793476811284 0 0 0 0
503100000 0.4795189708684443 -0.25846837504752795 0.09916655102710506 0.32013790845937673 0 0 0 0
507000000 0.47845340693562494 -0.2615819944719467 0.10951885238196128 0.3129021380948464 0 0 0 0
510900000 0.47712903542748003 -0.26336747374946573 0.11895948423951809 0.3064717566300893 0 0 0 0
514800000 0.47657103933616773 -0.2651520783462414 0.1276720378371517 0.29962056114788227 0 0 0 0
518700000 0.47571414665829326 -0.2677502844977122 0.13471365399039809 0.2923910227072964 0 0 0 0
522600000 0.4747565362269676 -0.27032830886521164 0.1411250223183044 0.28608093726140676 0 0 0 0
526500000 0.47410685494969323 -0.27105367020824 0.14726877358537366 0.2791521533478498 0 0 0 0
530400000 0.47400099639220467 -0.27404295306297877 0.15517581624692747 0.27161959282552095 0 0 0 0
534300000 0.4732482259184971 -0.27569977160526876 0.163338152802611 0.26278073004134095 0 0 0 0
538200000 0.4718419814861607 -0.2787859340537341 0.17027325754749517 0.25402216152435064 0 0 0 0
542100000 0.4702791922066161 -0.2811718351660085 0.1777840873608025 0.245729150364512 0 0 0 0
546000000 0.4695622805275654 -0.2831929859136863 0.18396133881705962 0.23667774431995164 0 0 0 0
549900000 0.46931993442964975 -0.28584692215648466 0.19132696290941234 0.2285395903013527 0 0 0 0
553800000 0.4674718966784177 -0.28764962455824555 0.19503677628868243 0.21914783138847135 0 0 0 0
557700000 0.46578877251238865 -0.2907588449898017 0.20142253383419695 0.20934876186247944 0 0 0 0
561600000 0.46692063638627224 -0.29297987595378683 0.20708007764980177 0.20059123906190443 0 0 0 0
565500000 0.4652652605139319 -0.2946994118796015 0.21149992984458243 0.19029682841106588 0 0 0 0
569400000 0.4660355347204237 -0.29802755783558116 0.21748749825418004 0.18261089774296685 0 0 0 0
573300000 0.46302753787523215 -0.29946368022225234 0.22118013649170487 0.1709421025077045 0 0 0 0
577200000 0.46360118447753607 -0.300810186382504 0.22514421922102046 0.16014200796113529 0 0 0 0
581100000 0.4620939617304262 -0.303461699775785 0.2287856344607219 0.1507053926830148 0 0 0 0
585000000 0.46308911849800727 -0.30508204281820195 0.231872285340792 0.14031964863182894 0 0 0 0
588900000 0.4626192006399185 -0.3069382348456906 0.23414823240851712 0.12940120812194017 0 0 0 0
592800000 0.46153731350987776 -0.3088813869066684 0.23652936603007613 0.11909742397795955 0 0 0 0
596700000 0.45979654987214713 -0.309993031478662 0.2371752813867487 0.10802059220813645 0 0 0 0
600600000 0.4601924800658955 -0.3122924559269757 0.23918970070529233 0.09728505747077881 0 0 0 0
604500000 0.4584627237239965 -0.31475177453817726 0.24007756150678952 0.08678304916012683 0 0 0 0
608400000 0.4590052445847576 -0.31578900932978626 0.24001951916275463 0.07690878175013438 0 0 0 0
612300000 0.457301509938345 -0.31758186723675336 0.23822475283636513 0.06745550039734141 0 0 0 0
616200000 0.45761803130842105 -0.3196371441461238 0.23958606070824273 0.05762937855393227 0 0 0 0
620100000 0.45610035515411945 -0.32133201201054523 0.2389209335810281 0.04755022709066554 0 0 0 0
624000000 0.4553007801643737 -0.3234901402449374 0.2369963196707382 0.03605940168814457 0 0 0 0
627900000 0.45328203921748694 -0.3228575158194693 0.23553383290717161 0.02753507777002554 0 0 0 0
631800000 0.45434188328868536 -0.3267326642688829 0.23507518754988974 0.018132327833334717 0 0 0 0
635700000 0.45291741625516757 -0.3250724744844945 0.23315098068550077 0.009176275899471028 0 0 0 0
639600000 0.4507295526127391 -0.3280100185526892 0.23103625884082513 0.001316554858094736 0 0 0 0
643500000 0.44821350585940684 -0.3287868788591879 0.22806048720789965 -0.007101228651550516 0 0 0 0
647400000 0.44685524306634716 -0.32954120351852634 0.22402512373722844 -0.014236900751396424 0 0 0 0
651300000 0.44595388670310454 -0.3321530709741637 0.22157837345370085 -0.022048719252926546 0 0 0 0
655200000 0.4437992678665318 -0.33278588594771324 0.2180761080759778 -0.02889992960605678 0 0 0 0
659100000 0.4427757037063387 -0.3333945713023521 0.21464577711579058 -0.03475398529319262 0 0 0 0
663000000 0.44032453464812454 -0.3349861146086603 0.21141851890614213 -0.04134138340288799 0 0 0 0
666900000 0.4398867307295826 -0.3345161698665116 0.20745582146364905 -0.04792707505005108 0 0 0 0
670800000 0.4372434035017188 -0.33622926099083084 0.20302751898348564 -0.055037260929954604 0 0 0 0
674700000 0.43637700777611654 -0.3353861509199086 0.19880125911057564 -0.06198552055080352 0 0 0 0
678600000 0.435257964204817 -0.3365925773673184 0.1949455910054211 -0.06748326969901774 0 0 0 0
682500000 0.4336083744784748 -0.33709667197446375 0.1907140473866777 -0.0728630519176815 0 0 0 0
686400000 0.4328268806984225 -0.3372893355724909 0.18617290047371104 -0.07888065723728975 0 0 0 0
690300000 0.4326313635002291 -0.33731132738254993 0.18155298929388664 -0.08364036941085125 0 0 0 0
694200000 0.4320929606930036 -0.33686241387032073 0.1772847657361931 -0.08829324965056165 0 0 0 0
698100000 0.4297323763830532 -0.33698728052604265 0.1733786973255632 -0.09266303013274906 0 0 0 0
702000000 0.4281620324829405 -0.33735266597727587 0.1692086281388584 -0.09743837967149413 0 0 0 0
705900000 0.4288802896629819 -0.3371964438066689 0.16532115491639623 -0.10189519551307177 0 0 0 0
709800000 0.427360378584515 -0.3369961753231541 0.16012180347538332 -0.1065133113696095 0 0 0 0
713700000 0.4276363788867433 -0.3382175497210655 0.15492247620024283 -0.11010034701930373 0 0 0 0
717600000 0.4260378452130881 -0.33823750868350083 0.15071953374466096 -0.11449648530818636 0 0 0 0
721500000 0.4270226358334658 -0.3386137511134796 0.14554105085855812 -0.11908893073418782 0 0 0 0
725400000 0.4280503239504801 -0.3367038489815991 0.14344605537892613 -0.12473964722534829 0 0 0 0
729300000 0.42611701447651273 -0.3364757549833066 0.13763490749121682 -0.1289013892745363 0 0 0 0
733200000 0.426788130212176 -0.3366904438212641 0.13241111884830548 -0.1331223825259101 0 0 0 0
737100000 0.4264625744104878 -0.33681040186275685 0.12613388859148203 -0.13771481141707623 0 0 0 0
741000000 0.4257890183380326 -0.33884268225940123 0.12097433478638846 -0.14194026305077612 0 0 0 0
744900000 0.42533567356285507 -0.3382847379487525 0.11455299937348748 -0.14608765780586108 0 0 0 0
748800000 0.4243286114360175 -0.3397556142124564 0.10832627989843545 -0.14986569637374378 0 0 0 0
752700000 0.42477480689715785 -0.3413188644291332 0.1026545010954483 -0.1532328952748815 0 0 0 0
756600000 0.4227465575944405 -0.3403524823111984 0.0962959049230204 -0.15679639003077878 0 0 0 0
760500000 0.4236106004481777 -0.34309032073060264 0.09027006673127697 -0.16045420737904617 0 0 0 0
764400000 0.42113665984905807 -0.3420479156647279 0.08418731953939866 -0.16304383395865094 0 0 0 0
768300000 0.4204579447832588 -0.3426059821036166 0.07729471582307812 -0.16583692755716972 0 0 0 0
772200000 0.4207825416781661 -0.3445785166277831 0.07121029856172585 -0.16902650141377823 0 0 0 0
776100000 0.4178350992931782 -0.3441426547932425 0.06359806400154572 -0.17098267344749618 0 0 0 0
780000000 0.4145206611769114 -0.34443588577330225 0.056285146254788705 -0.17271909168627222 0 0 0 0
783900000 0.4148490816979136 -0.3460550213636903 0.04974893652233104 -0.17455618550859767 0 0 0 0
787800000 0.41465984187572413 -0.3456529700585453 0.043726269252981516 -0.1766781843765556 0 0 0 0
