# HZ S RI R 50
3900000 0.5404634216914128 -0.00036129987330194816 0.404851786018172 -0.013745016300903221 0 0 0 0
7800000 0.5368951873045924 0.00037889443353605754 0.4005147317313146 -0.030829022355458476 0 0 0 0
11700000 0.5344703855594206 -7.397783892538226e-05 0.396431337081553 -0.048418460672838164 0 0 0 0
15600000 0.5327937240860094 -0.0003698994332355177 0.38711907914216664 -0.06156633112814089 0 0 0 0
19500000 0.5304186117524617 -0.0008904385620541375 0.3862655753933983 -0.08086944969188865 0 0 0 0
23400000 0.5284744910606317 -0.000733833747397892 0.37751640163924693 -0.09337000925265551 0 0 0 0
27300000 0.5269610886791993 -0.0017822484673622198 0.3720769443047828 -0.10745096370520127 0 0 0 0
31200000 0.5242845172215652 -0.002215312719969608 0.36939654527094423 -0.12642862408109504 0 0 0 0
35100000 0.5235215382850423 -0.0033388899043117486 0.3633711349595388 -0.1403729490712046 0 0 0 0
39000000 0.5220445832434196 -0.0041816159569577184 0.36223856934580934 -0.16207296506629332 0 0 0 0
42900000 0.5210529385280234 -0.0046151588311708755 0.3528737654891346 -0.17268396993737348 0 0 0 0
46800000 0.5181750638545648 -0.006241307254529792 0.3474412690036472 -0.18869180169840963 0 0 0 0
50700000 0.5175079745287643 -0.006713873972793207 0.33846258976938937 -0.19985396295332014 0 0 0 0
54600000 0.5166536904593956 -0.007645407277857895 0.3303718455749423 -0.21146418295338001 0 0 0 0
58500000 0.5152450224644805 -0.007607840417209672 0.3214475985111345 -0.232279795074 0 0 0 0
62400000 0.514690639954812 -0.010244967354642117 0.31041800273853326 -0.22404113998575795 0 0 0 0
66300000 0.5139440195053694 -0.011558992885741765 0.3029778856192895 -0.2387392232665584 0 0 0 0
70200000 0.5131362451885249 -0.01254311000406909 0.29708037387997127 -0.2891784437037948 0 0 0 0
74100000 0.511513527217984 -0.014542974992976987 0.28075485785325055 -0.27676918526546807 0 0 0 0
78000000 0.5105768634210848 -0.01684559267944238 0.27332413435922653 -0.288143764848817 0 0 0 0
81900000 0.5105298649179745 -0.017861730027553646 0.2636160740811208 -0.30556345813200003 0 0 0 0
85800000 0.509799712679204 -0.01824476624412436 0.249473250156945 -0.30871418157853314 0 0 0 0
89700000 0.5097827141856377 -0.019433795991268914 0.23004284346838835 -0.3452220844634775 0 0 0 0
93600000 0.5086212996472612 -0.02330051413963945 0.21884137090848244 -0.3450364808916546 0 0 0 0
97500000 0.5078758104675527 -0.02523363511970344 0.21183423957293268 -0.3313516731279172 0 0 0 0
101400000 0.5052588497658788 -0.027538170402831897 0.19806925704729186 -0.35140269820621756 0 0 0 0
105300000 0.5049605619927321 -0.030545621558744063 0.18568385484888705 -0.3526241054136875 0 0 0 0
109200000 0.5042532524536212 -0.03114055705137345 0.16425388533427168 -0.3701463716776815 0 0 0 0
113100000 0.5041874687424361 -0.03378345109373208 0.14654649423081498 -0.3793995712413139 0 0 0 0
117000000 0.503360549018318 -0.03697565735855887 0.13135851027452428 -0.38200501683531235 0 0 0 0
120900000 0.503092020929319 -0.037776833907837176 0.12025755183665615 -0.3817571686082034 0 0 0 0
124800000 0.5021861982454522 -0.04168831514630465 0.09831418210899816 -0.3933413692311946 0 0 0 0
128700000 0.5005945827816923 -0.04516925770311548 0.07006784718665897 -0.4153858992112285 0 0 0 0
132600000 0.49874156922963236 -0.0485153832352221 0.06143726105593826 -0.4114441116093141 0 0 0 0
136500000 0.49709477125609064 -0.05286484649945021 0.07061837281975578 -0.3889892850184545 0 0 0 0
140400000 0.5451027309719529 -0.058902648763924446 -0.056443311444265405 -0.30040379423269836 0 0 0 0
144300000 0.5440750382457907 -0.06178124200450994 -0.0550519843481829 -0.29134986443112987 0 0 0 0
148200000 0.5431157890799397 -0.06360123188172129 -0.08637129109896813 -0.2917704293940041 0 0 0 0
152100000 0.5428872766958694 -0.06477931694925582 -0.11926532434582854 -0.2884998926005886 0 0 0 0
156000000 0.543374282699824 -0.06701981881951348 -0.13285722822302945 -0.28048940573252135 0 0 0 0
159900000 0.5428476088450498 -0.07035296339874232 -0.13831831602853234 -0.2709833411569588 0 0 0 0
163800000 0.542288205389138 -0.07352313961642237 -0.1397369128114105 -0.26140203955785934 0 0 0 0
167700000 0.5423407304932795 -0.07731263944931897 -0.13981760339480878 -0.25246387355908495 0 0 0 0
171600000 0.541437273443757 -0.078321827482928 -0.15713084540126732 -0.24417011054367788 0 0 0 0
175500000 0.5416400088602533 -0.08008923267975743 -0.18722057435103007 -0.23524551207228295 0 0 0 0
179400000 0.5415615561936529 -0.08195476296011765 -0.21776071896672147 -0.22347711926195404 0 0 0 0
183300000 0.5408750074391342 -0.08458672545803697 -0.2325969976230222 -0.21396314802821964 0 0 0 0
187200000 0.541431855951881 -0.08769757515687875 -0.2372544130519751 -0.2031136526183052 0 0 0 0
191100000 0.5412558614533115 -0.09083562037093383 -0.23882939934803163 -0.1938800247145207 0 0 0 0
195000000 0.5401531813625386 -0.09524316481693008 -0.23903523297680157 -0.18408571705519805 0 0 0 0
198900000 0.5402502980561531 -0.09795377622879484 -0.24128905074143425 -0.17311773617773268 0 0 0 0
202800000 0.5407820150639582 -0.10093286810906635 -0.23931034338277254 -0.1623742177968244 0 0 0 0
206700000 0.5408227556268714 -0.10397960306291211 -0.23500371093708056 -0.15300011048659315 0 0 0 0
210600000 0.5404125763102771 -0.10735443069327409 -0.2291585279271615 -0.14449696581136412 0 0 0 0
214500000 0.5406116384315462 -0.11060316157412073 -0.2223004968599145 -0.13530941034612806 0 0 0 0
218400000 0.5399521667969115 -0.1135023517173582 -0.22537273943957425 -0.12395421688338773 0 0 0 0
222300000 0.5402234136850715 -0.11565711322094012 -0.23759214695008854 -0.10953415228315903 0 0 0 0
226200000 0.5393641037303044 -0.11847698549041588 -0.2519283020253301 -0.09435110474311294 0 0 0 0
230100000 0.5380247004113727 -0.12161623964910587 -0.2605082497627454 -0.08088361071845493 0 0 0 0
234000000 0.5362269124786377 -0.1235582346421826 -0.27371402012244445 -0.06598921616622833 0 0 0 0
237900000 0.5345696664782683 -0.12643350235716555 -0.28641099239285633 -0.050264095873262034 0 0 0 0
241800000 0.5331206335138287 -0.12922218015266781 -0.2989600247560637 -0.03262057351779611 0 0 0 0
245700000 0.5328953963262036 -0.1311157186469621 -0.3063742281177323 -0.014336388861773141 0 0 0 0
249600000 0.5315093741359307 -0.13397022323617222 -0.3092410173684711 0.00032188556927588256 0 0 0 0
253500000 0.5310792904050791 -0.13627809223480045 -0.30760110242028094 0.011803487058051154 0 0 0 0
257400000 0.5307460406633738 -0.13901590462614305 -0.30514752960500857 0.02022711866404789 0 0 0 0
261300000 0.5298613143107623 -0.1407333383702503 -0.300361336279643 0.028265311028162245 0 0 0 0
265200000 0.5290598233153218 -0.14428442340951042 -0.29648254904275123 0.038551042853647056 0 0 0 0
269100000 0.5291224680365676 -0.14629200741221832 -0.2924869740597209 0.045837586462099955 0 0 0 0
273000000 0.5287278635443035 -0.14877665637618379 -0.28778622549991184 0.05174280699302868 0 0 0 0
276900000 0.5278837086639803 -0.1515565927949579 -0.2818538857360358 0.0575953479152916 0 0 0 0
280800000 0.5267706552022126 -0.1540021008985451 -0.2770917418980695 0.06366080428152071 0 0 0 0
284700000 0.5266088659698785 -0.15593269807995874 -0.2707767918348628 0.07027746263110848 0 0 0 0
288600000 0.5270615362422875 -0.15719570856740203 -0.2643837820899965 0.07587187407581046 0 0 0 0
292500000 0.5277795212877344 -0.1593712374062644 -0.25747618442645914 0.08061015059873161 0 0 0 0
296400000 0.5275973714254483 -0.16084715376141345 -0.24869413167539073 0.08426869743264088 0 0 0 0
300300000 0.5274089450924067 -0.16366209410708427 -0.23927548780066632 0.08771071903727767 0 0 0 0
304200000 0.527864564218593 -0.16456087462462338 -0.22997867059617566 0.09223996182778697 0 0 0 0
308100000 0.5280869656092793 -0.16712728373739713 -0.22092633031040027 0.09639007868168616 0 0 0 0
312000000 0.5280575119911081 -0.1693504729773675 -0.21085794411212863 0.09977956267192627 0 0 0 0
315900000 0.5286191274713024 -0.17047769723592895 -0.20084073584430395 0.10185334144196581 0 0 0 0
319800000 0.5270844650630873 -0.17455230863469487 -0.19124867521714306 0.10508700292494 0 0 0 0
323700000 0.5266561996416913 -0.17683328495908074 -0.18222873809372386 0.10777008847626367 0 0 0 0
327600000 0.5264594512940212 -0.17866077931646712 -0.17383664820321013 0.1099004652711676 0 0 0 0
331500000 0.5253071681438707 -0.18146185243018786 -0.1664508364264028 0.11167156729377654 0 0 0 0
335400000 0.5241658371334468 -0.18327990422554283 -0.15923568645430897 0.1122068347054628 0 0 0 0
339300000 0.5245883785816577 -0.18627030970747152 -0.1520932581662095 0.11266459616612097 0 0 0 0
343200000 0.5227362985669283 -0.18899932024015859 -0.14538477415563686 0.1126937815408811 0 0 0 0
347100000 0.5221330503992081 -0.19070557147034894 -0.13936119384505893 0.112462264817393 0 0 0 0
351000000 0.5212102835657433 -0.19286761424711016 -0.13263596154619367 0.11221889004915542 0 0 0 0
354900000 0.5205547403671347 -0.193908962873812 -0.1269206295212038 0.11223455048654751 0 0 0 0
358800000 0.5196125486453099 -0.1966783329356231 -0.12139022220236938 0.1122948558428953 0 0 0 0
362700000 0.5180483213008802 -0.1979937761947796 -0.11744731849360737 0.11354028142159077 0 0 0 0
366600000 0.5169180346861911 -0.19963229843084657 -0.11222723589362849 0.11382413653121091 0 0 0 0
370500000 0.5150108699543197 -0.20186063442305616 -0.10703012607448023 0.11462015302942262 0 0 0 0
374400000 0.5133980641895068 -0.20434685794757804 -0.10194295200601221 0.11509444986815316 0 0 0 0
378300000 0.5124703380386535 -0.20675039197870726 -0.09747821914963849 0.11546877633622381 0 0 0 0
382200000 0.5103312403143234 -0.2086887193271989 -0.09297600348048156 0.11584641832947488 0 0 0 0
386100000 0.5100158024418529 -0.21012850458047277 -0.08849334292409897 0.11623868754838676 0 0 0 0
390000000 0.5088437377926163 -0.21276332792941915 -0.08384500355983038 0.11697633249297693 0 0 0 0
393900000 0.5068552150923467 -0.2149699336820892 -0.07949480586099023 0.11809540207049626 0 0 0 0
397800000 0.5070260078207257 -0.21547428088999865 -0.07486944078708008 0.11872375335485855 0 0 0 0
401700000 0.5055840193475697 -0.21726376457557517 -0.07020679386875112 0.11929911793662694 0 0 0 0
405600000 0.504440812655081 -0.2184988720222451 -0.06542813495764639 0.11967762447034473 0 0 0 0
409500000 0.5034580482716993 -0.22023845586412225 -0.060867134022690915 0.12015269493599401 0 0 0 0
413400000 0.5034275191595081 -0.2219165019596751 -0.056467376931831445 0.12068165180877617 0 0 0 0
417300000 0.5027763824397342 -0.22213746279349605 -0.05187881474439114 0.12123246113775323 0 0 0 0
421200000 0.5026816157205254 -0.22415508705751644 -0.04723569918967649 0.12147756662735648 0 0 0 0
425100000 0.5022489443893121 -0.22482702167293367 -0.04258264329826911 0.12132165806233207 0 0 0 0
429000000 0.5014180625395842 -0.2259964946045621 -0.03809690231555438 0.12147909780354776 0 0 0 0
432900000 0.5015035871586683 -0.22687699390724486 -0.03367914330103881 0.12136641338176488 0 0 0 0
436800000 0.5001709108419216 -0.22844961821981066 -0.029240809864372948 0.1208524397863196 0 0 0 0
440700000 0.5007573158039577 -0.2300690119066667 -0.025036230139021134 0.12057294988884386 0 0 0 0
444600000 0.49918356661196966 -0.2322545537319066 -0.020873379327256927 0.11988008947711334 0 0 0 0
448500000 0.4980656937236582 -0.2326403876932028 -0.016706189953901135 0.11952609560668108 0 0 0 0
452400000 0.4977037185669765 -0.23384648157746782 -0.012724222661793108 0.11854162275467203 0 0 0 0
456300000 0.49803885475520066 -0.2359901044828968 -0.009135647702598757 0.11777929838320735 0 0 0 0
460200000 0.49714773034014725 -0.2377786427942083 -0.005274887741557937 0.11679919570476098 0 0 0 0
464100000 0.49426609645824415 -0.23906040534192532 -0.0013882547976720885 0.11745184770943076 0 0 0 0
468000000 0.4936165801014228 -0.2403234718592383 0.0027484441714047078 0.1160275093482814 0 0 0 0
471900000 0.4936361112737598 -0.24230774532320526 0.006558889320602989 0.11481777849572611 0 0 0 0
475800000 0.49259070989096626 -0.24469969051259935 0.010139187057434515 0.11327252572715318 0 0 0 0
479700000 0.4905011854032665 -0.24705451791893487 0.014196052332630014 0.11219068394051399 0 0 0 0
483600000 0.48983261072716017 -0.24744652677005796 0.017287285847963647 0.1102631893844847 0 0 0 0
487500000 0.48888688609259895 -0.25030578417519966 0.020751755793734897 0.10855305057174958 0 0 0 0
491400000 0.4880687570828176 -0.2514185252355482 0.023903161371072724 0.10656024964901888 0 0 0 0
495300000 0.486843811489036 -0.25311268970882767 0.026979562612484662 0.10496891404166016 0 0 0 0
499200000 0.4860818211447582 -0.25568515563767724 0.03038419674443595 0.10289559397475684 0 0 0 0
503100000 0.4854289219712926 -0.2566270983669627 0.033798120394894854 0.10104873603028103 0 0 0 0
507000000 0.48433491189807687 -0.2590360059421266 0.03697734418156184 0.09851594952910958 0 0 0 0
510900000 0.4840159801482629 -0.26061530427018315 0.040052984392108824 0.09666780753155474 0 0 0 0
514800000 0.48312180208699035 -0.26179437348922274 0.04258560201875992 0.09408418206729824 0 0 0 0
518700000 0.4825597733249491 -0.26507509756190567 0.04507495884436277 0.09197886290315797 0 0 0 0
522600000 0.48099583487002706 -0.26702959408091365 0.047127652835280316 0.08975644469459773 0 0 0 0
526500000 0.4802617655453423 -0.26682792803568156 0.048741239006744624 0.08741552090551552 0 0 0 0
530400000 0.48013208969625676 -0.26949154307589884 0.051309533343786004 0.08474681132188096 0 0 0 0
534300000 0.47982440969552403 -0.2716891413781848 0.05370881213188533 0.08157166128396738 0 0 0 0
538200000 0.4777235070953323 -0.27423873861072307 0.05583994677590546 0.07863296697620675 0 0 0 0
542100000 0.4765024462255619 -0.2766461038703704 0.05804023924992041 0.07572270996187891 0 0 0 0
546000000 0.47591878496641854 -0.27783879036272374 0.05978586617497387 0.072815531165669 0 0 0 0
549900000 0.47495737997283605 -0.27956282549775013 0.061570646336635566 0.07032366091332842 0 0 0 0
553800000 0.4729701824720732 -0.28375212881343087 0.06274429602240458 0.0668321971637463 0 0 0 0
557700000 0.4726121672701474 -0.28517937494754286 0.06437995029322655 0.06411205738206506 0 0 0 0
561600000 0.47272996858306804 -0.2872473274273667 0.06568989667877351 0.06150316099563885 0 0 0 0
565500000 0.47144056841680915 -0.28895023651081087 0.06714015113313022 0.058114382313444346 0 0 0 0
569400000 0.47218408028981484 -0.29246115123850636 0.06908259522207844 0.055681766068485274 0 0 0 0
573300000 0.4698351461871738 -0.2935729292219286 0.07020796638665099 0.05243825951489902 0 0 0 0
577200000 0.47042583280331146 -0.29522564172764637 0.07134602523804623 0.04922141319824118 0 0 0 0
581100000 0.4684837907927156 -0.29737223860609435 0.07252165515805839 0.045947278144336266 0 0 0 0
585000000 0.4687516644628045 -0.29896497083338003 0.07340681113006464 0.04280203145418663 0 0 0 0
588900000 0.46908295770549197 -0.3013846180771762 0.07434162024044526 0.03915729626940379 0 0 0 0
592800000 0.46753347232871617 -0.3028916251923911 0.07513298942166481 0.03602170841841034 0 0 0 0
596700000 0.4657765873968181 -0.30478561703106094 0.0751358853406017 0.032413353827658545 0 0 0 0
600600000 0.4651514871870525 -0.3065812234885629 0.07559912890882148 0.028960609568828843 0 0 0 0
604500000 0.46356314745480315 -0.30857734064890696 0.0758583047968936 0.025484779453191896 0 0 0 0
608400000 0.4649132311742339 -0.30905368152959334 0.07581256695634815 0.02249339708726643 0 0 0 0
612300000 0.46303219381549254 -0.31295860429643396 0.07536593229819928 0.018920357911090747 0 0 0 0
616200000 0.46167292104896934 -0.31392029823486184 0.07523064684546732 0.016273627653653738 0 0 0 0
620100000 0.4605086882906016 -0.3153550316997494 0.07497234574342276 0.012938317982201403 0 0 0 0
624000000 0.45978053175018596 -0.318232895561861 0.07430042397220146 0.009660370687275368 0 0 0 0
627900000 0.4582058332998518 -0.3179893439731828 0.07391429938936536 0.006956103726562101 0 0 0 0
631800000 0.45780070689451374 -0.32137324643689447 0.07340630493491236 0.003957973935060382 0 0 0 0
635700000 0.45666588977225625 -0.3214186027341698 0.07239870147990572 0.0007626269951004204 0 0 0 0
639600000 0.4541895309191929 -0.32265193876392095 0.0719186377935065 -0.001516657137216551 0 0 0 0
643500000 0.45274096940635744 -0.32377348877282724 0.07101987755203779 -0.0036158304242411166 0 0 0 0
647400000 0.44900626928609055 -0.3243150615741544 0.06948237911546196 -0.0062683278409559635 0 0 0 0
651300000 0.44923192177041155 -0.32644262329376333 0.06845274050676046 -0.00843227784503324 0 0 0 0
655200000 0.44603458891534964 -0.3276865832230873 0.06740639456590485 -0.010527218903266931 0 0 0 0
659100000 0.44483354515113993 -0.3285309842636209 0.06601812814330466 -0.012375314118101511 0 0 0 0
663000000 0.44283149987516846 -0.33055574862630993 0.06492827534609223 -0.014351737861050857 0 0 0 0
666900000 0.4421198864036838 -0.32998283636009534 0.06373265866194935 -0.016268001379140255 0 0 0 0
670800000 0.44029199100355737 -0.33135621156560086 0.06217248457642017 -0.01836963806280559 0 0 0 0
674700000 0.43842125792288145 -0.3315171090522968 0.06102871659119495 -0.020117251959699427 0 0 0 0
678600000 0.43690332733378273 -0.33333621998461965 0.05969816217642658 -0.02205258870513185 0 0 0 0
682500000 0.4354184904872473 -0.3330009966519585 0.05828080568879951 -0.023794625717944082 0 0 0 0
686400000 0.43441794480311724 -0.33274106555551536 0.056783376349538985 -0.0254658186810909 0 0 0 0
690300000 0.432646398400607 -0.33416662510365547 0.05546584583116272 -0.02667368585120746 0 0 0 0
694200000 0.43273432541370715 -0.3334073029534737 0.053930128073173454 -0.028109248201124003 0 0 0 0
698100000 0.43044500809194314 -0.3337007551967243 0.05260583143489223 -0.02976248213705466 0 0 0 0
702000000 0.4277914844643791 -0.3342953625602495 0.05120140978430207 -0.03094098908840879 0 0 0 0
705900000 0.42929336604285645 -0.3346966169458814 0.049977740046854714 -0.03228320427591218 0 0 0 0
709800000 0.42684938492516306 -0.334231480726063 0.0484467867406936 -0.033608899901429075 0 0 0 0
713700000 0.42733749623010636 -0.33530944694343057 0.046889319439801645 -0.03466875938981582 0 0 0 0
717600000 0.4248510425908383 -0.3361397138026863 0.04552742919757466 -0.036016794698126686 0 0 0 0
721500000 0.42426899555196285 -0.3356292245929034 0.04391750503109448 -0.037175332883119416 0 0 0 0
725400000 0.42580725494827276 -0.33444496585062533 0.042945887996112 -0.03900803630232878 0 0 0 0
729300000 0.42496923375022344 -0.33524601466838244 0.04134644494501398 -0.04020905191350267 0 0 0 0
733200000 0.42535661582217993 -0.33502607128955464 0.03961742083659344 -0.04143872916350359 0 0 0 0
737100000 0.42434146908807807 -0.33470039906470533 0.037551739407337206 -0.042717115686452166 0 0 0 0
741000000 0.4237629941374718 -0.33677431137140323 0.03595133922775 -0.04412980896555503 0 0 0 0
744900000 0.4233447163514098 -0.3372537488694534 0.033963462758929884 -0.04510038630920851 0 0 0 0
748800000 0.4216037489640564 -0.33746917010448424 0.03207548748360326 -0.04620615552294249 0 0 0 0
752700000 0.42282398140912425 -0.3396183226050645 0.030336342801791115 -0.04725659824018941 0 0 0 0
756600000 0.42128114239616954 -0.340583298884041 0.028421219887579605 -0.04813845011446165 0 0 0 0
760500000 0.42071996204038276 -0.3424275652327175 0.026543571822819426 -0.049251657111523274 0 0 0 0
764400000 0.4194831140941344 -0.34337191512321896 0.024612612154012423 -0.05000514341668744 0 0 0 0
768300000 0.4185853464328989 -0.34238659194457277 0.022808658227944433 -0.05068424775909122 0 0 0 0
772200000 0.416876369461686 -0.34485366023868674 0.0203730582152901 -0.05157170247757491 0 0 0 0
776100000 0.4154631967767902 -0.3455990272274573 0.01831102388493899 -0.05228575874540151 0 0 0 0
780000000 0.4127218736801709 -0.3456269383393586 0.01635706075942305 -0.05284309286756222 0 0 0 0
