# HZ S RI R 50
3900000 0.5417173463261878 0.00014430485496674288 0.30093287490921733 6.680748530243506e-05 0 0 0 0
7800000 0.5379166827549682 0.00014834177276382645 0.30224935082700555 -0.003431007547714548 0 0 0 0
11700000 0.5358623715826584 -0.0005183615733814617 0.3036804147219532 -0.00757904115905656 0 0 0 0
15600000 0.5332419075835905 -0.0012180791746552897 0.30404696002396553 -0.011381282922209192 0 0 0 0
19500000 0.5307304602224028 -0.002215895367554375 0.3045378850759766 -0.015566863099513403 0 0 0 0
23400000 0.5286549392992546 -0.003101856831526552 0.3050507763333879 -0.019258888939354124 0 0 0 0
27300000 0.527113220019036 -0.003976828155831332 0.30582035431177096 -0.023341107493215912 0 0 0 0
31200000 0.5238686487462813 -0.004763582264801544 0.30682375467741624 -0.027197338300809313 0 0 0 0
35100000 0.5230773041270619 -0.006490204023200707 0.3073620440768111 -0.03144575467721006 0 0 0 0
39000000 0.521092994470571 -0.006877416130827288 0.30824934063444986 -0.035513002390409276 0 0 0 0
42900000 0.5198095973340868 -0.008109499262312324 0.30944889270278725 -0.04009281556939304 0 0 0 0
46800000 0.5172949328082322 -0.009860889883239249 0.3102786374011422 -0.044257769673323774 0 0 0 0
50700000 0.5165755694566919 -0.010679876386342402 0.31104990498752466 -0.04894880600581873 0 0 0 0
54600000 0.5152231409594588 -0.011827726153608517 0.3119747303913626 -0.05362473671202085 0 0 0 0
58500000 0.5140667948486426 -0.01273550367424172 0.3126291594043305 -0.05796989449748431 0 0 0 0
62400000 0.5133507495347653 -0.013596354642081107 0.3135048326007975 -0.06286391318912536 0 0 0 0
66300000 0.5115825931584058 -0.01490947456230241 0.3142442534983025 -0.06821180564113988 0 0 0 0
70200000 0.5109374295575521 -0.017286865523970924 0.3145484947761951 -0.07339862720153742 0 0 0 0
74100000 0.5095659730409859 -0.019176951494926955 0.3151375791298895 -0.0782681080343106 0 0 0 0
78000000 0.5088922760101475 -0.020052672913610563 0.3160768084912932 -0.08385291371414176 0 0 0 0
81900000 0.5085152328026094 -0.0228963588991799 0.31670249556558927 -0.08942617249755827 0 0 0 0
85800000 0.5075557291446995 -0.024027030513457514 0.3168516013712653 -0.09522618938183153 0 0 0 0
89700000 0.5072375036877059 -0.02569987186235695 0.3170072300156298 -0.1010880727041488 0 0 0 0
93600000 0.5060736063840424 -0.028871661275173682 0.317158037990397 -0.10753893627413974 0 0 0 0
97500000 0.5053438555264573 -0.03005056210948641 0.3170367175653001 -0.1131029875393389 0 0 0 0
101400000 0.5024441134673152 -0.032249834960135386 0.31695561896748325 -0.1196925343250357 0 0 0 0
105300000 0.5020995503901862 -0.03494552206293198 0.31642599722582854 -0.1255615620204516 0 0 0 0
109200000 0.502010975603967 -0.03821935589079064 0.3159388192927901 -0.13181041495871837 0 0 0 0
113100000 0.5011580145501557 -0.04053523852702789 0.31500177704804544 -0.13815426539135353 0 0 0 0
117000000 0.4999112593387948 -0.044052456716569946 0.31426791375513435 -0.1447489597745664 0 0 0 0
120900000 0.4989643792982453 -0.046165884152938236 0.3135803300803692 -0.1506307205431374 0 0 0 0
124800000 0.4974624161774298 -0.04900526169074665 0.3125792122986744 -0.15693835476640186 0 0 0 0
128700000 0.4962196643318543 -0.05154470996512145 0.31110997276490676 -0.16217192569522487 0 0 0 0
132600000 0.49437230942046934 -0.05340108663392085 0.30949585119970296 -0.16915019805662818 0 0 0 0
136500000 0.4929796311132164 -0.05777316073221191 0.3085906172148159 -0.17473203780405502 0 0 0 0
140400000 0.5410827596300565 -0.07201170833973627 0.22530739747208842 -0.1528898887717983 0 0 0 0
144300000 0.5404013837359266 -0.07293946731552596 0.22225515531260553 -0.15689670090889643 0 0 0 0
148200000 0.5389337404858073 -0.07647592446750216 0.21908061011006033 -0.1617949916723368 0 0 0 0
152100000 0.5383015489260761 -0.07955868110106422 0.21601320148654213 -0.16572125069499952 0 0 0 0
156000000 0.5371264853647101 -0.082262539714751 0.21254808028508576 -0.1697403894253689 0 0 0 0
159900000 0.537215969500898 -0.08500132122053984 0.21015713747240533 -0.17380414298755337 0 0 0 0
163800000 0.536035283562831 -0.08848868121731322 0.20663633155783118 -0.17776681202264122 0 0 0 0
167700000 0.536221870678864 -0.09064791818527516 0.20372530672383582 -0.1821888982121138 0 0 0 0
171600000 0.5347211660516047 -0.09279424582101863 0.19915768689350616 -0.18555506576153127 0 0 0 0
175500000 0.5342852786284762 -0.09424062572780789 0.19541337926339694 -0.18900720812229094 0 0 0 0
179400000 0.5332272282487256 -0.09791410136610429 0.19130950580827724 -0.19263098555884506 0 0 0 0
183300000 0.5319152591245266 -0.09986601178534604 0.18940900246362716 -0.19690738692765686 0 0 0 0
187200000 0.5314344722742812 -0.10249576726649776 0.18562816045888822 -0.20005514092366053 0 0 0 0
191100000 0.5319195908281411 -0.10430866973494118 0.18180588502069442 -0.2033222484076235 0 0 0 0
195000000 0.5313335983616062 -0.10581293229350851 0.17714185610063302 -0.20591904954636978 0 0 0 0
198900000 0.5310217605303067 -0.10846455785166545 0.17312516846749323 -0.2096457255236869 0 0 0 0
202800000 0.530884108382424 -0.10917153488663975 0.168142998351889 -0.21326984838508622 0 0 0 0
206700000 0.5316864722102422 -0.11143174919625358 0.16295959450718517 -0.21606932663703324 0 0 0 0
210600000 0.5307826949537015 -0.11394697165626336 0.15828400980458254 -0.21876099527334428 0 0 0 0
214500000 0.5309974455508448 -0.11601490241902648 0.15331598994598572 -0.2213236995669938 0 0 0 0
218400000 0.5297249316420631 -0.11822591971856909 0.14861388425456823 -0.22328507524031904 0 0 0 0
222300000 0.5294243900347496 -0.12087270814197218 0.14355792626079633 -0.22567960549873844 0 0 0 0
226200000 0.528267822717728 -0.12305555738484594 0.13871958444101537 -0.22742996469273846 0 0 0 0
230100000 0.5279006238188376 -0.12588429530015322 0.1347448734213416 -0.22916086845634678 0 0 0 0
234000000 0.5265841601287119 -0.12723295638989926 0.13098727155259107 -0.23331854188557094 0 0 0 0
237900000 0.5257617889668327 -0.12936458107502097 0.12627526612742754 -0.23557902337933564 0 0 0 0
241800000 0.5249060815453405 -0.13153824303806616 0.12101046184311891 -0.23733722119304787 0 0 0 0
245700000 0.5249366419758541 -0.13263001074054495 0.1162418316792798 -0.2380535605355947 0 0 0 0
249600000 0.5238990269800538 -0.1357773690685587 0.11192833284624151 -0.23922123057492 0 0 0 0
253500000 0.5235310472016226 -0.13772048994173045 0.10674298551115854 -0.23964638499694776 0 0 0 0
257400000 0.5234330909710556 -0.1399197149977321 0.10258259782236206 -0.24083025020348717 0 0 0 0
261300000 0.5229595213912774 -0.1411728085515952 0.09797221297770348 -0.2413098321567238 0 0 0 0
265200000 0.5234842511774573 -0.14336962682332874 0.09334564450864827 -0.24183158332442148 0 0 0 0
269100000 0.5222003385903656 -0.14516031451193034 0.08874732622146504 -0.2421069416828021 0 0 0 0
273000000 0.5226482222077525 -0.1473745878328066 0.08460607007412439 -0.24239336938603642 0 0 0 0
276900000 0.5231481489123143 -0.14882745048442841 0.08098406478238866 -0.24191689936952035 0 0 0 0
280800000 0.5218302649414673 -0.15170793833817964 0.0773410902086637 -0.2425373080139581 0 0 0 0
284700000 0.5214318959260947 -0.1536309867782098 0.07285363957854654 -0.24245309619842476 0 0 0 0
288600000 0.5229133679896385 -0.15456104922140373 0.06891159568831497 -0.24308314259720817 0 0 0 0
292500000 0.5218271327285731 -0.15701452461284163 0.06501563631161193 -0.24353749509287545 0 0 0 0
296400000 0.5221010200234714 -0.15824206434160307 0.060900970198267776 -0.2436655066733275 0 0 0 0
300300000 0.5208663970374656 -0.16093340657786448 0.056449953220684995 -0.24392257969475448 0 0 0 0
304200000 0.5214427868564298 -0.16240449543618168 0.05194910714173016 -0.24443744302259685 0 0 0 0
308100000 0.5224296656803035 -0.16365810502078565 0.04791064140997227 -0.24451526689227468 0 0 0 0
312000000 0.5214007349650742 -0.1652295478713907 0.04362788534116441 -0.24432370330937855 0 0 0 0
315900000 0.5215593249154304 -0.16748000940205293 0.03903971134793392 -0.24484904140448818 0 0 0 0
319800000 0.5209596324582296 -0.17007123109210276 0.03521808144660636 -0.244971873397494 0 0 0 0
323700000 0.5208374432144884 -0.17156371159216988 0.03074004914665069 -0.24473239734259197 0 0 0 0
327600000 0.5208858900415305 -0.1739979719047064 0.0263248440715001 -0.24429507786611115 0 0 0 0
331500000 0.5201376315245276 -0.17716672368355463 0.02219975248768881 -0.24434388934748646 0 0 0 0
335400000 0.5199907882790091 -0.17723503964648193 0.018338475225231077 -0.24397841707209156 0 0 0 0
339300000 0.5189929141634603 -0.1802435247617435 0.013752717986760147 -0.2439483870473521 0 0 0 0
343200000 0.5183638695205768 -0.1826975727445532 0.009519320985902201 -0.24391806692582127 0 0 0 0
347100000 0.5172507032452561 -0.18387990412333322 0.005375466029383303 -0.244019522872999 0 0 0 0
351000000 0.5174888290586315 -0.18525619337973662 0.0011155612829630178 -0.24389770543339528 0 0 0 0
354900000 0.515715854009817 -0.18776519130817745 -0.003396026133024131 -0.2440430845236872 0 0 0 0
358800000 0.5157279605274079 -0.18887775995129333 -0.007621871349973367 -0.24416352708119946 0 0 0 0
362700000 0.5140002657149433 -0.190170113883242 -0.011088748671031979 -0.24620400218486885 0 0 0 0
366600000 0.5125057262484737 -0.1913877404846619 -0.015486138845695368 -0.24597409456224095 0 0 0 0
370500000 0.5116627455086104 -0.19354599121530033 -0.020047004069141675 -0.2457585605203552 0 0 0 0
374400000 0.5105703459906594 -0.19561462317982814 -0.02427066028858775 -0.24551527171950327 0 0 0 0
378300000 0.5093373404250904 -0.19647918430735997 -0.02864308317543427 -0.2454009456850727 0 0 0 0
382200000 0.5082200849303654 -0.1989158419080932 -0.03265994151542501 -0.24508621434941222 0 0 0 0
386100000 0.5071950729850703 -0.20078186501501394 -0.037324997912871 -0.2445345168543149 0 0 0 0
390000000 0.5056337452293264 -0.2026922940109544 -0.04167992409170369 -0.24398855665129174 0 0 0 0
393900000 0.5045610132595207 -0.20403370911775537 -0.04604610312429866 -0.24374835978211676 0 0 0 0
397800000 0.5047689702157321 -0.20527704366979788 -0.05032947511394645 -0.24345908409186065 0 0 0 0
401700000 0.5029900235761746 -0.20725985431389363 -0.0552202537893339 -0.2426006571129239 0 0 0 0
405600000 0.5021403942477373 -0.21011886919639877 -0.05984020465691712 -0.24204886437515444 0 0 0 0
409500000 0.5004862627506774 -0.2113006185892544 -0.06452315667920937 -0.2415932935661139 0 0 0 0
413400000 0.49984223721427956 -0.21202162328107715 -0.06863474840517238 -0.24073901649076265 0 0 0 0
417300000 0.49876314581390485 -0.213979385767943 -0.07318173786691201 -0.24018394670667206 0 0 0 0
421200000 0.49885105446402256 -0.21497291276953062 -0.07690987897852206 -0.2397829883652004 0 0 0 0
425100000 0.4979128521260948 -0.21657806264386634 -0.08098288737099939 -0.23928274816655723 0 0 0 0
429000000 0.49751469521884456 -0.21859484634448048 -0.08600358760883518 -0.23822862289300978 0 0 0 0
432900000 0.49626869589145256 -0.21933063370640316 -0.09042145551707961 -0.2375316558170273 0 0 0 0
436800000 0.49517126443332843 -0.22098762911696798 -0.09460153910175581 -0.23611662640346495 0 0 0 0
440700000 0.4942694452856351 -0.22386606547530682 -0.09911215960604619 -0.23507685205770032 0 0 0 0
444600000 0.4942378852257072 -0.22570331051486225 -0.10387743868257943 -0.2332667883435453 0 0 0 0
448500000 0.4927745081490601 -0.22715290144924333 -0.108466382017832 -0.2320124811260395 0 0 0 0
452400000 0.492500164674419 -0.22756936307071665 -0.11266683550217468 -0.23032817558395433 0 0 0 0
456300000 0.4931195919939742 -0.23041774771406795 -0.11680792491030456 -0.22907191523459167 0 0 0 0
460200000 0.4919635960648619 -0.23178307768866016 -0.12075687908267178 -0.22691512176557693 0 0 0 0
464100000 0.4896905710416943 -0.23391368742246224 -0.12687868625599535 -0.22611744993022914 0 0 0 0
468000000 0.4889171897176027 -0.235155807706713 -0.13120676746271737 -0.223903573392784 0 0 0 0
471900000 0.48883130693897925 -0.23656730471423254 -0.135418986109518 -0.22159305645238064 0 0 0 0
475800000 0.4874371295204525 -0.24084701181363638 -0.14036295956410078 -0.2186188106936842 0 0 0 0
479700000 0.4871723529477066 -0.24317646345790006 -0.14459725618587596 -0.21671875139034483 0 0 0 0
483600000 0.4848751900177232 -0.24376853134954465 -0.14858957249251717 -0.21310577311003137 0 0 0 0
487500000 0.48463523779773615 -0.246944128874139 -0.15273478001936044 -0.21045823521456222 0 0 0 0
491400000 0.48464496147307157 -0.24874675142421507 -0.15700382950317093 -0.20733003953854745 0 0 0 0
495300000 0.4833290430449379 -0.25137674176615266 -0.1608075474826831 -0.20458315066712224 0 0 0 0
499200000 0.48344020789292125 -0.25353423362767025 -0.16503128738404274 -0.20134388620494414 0 0 0 0
503100000 0.48334834822636413 -0.2553862775426035 -0.16915951543484337 -0.1975634203867314 0 0 0 0
507000000 0.48231051919286755 -0.2576012811451332 -0.17335950055098287 -0.19329539365970397 0 0 0 0
510900000 0.4809856502591957 -0.2592456691317058 -0.17727061703310135 -0.18965666078619167 0 0 0 0
514800000 0.48139905995423315 -0.2615474243342824 -0.18095133403256802 -0.18587542676535554 0 0 0 0
518700000 0.48130081948545594 -0.26467750683301294 -0.18488562508575002 -0.18147902591825224 0 0 0 0
522600000 0.4797932549748428 -0.2680006437268585 -0.18894299663964495 -0.17736212580801178 0 0 0 0
526500000 0.47859608861384284 -0.268238022436702 -0.19241462168357393 -0.17286151748884726 0 0 0 0
530400000 0.4787679670872081 -0.2719794577574212 -0.19580781940659725 -0.16834456973095407 0 0 0 0
534300000 0.4780484729074778 -0.2737351403962337 -0.19902378803675713 -0.16379963773437986 0 0 0 0
538200000 0.47682947603370934 -0.2768890577381197 -0.2019175224717212 -0.15935516790123747 0 0 0 0
542100000 0.4752959387863482 -0.2791432765599329 -0.20479689288645875 -0.15503044954793074 0 0 0 0
546000000 0.47429870940095525 -0.2814482771588916 -0.20750879090145963 -0.15007427027614137 0 0 0 0
549900000 0.47266282429552997 -0.28291667885255795 -0.2108185340105845 -0.14543037372634024 0 0 0 0
553800000 0.47129174946888386 -0.2870300621591867 -0.21190788694569068 -0.14076179362117353 0 0 0 0
557700000 0.4704060227201945 -0.2890051000228849 -0.2155172409595423 -0.13563953431149323 0 0 0 0
561600000 0.47011898639039457 -0.29070852480543097 -0.21728026124719574 -0.13191083045807464 0 0 0 0
565500000 0.4707956984454312 -0.29263844697476815 -0.21980304703990095 -0.12713550520209488 0 0 0 0
569400000 0.4684098032371983 -0.29684307843554686 -0.22276434783712484 -0.12291809964447101 0 0 0 0
573300000 0.4654256247781454 -0.2982027533055396 -0.22449801440763148 -0.11726850204714358 0 0 0 0
577200000 0.4656771677228175 -0.2987988908190997 -0.22609429930025432 -0.11242509983341828 0 0 0 0
581100000 0.4631941750082622 -0.30099116704249423 -0.22797667984019768 -0.10809434030911165 0 0 0 0
585000000 0.46409646179823866 -0.3041595769245955 -0.23021181975888405 -0.1033931040054003 0 0 0 0
588900000 0.46295497775052147 -0.30502670231683066 -0.23180984808815197 -0.09801729071408094 0 0 0 0
592800000 0.4614188311064594 -0.30671784975102584 -0.23396171015971778 -0.09297187005897702 0 0 0 0
596700000 0.45908119794466534 -0.3082008606790026 -0.2353921911061024 -0.08744605891956064 0 0 0 0
600600000 0.4587188227825457 -0.3114005772055425 -0.23719893774683656 -0.08235086901645593 0 0 0 0
604500000 0.4569716592459329 -0.31270294956520894 -0.23867359375243344 -0.0775174062908604 0 0 0 0
608400000 0.4552747703584537 -0.31495789843932726 -0.2393842981784716 -0.07260902530641511 0 0 0 0
612300000 0.4561990328231974 -0.3173918468831185 -0.2413158134360144 -0.06849648858055704 0 0 0 0
616200000 0.453508487826817 -0.31878132630645756 -0.24250012768726853 -0.06293006024961359 0 0 0 0
620100000 0.45187668468641784 -0.3203186695662442 -0.24449753929520035 -0.057596463098707036 0 0 0 0
624000000 0.4526070099827641 -0.3215852731091963 -0.24507527749987315 -0.05091331311491553 0 0 0 0
627900000 0.4492428968319653 -0.3208808460313505 -0.2459935053394442 -0.04582556627580349 0 0 0 0
631800000 0.45110294637974524 -0.3241916090614829 -0.24823307764168118 -0.040079303556238635 0 0 0 0
635700000 0.4497633006709793 -0.32442218396223216 -0.24834537220944014 -0.033720372047767504 0 0 0 0
639600000 0.44648914854458965 -0.3268663506079058 -0.2489405548498573 -0.029519381170502977 0 0 0 0
643500000 0.4448793143700028 -0.32716431512816796 -0.2502352353764596 -0.024507276805636167 0 0 0 0
647400000 0.44352884057795855 -0.32807273095651057 -0.2500199127419747 -0.020667052660776328 0 0 0 0
651300000 0.4422626210564738 -0.33026615105274376 -0.2507556681050634 -0.01610023398220379 0 0 0 0
655200000 0.4409195141726318 -0.3316507438616777 -0.2510525737308436 -0.01185639864235599 0 0 0 0
659100000 0.43932089990597434 -0.33227417923053065 -0.25183064551771467 -0.008103022994908992 0 0 0 0
663000000 0.43690552232068564 -0.33307592327094776 -0.25275795869339096 -0.003777574337573793 0 0 0 0
666900000 0.4366886369917882 -0.3334943837559685 -0.25304378690934176 0.0005972387156836156 0 0 0 0
670800000 0.4345350790828083 -0.3352816378565713 -0.25295106547919316 0.005755151085990899 0 0 0 0
674700000 0.4340248283602277 -0.33565279067339904 -0.25366722149528786 0.010433796260985388 0 0 0 0
678600000 0.43312736927425244 -0.3359613775047783 -0.254000499148906 0.015090003186320543 0 0 0 0
682500000 0.432578292888551 -0.33626269394847735 -0.2540908543118278 0.01906531855217434 0 0 0 0
686400000 0.4320171121999131 -0.3360703296684002 -0.2542676407050284 0.023833844860336115 0 0 0 0
690300000 0.4303571183575999 -0.33707322218337393 -0.2547541798951733 0.028146376941438102 0 0 0 0
694200000 0.43040847816691125 -0.3373711567537726 -0.2550479436027155 0.03127038560033645 0 0 0 0
698100000 0.42947020977725753 -0.33724665764981965 -0.255003335569064 0.03549963381652894 0 0 0 0
702000000 0.429057102870563 -0.33671685134285545 -0.25563436377732734 0.03875506119437841 0 0 0 0
705900000 0.42943286901464556 -0.3377749258068386 -0.2565085077610895 0.04201587802289838 0 0 0 0
709800000 0.4295723220103031 -0.3394799891272796 -0.2567932743755681 0.04636888311091908 0 0 0 0
713700000 0.4276057569590814 -0.33987651894395954 -0.2560504986432277 0.05038490620150498 0 0 0 0
717600000 0.42702765239696594 -0.33969075943496757 -0.2566032193762377 0.054361843998873366 0 0 0 0
721500000 0.4280020597598831 -0.34156865131085873 -0.2564222376385724 0.05869168371004324 0 0 0 0
725400000 0.4278846122640105 -0.33816638874994426 -0.25895502870474674 0.06354022176574874 0 0 0 0
729300000 0.4270615211680492 -0.3390503798286319 -0.2575874966921229 0.06821734377719123 0 0 0 0
733200000 0.42753559128301405 -0.33819390567465496 -0.25757793920370525 0.07305175169823874 0 0 0 0
737100000 0.4272268367376955 -0.3382932169136112 -0.2562158908457786 0.07904198073830354 0 0 0 0
741000000 0.4244347375705324 -0.34268649148042546 -0.25629208650626584 0.08426449118617811 0 0 0 0
744900000 0.42545008410398794 -0.3415972902181348 -0.2555598915812994 0.08906321976310838 0 0 0 0
748800000 0.42458508283032304 -0.342191377899203 -0.25407351672139955 0.09416070164646927 0 0 0 0
752700000 0.4242534322714143 -0.3438228708166419 -0.25376761169149403 0.09879934268498695 0 0 0 0
756600000 0.423278456052087 -0.3454035307940863 -0.25306285183341715 0.10336193751518898 0 0 0 0
760500000 0.4212837586079686 -0.3459097120193686 -0.25189216813280657 0.10846473232778434 0 0 0 0
764400000 0.42190737672343487 -0.3473962779632192 -0.25096125178046996 0.11308760599442375 0 0 0 0
768300000 0.4209445167577695 -0.34863147806029104 -0.2496618722850656 0.11836158454365166 0 0 0 0
772200000 0.41605682738144073 -0.34726763899736496 -0.24782904932793867 0.12302423687583419 0 0 0 0
776100000 0.4153904270360507 -0.3484593888807572 -0.2457587800209848 0.1283470963454051 0 0 0 0
780000000 0.4123821543999344 -0.3474925175642401 -0.24399507076273916 0.1325040803093262 0 0 0 0
