# HZ S RI R 50
3900000 0.0003727541211632428 0.00014294693925067813 0.3209111308257953 -0.0005391742123318668 0 0 0 0
7800000 -0.001220915248161139 -5.103364525439472e-05 0.320845624725241 -0.0013031995569975543 0 0 0 0
11700000 0.0005127553965021925 0.0004103767095096094 0.32102998639477237 -0.002390962664030359 0 0 0 0
15600000 0.0012629171400595203 0.00020096307140246794 0.32097082288774165 -0.0024162835506754705 0 0 0 0
19500000 0.0007354964089555739 -7.969481812354658e-05 0.321237610890729 -0.0031915114704705212 0 0 0 0
23400000 0.0012097992943789961 0.00038360695619017954 0.3212685822001 -0.004034828414039084 0 0 0 0
27300000 0.0004310041825310351 7.513594840703683e-05 0.32153050422023766 -0.005047247270115418 0 0 0 0
31200000 -0.0005204010308638824 -0.0003082750738011275 0.32170280527312006 -0.005264430027568714 0 0 0 0
35100000 0.00010859158930219168 -0.00010316726151573661 0.32127884303095355 -0.005645936697593928 0 0 0 0
39000000 0.0005376072850606108 -0.00012196711048160476 0.3221478823119941 -0.00670417645945715 0 0 0 0
42900000 0.0005948787624474131 -4.272849515027475e-05 0.32210664605443606 -0.007400347281760549 0 0 0 0
46800000 0.000700096814650588 -0.0002680298638571099 0.32223362180269893 -0.00810644856525295 0 0 0 0
50700000 0.0012412129533784083 8.972743587494127e-05 0.3220142652360663 -0.008932033683652522 0 0 0 0
54600000 0.0012489603909299882 9.951690941100603e-05 0.3225327582719196 -0.009731164276269083 0 0 0 0
58500000 0.0013882141596328478 0.00024056428441061295 0.32241888583986417 -0.010497463362971521 0 0 0 0
62400000 0.0018802518797244232 0.00013741792846871427 0.3224812101328626 -0.011433299918078857 0 0 0 0
66300000 0.0015947155690758294 6.824610318006281e-05 0.3226267448794563 -0.01233909864160213 0 0 0 0
70200000 0.0014529150901810757 -0.0005868010831098481 0.32235563314172977 -0.013327036713246445 0 0 0 0
74100000 0.0019374279218425572 -0.0013284918156342884 0.322682660773711 -0.014118293843467827 0 0 0 0
78000000 0.0017703657565645678 -0.001228540854935362 0.32276183482200715 -0.015226036352386377 0 0 0 0
81900000 0.002180593696902437 -0.0013965621317636903 0.32269173193362216 -0.015916448160287523 0 0 0 0
85800000 0.0027472353888598404 -0.0007174958074771603 0.32269243218517063 -0.016602058316263296 0 0 0 0
89700000 0.003032048015155437 -0.00048081842651903454 0.3226684706418985 -0.01786652919625655 0 0 0 0
93600000 0.003142226354068165 -0.0008860396260379206 0.3228346311793321 -0.018941966783675004 0 0 0 0
97500000 0.003502191891720496 -0.0008573583369948897 0.3227381523227367 -0.019340010306364085 0 0 0 0
101400000 0.003536378646398918 -0.0012910011733145057 0.3226533193433369 -0.0208980499422136 0 0 0 0
105300000 0.003793279758573005 -0.0013443704056076136 0.32283830134176406 -0.021548303810203243 0 0 0 0
109200000 0.003904232750648397 -0.00207854669522867 0.32265291002534685 -0.02260965958551226 0 0 0 0
113100000 0.004221485258286754 -0.0022473994162869387 0.32235968920013847 -0.0232665413071514 0 0 0 0
117000000 0.004638419512248955 -0.002247412434897386 0.32208186823614404 -0.024449929587617998 0 0 0 0
120900000 0.004733657434735753 -0.002355522595906787 0.32190242684480447 -0.025014865591591592 0 0 0 0
124800000 0.004978734851249697 -0.0025022231096829607 0.3218811580231109 -0.026198862614795235 0 0 0 0
128700000 0.005123435494395491 -0.00229650075641459 0.3214808120720728 -0.027179457188890376 0 0 0 0
132600000 0.0053161275555366145 -0.0024946608140231368 0.32146722787938253 -0.02768628373204359 0 0 0 0
136500000 0.005509186232736765 -0.002510754884643576 0.3215407494926477 -0.028542110148749734 0 0 0 0
140400000 0.005919190800619449 -0.0027302927510024096 0.32216882865108093 -0.02916539090069849 0 0 0 0
144300000 0.006379677468491522 -0.002904481597996251 0.3215821853210234 -0.02988033665261028 0 0 0 0
148200000 0.006259370810393537 -0.003090942286681611 0.3215348361013041 -0.030622591308512092 0 0 0 0
152100000 0.006722532172507537 -0.0033669823707795023 0.32124592858039547 -0.03162002794822105 0 0 0 0
156000000 0.00688171635949036 -0.0036672900715710014 0.3211711606903401 -0.03226059101093934 0 0 0 0
159900000 0.006934092153631763 -0.004264028717391762 0.32084488418025603 -0.03304880131563996 0 0 0 0
163800000 0.007258823424750052 -0.004002954684123364 0.32092831497885993 -0.0339128489710905 0 0 0 0
167700000 0.007311780055424193 -0.004551650940712872 0.3221913350925253 -0.034712834038835405 0 0 0 0
171600000 0.007789080304535103 -0.00470532294575048 0.3206207080925944 -0.035076854269878555 0 0 0 0
175500000 0.007660081526436681 -0.004363319579729061 0.3207180958654363 -0.03589322294661104 0 0 0 0
179400000 0.007848388969391345 -0.004783578333554841 0.32010063892292184 -0.036659725374884586 0 0 0 0
183300000 0.008044831247877632 -0.005429051553411157 0.319364137871561 -0.0372163274636248 0 0 0 0
187200000 0.008034821627240136 -0.005414948962402362 0.31989450510904155 -0.03783038926586489 0 0 0 0
191100000 0.008399820936520525 -0.00559068068192232 0.31995454875986074 -0.03857964267056813 0 0 0 0
195000000 0.008264503252699756 -0.005509216367264876 0.31925954336890006 -0.03924888657739892 0 0 0 0
198900000 0.00854847231628651 -0.005910815008663372 0.3195080727022464 -0.04000869235846298 0 0 0 0
202800000 0.008594902426918728 -0.006207823192352283 0.31959516264180915 -0.04064009623689368 0 0 0 0
206700000 0.008665674445966037 -0.00623304428056601 0.31932329646782565 -0.041127847709522214 0 0 0 0
210600000 0.008633670647285086 -0.006801020329028016 0.3191219288240889 -0.041740350487470324 0 0 0 0
214500000 0.008725544469622018 -0.006757203879964433 0.31933200132808076 -0.04279832106127361 0 0 0 0
218400000 0.00880000496944731 -0.007299481128089673 0.3188631468015679 -0.043176472773729185 0 0 0 0
222300000 0.009031378816048352 -0.007374478734535935 0.31892242371617957 -0.04403545850283933 0 0 0 0
226200000 0.00877780344754752 -0.007549739284392391 0.31925078877471935 -0.04473586092189619 0 0 0 0
230100000 0.008891907143531963 -0.00762669352692175 0.3188755691698049 -0.04484338179076724 0 0 0 0
234000000 0.00922435363565075 -0.007651034735400576 0.3187627146990452 -0.045622323789947676 0 0 0 0
237900000 0.008810442280848154 -0.008037535893475941 0.3191053029933793 -0.04662964276404091 0 0 0 0
241800000 0.008831529587150746 -0.00848348945789211 0.3189968359613336 -0.047385266182730326 0 0 0 0
245700000 0.008962074921166182 -0.008101833990227566 0.3189458309566778 -0.047925888549168856 0 0 0 0
249600000 0.008654061324853683 -0.00869605963633153 0.31901383291447655 -0.048554135864215926 0 0 0 0
253500000 0.008883076856392759 -0.008786321956878533 0.3190711300087989 -0.04957781810922465 0 0 0 0
257400000 0.008975612878754152 -0.008918682569698091 0.3189513467216448 -0.050178332352865326 0 0 0 0
261300000 0.008940244846927702 -0.008998549830260293 0.3188613101178564 -0.05096894503722315 0 0 0 0
265200000 0.008512342387343094 -0.00931080237903561 0.31882387574345344 -0.05174506776110593 0 0 0 0
269100000 0.008441767044489339 -0.009529606722700458 0.31856676712106335 -0.05288809866215852 0 0 0 0
273000000 0.008669616736257078 -0.009927589839459638 0.3186886513938513 -0.05342228221183812 0 0 0 0
276900000 0.008668080792651441 -0.009998377054211385 0.318879924411759 -0.054276621132497684 0 0 0 0
280800000 0.008549957789915404 -0.009511692997409539 0.318651668015542 -0.055096367799854884 0 0 0 0
284700000 0.008228758069659552 -0.009865678709344216 0.31828856258995053 -0.056208802275907514 0 0 0 0
288600000 0.008249824915212273 -0.010021509557465258 0.3187968630335229 -0.05673130831234495 0 0 0 0
292500000 0.008408732698387893 -0.010214499324419077 0.31832350992746006 -0.057901937446588295 0 0 0 0
296400000 0.008159440952903912 -0.010316696891691226 0.3179504620512506 -0.058856709288772735 0 0 0 0
300300000 0.00782431981112553 -0.010572257120389192 0.318144719021439 -0.05952349942479877 0 0 0 0
304200000 0.007588624702414584 -0.01059610114012266 0.3179265117807789 -0.06038956563253564 0 0 0 0
308100000 0.00772209823379162 -0.010403156666936468 0.3178912151567414 -0.061071433139116414 0 0 0 0
312000000 0.007691070034877655 -0.010261647363041774 0.3173651069396409 -0.062145105850896214 0 0 0 0
315900000 0.007631843351724133 -0.010008209607918402 0.31751301423708506 -0.06283749484389219 0 0 0 0
319800000 0.007388636160675798 -0.01004956756622141 0.3172529510315914 -0.06357589364064173 0 0 0 0
323700000 0.007291291967779521 -0.010044500719980903 0.31688998021452836 -0.06457242075095444 0 0 0 0
327600000 0.0070582629182256 -0.010162810069999199 0.3165521702324846 -0.06555022088197715 0 0 0 0
331500000 0.006898759559819399 -0.010436848224509722 0.31653942811568303 -0.06620657497465322 0 0 0 0
335400000 0.006875464242365696 -0.0098412141273625 0.3163386781868607 -0.06683522683000835 0 0 0 0
339300000 0.0067857020589997775 -0.009826717579851098 0.31592169171873635 -0.06804865447311918 0 0 0 0
343200000 0.006296712481160025 -0.009586217448615665 0.31589822444777876 -0.06820476186800868 0 0 0 0
347100000 0.006445925391824461 -0.0102780049380467 0.31583054253727405 -0.06913103350374813 0 0 0 0
351000000 0.006284435921901577 -0.009647241840551535 0.3154500759014858 -0.0700991498286151 0 0 0 0
354900000 0.006066539092605466 -0.00976950232474052 0.3150819380850302 -0.07131981444760288 0 0 0 0
358800000 0.006062248246976847 -0.009457771091915944 0.3147211409734251 -0.07176427426005892 0 0 0 0
362700000 0.006254364928322695 -0.00944666887607126 0.31436239855633696 -0.07266411183353447 0 0 0 0
366600000 0.006073167665026042 -0.009014598751199802 0.31463976661009213 -0.07284668828995278 0 0 0 0
370500000 0.005529245662071648 -0.008997708500739362 0.3137367717291441 -0.07375662845117027 0 0 0 0
374400000 0.0054925103851113126 -0.008740778062721635 0.3137203391875708 -0.07503370317241947 0 0 0 0
378300000 0.005491668237720486 -0.009010093133640325 0.31360434187073905 -0.07553433008537513 0 0 0 0
382200000 0.005360853121396036 -0.008465809772771423 0.31346986508593944 -0.07575240376597774 0 0 0 0
386100000 0.005639706772049691 -0.008252609510025686 0.31335031304431143 -0.07625669686793202 0 0 0 0
390000000 0.005702007083884171 -0.008200668959003234 0.313102852475756 -0.07697464225549026 0 0 0 0
393900000 0.0055391796624936545 -0.007996924697100167 0.31295870418419697 -0.07798435609787567 0 0 0 0
397800000 0.005731971976972716 -0.007607938695525151 0.3125829873530231 -0.07847887013229785 0 0 0 0
401700000 0.005356378001270989 -0.007556623178485361 0.3122784946103117 -0.0795271258858211 0 0 0 0
405600000 0.005881117827111675 -0.007437203927076568 0.31230778915106694 -0.07989830283988723 0 0 0 0
409500000 0.00577004427352698 -0.007171581818229995 0.3119930231189222 -0.08077600575672679 0 0 0 0
413400000 0.005587203741867319 -0.006838590266074775 0.31177888179713636 -0.08142828971719793 0 0 0 0
417300000 0.005924047862700937 -0.006552828044969741 0.31172554026915983 -0.08267954603533577 0 0 0 0
421200000 0.006247740264124793 -0.006547079094582101 0.31159782761323573 -0.08280197012765259 0 0 0 0
425100000 0.0064374449445647585 -0.006302909806841911 0.31147132831697066 -0.08357120975866374 0 0 0 0
429000000 0.006170776238948599 -0.005976251340770194 0.3113836483489611 -0.0844642911872711 0 0 0 0
432900000 0.006208121625369079 -0.005508281573411392 0.3112727467577084 -0.08540827533293076 0 0 0 0
436800000 0.006346444338640646 -0.005526073372228129 0.3106493657345946 -0.08609244951111224 0 0 0 0
440700000 0.006651119963631162 -0.005562602357026063 0.3106096248369966 -0.08667185929749277 0 0 0 0
444600000 0.007198357842548495 -0.005309151431828625 0.31069384291666297 -0.08706107070675656 0 0 0 0
448500000 0.007055623511070568 -0.004658543866632798 0.3103914341523735 -0.0876773208908987 0 0 0 0
452400000 0.007606938932341867 -0.004447038405483515 0.3097034061262441 -0.08912072600663445 0 0 0 0
456300000 0.007868111873654195 -0.004492983142482587 0.3101900427614591 -0.08900205874734161 0 0 0 0
460200000 0.007979700975829805 -0.0044554670581711375 0.30997859242373843 -0.0893978080392016 0 0 0 0
464100000 0.008255683859748902 -0.0037971111262488024 0.3093408052413767 -0.0913251935039864 0 0 0 0
468000000 0.008957417504843905 -0.0032829531606419146 0.30918768384530804 -0.09215246198478388 0 0 0 0
471900000 0.009545282235916589 -0.0032604514728756502 0.3087075457828728 -0.0924617372449987 0 0 0 0
475800000 0.00960708055536327 -0.0030283635784231957 0.30843910649436457 -0.09312656452491222 0 0 0 0
479700000 0.009927574784273543 -0.0034152429113810164 0.30777682830132563 -0.09427338116651421 0 0 0 0
483600000 0.010238179753190477 -0.002421072419394198 0.30794556346730884 -0.09506617521040187 0 0 0 0
487500000 0.010862873516593135 -0.0022528384539094843 0.3077941845531826 -0.09543370951331874 0 0 0 0
491400000 0.011456986867142636 -0.002166137029576099 0.3074261012131734 -0.09662517522032209 0 0 0 0
495300000 0.011861761395347632 -0.0021774697322939694 0.30660609017454865 -0.09740580691568755 0 0 0 0
499200000 0.01254051625448955 -0.001663920333533624 0.3066732367741016 -0.0976692789545909 0 0 0 0
503100000 0.013072937084929338 -0.0017848785094259738 0.30661051228425024 -0.09825224582701342 0 0 0 0
507000000 0.013554396950056601 -0.001317163651970061 0.30644130785827856 -0.09914018298219093 0 0 0 0
510900000 0.014144890388976481 -0.0013848253883471072 0.3055454677144179 -0.10041135282225659 0 0 0 0
514800000 0.014640273104814538 -0.001027277347746866 0.3055525026192709 -0.10051035106669148 0 0 0 0
518700000 0.015502772461289878 -0.0011306530100784404 0.30533069944620417 -0.10123319755867108 0 0 0 0
522600000 0.01571904441659103 -0.0005710009303374414 0.30516530746298426 -0.10215094492528266 0 0 0 0
526500000 0.01649190702416424 -0.00030379298305894213 0.3049229575804365 -0.10238799066797065 0 0 0 0
530400000 0.01737192016654978 -0.00037177075329967936 0.30451849415446897 -0.10313415139492695 0 0 0 0
534300000 0.01789792403176198 -0.00040082350247593745 0.30421799084694917 -0.10379542289106185 0 0 0 0
538200000 0.018423048264223543 -0.00015429186114246246 0.30362236934671166 -0.10417399761309239 0 0 0 0
542100000 0.019751801283994255 -0.00026392514721097033 0.30337278117450484 -0.105725746988527 0 0 0 0
546000000 0.020037931123976248 0.0003167701114708393 0.30355125616577083 -0.105742016651372 0 0 0 0
549900000 0.021018807710347115 0.0002688616353095161 0.3033405246799149 -0.10771204546033858 0 0 0 0
553800000 0.021235176183254188 -6.435174004873759e-05 0.3037650621849705 -0.10716638958641692 0 0 0 0
557700000 0.022480417814883403 0.00046889145975202137 0.30275222756880726 -0.10846614206809302 0 0 0 0
561600000 0.022989996916361433 5.093632085051092e-05 0.3024107732850551 -0.10840429424318608 0 0 0 0
565500000 0.023908352012591113 0.0007010664410708579 0.30158530428624614 -0.10989717173516277 0 0 0 0
569400000 0.024287757491006614 0.00018440886234299302 0.30319930076261165 -0.109441201771327 0 0 0 0
573300000 0.025114408091466024 0.00037446366430278163 0.3012302459593871 -0.11027491915821207 0 0 0 0
577200000 0.026505751916998062 0.0003746279263866633 0.300975607774265 -0.11111382316715439 0 0 0 0
581100000 0.027000760694645833 0.0007150014336398752 0.301391804537572 -0.11221124505559199 0 0 0 0
585000000 0.028148928008362724 0.00049232548985296 0.30130060497744543 -0.11226688112995553 0 0 0 0
588900000 0.028848368758115323 0.00014374037121004182 0.30144143574725313 -0.11283954333816723 0 0 0 0
592800000 0.02945215366438984 -6.544426419138625e-06 0.30083051290001395 -0.11339564327865556 0 0 0 0
596700000 0.03011332895795018 -8.014419872929787e-05 0.2998522812422946 -0.11465028431409166 0 0 0 0
600600000 0.031675581348371964 8.075068527527894e-05 0.3002768861715254 -0.11502463201125722 0 0 0 0
604500000 0.03231559350067695 0.00015072638333556217 0.30013773837765223 -0.11575536571879742 0 0 0 0
608400000 0.03318042468276016 9.149267749722242e-06 0.29966968477810185 -0.1167602775550247 0 0 0 0
612300000 0.03389106044789134 -0.00015207510752815985 0.2998646100487199 -0.11711863025727974 0 0 0 0
616200000 0.034489273375802154 -0.00011880803925598632 0.29982670287424945 -0.11720836375744757 0 0 0 0
620100000 0.035188391727792555 -0.0005761987005164912 0.29951906614911095 -0.11881584843009489 0 0 0 0
624000000 0.03627171448005478 -0.0004577086567616199 0.2991897586450684 -0.11911364317681229 0 0 0 0
627900000 0.037134158443937915 -0.00012350522914976903 0.29885563186041175 -0.12025774487417243 0 0 0 0
631800000 0.03766168968074058 -0.0011958640132753082 0.2984633269992647 -0.12048946891666865 0 0 0 0
635700000 0.03873313163389847 -0.0003925399374723152 0.29780494642480293 -0.12236913472492374 0 0 0 0
639600000 0.03924212621854146 -0.0004094706840296488 0.2989035625386711 -0.12273466564109065 0 0 0 0
643500000 0.040009529410518774 -0.0009913103653769809 0.29820985595312555 -0.1228130473853973 0 0 0 0
647400000 0.04061583391824671 -0.0008414348049446061 0.2979588407272221 -0.12369048852007701 0 0 0 0
651300000 0.041938505801473666 -0.0010894286647147317 0.2978166154765921 -0.12466623304555806 0 0 0 0
655200000 0.042340801094520236 -0.0013944045126043016 0.2971691385844993 -0.1254964069669776 0 0 0 0
659100000 0.0430029053568224 -0.0014999764892490676 0.29750603214820603 -0.1260911945443123 0 0 0 0
663000000 0.04371362027440324 -0.0017183556960918302 0.2974130376674103 -0.12732090070224772 0 0 0 0
666900000 0.04461217674735389 -0.0011679368200736926 0.2965739617792947 -0.12804069885520594 0 0 0 0
670800000 0.044706625496357184 -0.002118828387430901 0.2959544624066245 -0.12896499010750495 0 0 0 0
674700000 0.04559460109551927 -0.002185474097069977 0.2953923991608388 -0.1300600162834916 0 0 0 0
678600000 0.04649752554032741 -0.0023790556148303044 0.29564637225328055 -0.13072029870559118 0 0 0 0
682500000 0.0471158042568975 -0.0021753160969115743 0.29487485384794465 -0.1311635655327902 0 0 0 0
686400000 0.04788928112343574 -0.002119282640834949 0.294281566428998 -0.1328510460412688 0 0 0 0
690300000 0.047955869644471745 -0.0024935880838657287 0.2933269361162441 -0.13312373386137097 0 0 0 0
694200000 0.0483485255587243 -0.002822458875858978 0.2934608045746494 -0.1332398374499031 0 0 0 0
698100000 0.04912741048703637 -0.002351729944055633 0.2934069867019492 -0.1346494577169771 0 0 0 0
702000000 0.04920240827644564 -0.003261844549801084 0.2936912080508175 -0.13567065047201365 0 0 0 0
705900000 0.04968244944160063 -0.0028732671070510335 0.29344403147756076 -0.1361367133368526 0 0 0 0
709800000 0.05069250115808694 -0.0031691088587415327 0.29232830331994886 -0.13738056432461423 0 0 0 0
713700000 0.05083948491787867 -0.003311478999393624 0.2913098726246026 -0.137241226463328 0 0 0 0
717600000 0.051402189726323384 -0.0029136376225977066 0.29103423661834266 -0.13859543019372145 0 0 0 0
721500000 0.05193971433956903 -0.0034592273794689485 0.29063840584341477 -0.13939594991320584 0 0 0 0
725400000 0.05242347171277494 -0.002922977140931331 0.2911074505566201 -0.14034877089343428 0 0 0 0
729300000 0.05254184523849597 -0.0034439787093282197 0.29001442463417826 -0.13988746222592682 0 0 0 0
733200000 0.05294501460181646 -0.0031624019375044187 0.28989883866096244 -0.1404626560351681 0 0 0 0
737100000 0.052931615749717276 -0.0028900872261191975 0.2890524684923413 -0.14144597742933163 0 0 0 0
741000000 0.05305220619384673 -0.0034795324564590086 0.2889326237756789 -0.1425555293132177 0 0 0 0
744900000 0.05335459383510024 -0.003436519561810801 0.28838386607952576 -0.1429945013787743 0 0 0 0
748800000 0.05390089774354575 -0.0031740597035619608 0.28771281622994244 -0.1437750220197046 0 0 0 0
752700000 0.05412644088486283 -0.0036006725502579482 0.28752135582076604 -0.14386933253990145 0 0 0 0
756600000 0.05411598264906428 -0.0037263379549767432 0.2871662971052664 -0.14450452673012576 0 0 0 0
