# HZ S RI R 50
3900000 -0.0024285328995342238 3.6311427346031404e-05 0.03460666371048826 0.002440143738735044 0 0 0 0
7800000 -0.002970238861297972 -0.00019717646942699662 0.03462667331771697 0.0022645650993926235 0 0 0 0
11700000 -0.002500198208198475 0.00020241098628589002 0.03470941900551145 0.001997996290486138 0 0 0 0
15600000 -0.002448275911498033 -6.114851285400046e-05 0.03473461225805291 0.002045882814294647 0 0 0 0
19500000 -0.002372757336412744 9.746925590078013e-06 0.034683513414395045 0.001795794485314611 0 0 0 0
23400000 -0.0015528216766748934 0.00024060326081853345 0.0347516214012085 0.001652131664470438 0 0 0 0
27300000 -0.002332120923424251 -0.00018238859459569903 0.0347274580502895 0.0015488785148974455 0 0 0 0
31200000 -0.003600560713898871 -0.00013595796227195846 0.03483365822034031 0.001351908794646232 0 0 0 0
35100000 -0.00250874867962314 0.0001948793068977862 0.03472588656638941 0.0012120166345828895 0 0 0 0
39000000 -0.002029402286387036 0.0005271102560762784 0.03481062097272046 0.0010180506760572954 0 0 0 0
42900000 -0.0019191801240577232 0.00044728970536947433 0.03476435241486808 0.0008941187909420227 0 0 0 0
46800000 -0.0027036677686198395 0.00016057499339882958 0.03486026287794309 0.0007351093137079477 0 0 0 0
50700000 -0.002650515573394589 0.0003026985403434755 0.03481852502948391 0.0006133920054316775 0 0 0 0
54600000 -0.0022642236115937363 0.0002966307950664269 0.03501479864081626 0.0004291073922338139 0 0 0 0
58500000 -0.0018492225435371577 0.0016969470272614883 0.03487580948884211 0.00028302399367700497 0 0 0 0
62400000 -0.0014543222230084466 0.0016481785509042603 0.034892333161945364 7.998062718809495e-05 0 0 0 0
66300000 -0.0020159963348811497 0.0014188091463029 0.03487450158216946 -7.87647085519226e-05 0 0 0 0
70200000 -0.0019661921987161545 0.0008759627897724682 0.03477103561656128 -0.00015122153213541586 0 0 0 0
74100000 -0.0020469682349300395 0.00010238577323326826 0.03473407556000466 -0.00047443445966092464 0 0 0 0
78000000 -0.002738295915322569 1.3093423508644701e-05 0.03483689291968539 -0.0005663935309629494 0 0 0 0
81900000 -0.0026290925813782177 -0.0001815085868124053 0.03482184645205746 -0.000767146219918675 0 0 0 0
85800000 -0.0023777662803523467 0.000556750814838134 0.03491774323494764 -0.0010105430331462893 0 0 0 0
89700000 -0.002028528948620918 0.0011608105683956064 0.03495137569226806 -0.0010715393209997784 0 0 0 0
93600000 -0.0019634905238476827 0.0011220887104972594 0.03487961489117716 -0.0013533808412192548 0 0 0 0
97500000 -0.0018181290563314624 0.0015852320086309388 0.034952264696836016 -0.0013705833412257257 0 0 0 0
101400000 -0.0018073078393758425 0.0014233697289322534 0.034851912209080536 -0.0017035918815315272 0 0 0 0
105300000 -0.0019057454362179707 0.0014576476509333737 0.03475349059139728 -0.001883140427787512 0 0 0 0
109200000 -0.002077818439843947 0.0012389696874803185 0.03478669697682977 -0.0020103240891090057 0 0 0 0
113100000 -0.001864821731226229 0.0011105437134086343 0.0347974634547535 -0.0022589717324052573 0 0 0 0
117000000 -0.001589253149434399 0.0014174560738671972 0.03480796727979761 -0.002410620547383358 0 0 0 0
120900000 -0.0018706672905347771 0.0016167129762267732 0.03466954435657051 -0.002606748769884178 0 0 0 0
124800000 -0.0014828327386220014 0.0014789614760033702 0.03463141664083629 -0.0028185800224738134 0 0 0 0
128700000 -0.0014583610016616452 0.0013234033203746675 0.03460896535076257 -0.0029055544192780505 0 0 0 0
132600000 -0.0012776124479656232 0.001615569493074024 0.03463379079193432 -0.003029306842006626 0 0 0 0
136500000 -0.0015859830785119107 0.0013916926343032876 0.03465320772230844 -0.003131793255616375 0 0 0 0
140400000 -0.0014334941943135975 0.0021019892402338583 0.03471784166575092 -0.0033408389895598595 0 0 0 0
144300000 -0.0013305687430342462 0.002172375389004607 0.03465474920047677 -0.0035475268469800903 0 0 0 0
148200000 -0.0013215827083061752 0.0021582930695195628 0.034629797626252574 -0.003721915698836857 0 0 0 0
152100000 -0.0011079700829970949 0.002475408398424938 0.034589729162713016 -0.0038611623394248333 0 0 0 0
156000000 -0.0012347726310307928 0.002604730928119453 0.034518630859798075 -0.004026206690228116 0 0 0 0
159900000 -0.001002807093952181 0.0023626973214874165 0.034513711970463164 -0.0042342385061256505 0 0 0 0
163800000 -0.0008141509470812033 0.002451783568600111 0.034546331778352736 -0.004367082267789368 0 0 0 0
167700000 -0.000833998707830523 0.0025075964378275532 0.03461816415097164 -0.0043755576338547954 0 0 0 0
171600000 -0.0005635592408682401 0.002634150682690077 0.03443041201787552 -0.00467595957237245 0 0 0 0
175500000 -0.0006794675976104675 0.002951228991928248 0.03440447420450671 -0.004717764604492164 0 0 0 0
179400000 -0.0005201664472465655 0.002891088741260355 0.034348689158713114 -0.004833671507937404 0 0 0 0
183300000 -0.0003423422990360812 0.002822227856923986 0.03425918836401122 -0.005083495267222176 0 0 0 0
187200000 -0.000378972509079601 0.003110543582188022 0.03418305591847992 -0.0051713108828429855 0 0 0 0
191100000 -0.0001750227415733314 0.0030670492307283788 0.03425904607934821 -0.005342826735474065 0 0 0 0
195000000 -0.0002972069107964936 0.0033009900294068547 0.03415314038676763 -0.005474050958549217 0 0 0 0
198900000 3.2567689846683294e-06 0.003283110827185486 0.03421778136277117 -0.005581620647422988 0 0 0 0
202800000 -4.854174991890778e-05 0.0035766155763587836 0.034127826074087424 -0.005795657868353235 0 0 0 0
206700000 0.00021499891862254697 0.0035539525233113855 0.03403198315217112 -0.0059623494523516445 0 0 0 0
210600000 -0.00013096496021403688 0.0035847171255071215 0.034108140937294015 -0.006046948669423719 0 0 0 0
214500000 0.0001337399592464126 0.003931203981313651 0.03410208087771612 -0.006229863343691115 0 0 0 0
218400000 0.00018075349281535831 0.004145849918088265 0.033898170824801815 -0.0063086780218423386 0 0 0 0
222300000 0.0004248036451078942 0.003983000415897097 0.03388265113004369 -0.006521622972491854 0 0 0 0
226200000 0.0005213435808703477 0.004178923224540693 0.03401764689180469 -0.006694462491884805 0 0 0 0
230100000 0.00045116916697842085 0.004508702068836063 0.03389214468243443 -0.006806402673087552 0 0 0 0
234000000 0.0007531895901139945 0.004426148266698884 0.03395720102481118 -0.0069043728890779985 0 0 0 0
237900000 0.0008961844763995974 0.00454996347607144 0.033910392307805154 -0.007048923884296533 0 0 0 0
241800000 0.0004830136725706488 0.004344360831768195 0.033791493188900436 -0.007241210894711485 0 0 0 0
245700000 0.0008221153441314852 0.0052223458920381575 0.033898347724304695 -0.007340348425796856 0 0 0 0
249600000 0.0009312439912445275 0.004783964029711546 0.03384857209738813 -0.007454901802220972 0 0 0 0
253500000 0.0009791015823585735 0.005048890610670509 0.03373347186958403 -0.007591367431914476 0 0 0 0
257400000 0.0012216802994177423 0.005059658512448495 0.03371799823796473 -0.007823184841212718 0 0 0 0
261300000 0.0013083125297449223 0.005106792728903694 0.033712723175570176 -0.007950564446828587 0 0 0 0
265200000 0.0012716387036041945 0.005191242137348209 0.03365814059931768 -0.008099016472953111 0 0 0 0
269100000 0.001222055908259613 0.0057176061909086934 0.03364598925583789 -0.008208733682154688 0 0 0 0
273000000 0.0013300594959919654 0.0054507241436482735 0.0335413450181434 -0.008469358056806969 0 0 0 0
276900000 0.0016031855873941026 0.0057639563792228595 0.03348813621828005 -0.008573798387218206 0 0 0 0
280800000 0.001504454691851756 0.005874990108764615 0.03349933285387337 -0.008791183269448218 0 0 0 0
284700000 0.0016714933883807625 0.00635698453816634 0.03338243984796247 -0.00894219414465958 0 0 0 0
288600000 0.001996501861670833 0.006420143436144135 0.033369438588375086 -0.009095292114313477 0 0 0 0
292500000 0.0018442063954067437 0.006228914602228099 0.033345734027026605 -0.009311956629471563 0 0 0 0
296400000 0.0019787922570409463 0.006488537025801717 0.03327628505745779 -0.009334361361525146 0 0 0 0
300300000 0.0022678883523154364 0.00667519726445035 0.03325934493181038 -0.009568152071905443 0 0 0 0
304200000 0.0019705329663912466 0.006627894044935843 0.03313952133630528 -0.009686938282027205 0 0 0 0
308100000 0.0024049634403148015 0.006499267142173247 0.03319822374604046 -0.009854066388444993 0 0 0 0
312000000 0.0022321583825970527 0.0068853335123271135 0.033061798195729825 -0.010037617953286579 0 0 0 0
315900000 0.0025035488200186185 0.00696810850367434 0.03305382336233024 -0.010144711084452624 0 0 0 0
319800000 0.002307773138455197 0.007174044729661587 0.0330450010902746 -0.010341028990525608 0 0 0 0
323700000 0.0027719193140902073 0.007520036010313662 0.03288866494447123 -0.010485705089062288 0 0 0 0
327600000 0.0025874312087931896 0.007447428001051956 0.03284083832047454 -0.010576761845962006 0 0 0 0
331500000 0.003006131103365218 0.0075187631403766195 0.032767875407678226 -0.010777265491729072 0 0 0 0
335400000 0.0027964742674632384 0.007979738690318016 0.03267625845436592 -0.010987672141555471 0 0 0 0
339300000 0.003127937035275802 0.007955005251059992 0.03261971958670788 -0.01109403259282968 0 0 0 0
343200000 0.002950709600210029 0.008290997571996611 0.032548503511706094 -0.011239658031558618 0 0 0 0
347100000 0.003378647315825307 0.00803609718006686 0.03249351795049507 -0.011407831997336793 0 0 0 0
351000000 0.003269548994215791 0.008392156963064203 0.0324595966734611 -0.011532406858557744 0 0 0 0
354900000 0.00339369073429232 0.008140038210674681 0.032445593647322975 -0.011713819169780941 0 0 0 0
358800000 0.0036230140483573792 0.008738191000183339 0.03239175729154217 -0.011745590061361548 0 0 0 0
362700000 0.003879267814853276 0.008377951661029665 0.03237211292934984 -0.011905437922309107 0 0 0 0
366600000 0.003968362340507506 0.00875083960592454 0.03225205112891399 -0.012114992602394951 0 0 0 0
370500000 0.003927621237021081 0.008866223341365494 0.032112852714849614 -0.012217754776432782 0 0 0 0
374400000 0.004053185339291624 0.009048458708605473 0.03203450191169708 -0.012341624411100774 0 0 0 0
378300000 0.004105226212773778 0.00901444986575506 0.03201241690546545 -0.012498620774790727 0 0 0 0
382200000 0.0042270967568072615 0.009408466696691547 0.03193184694202547 -0.012701857285527788 0 0 0 0
386100000 0.004541474469931564 0.009566989658224829 0.031959791816841956 -0.01280840775151309 0 0 0 0
390000000 0.004778264319242291 0.00936008607191294 0.03175798274579571 -0.012946458997445542 0 0 0 0
393900000 0.004744306885934425 0.009609191133610537 0.03177861219429729 -0.01296207067336195 0 0 0 0
397800000 0.004818321758680582 0.009873504742770814 0.03169687258696409 -0.013203201243292877 0 0 0 0
401700000 0.005221175511042958 0.009867788567810261 0.031576167154178686 -0.013248936232565827 0 0 0 0
405600000 0.005035256687747557 0.009826043913232272 0.03159876110240869 -0.013453473907213806 0 0 0 0
409500000 0.005531898824081999 0.00995305871257783 0.03149692334140018 -0.01367912259237022 0 0 0 0
413400000 0.005365504819521167 0.01020240665806003 0.03137788992338189 -0.01377744420170742 0 0 0 0
417300000 0.005693978189564733 0.010365204359916209 0.03134475196718452 -0.013863782230759436 0 0 0 0
421200000 0.005820038761153934 0.010759327279450165 0.031354403430647465 -0.013986066442231332 0 0 0 0
425100000 0.005978878018579766 0.010295842393768904 0.031177176258721663 -0.014083767473647426 0 0 0 0
429000000 0.005957595009126439 0.01063169325923955 0.031103338803814915 -0.014153730386813525 0 0 0 0
432900000 0.005922520850023056 0.010853568747081944 0.031005166664375614 -0.014394509367314798 0 0 0 0
436800000 0.006292535951364014 0.011090231346087638 0.03101401175125407 -0.014530671528148222 0 0 0 0
440700000 0.006291309171732623 0.010812773469519586 0.030918068218793806 -0.014650217804213266 0 0 0 0
444600000 0.006873827956055621 0.011015767678568142 0.030838297644726214 -0.014784842184875628 0 0 0 0
448500000 0.006505430256509784 0.011460344547151492 0.030772887381745766 -0.014937692300602465 0 0 0 0
452400000 0.006989136458403622 0.011284536825888397 0.03068041378106593 -0.015039434177600466 0 0 0 0
456300000 0.00712783466176606 0.011828720906900635 0.03056585659027821 -0.01525617530224015 0 0 0 0
460200000 0.00736843533653178 0.011327706974686139 0.030552760337600047 -0.015288250124152818 0 0 0 0
464100000 0.007698924540193028 0.011880652849070856 0.03042579456821367 -0.015510754477128751 0 0 0 0
468000000 0.0075427422526618305 0.011864775020208286 0.030239090764312047 -0.015634308377140374 0 0 0 0
471900000 0.008231099603660492 0.012348403832234338 0.030233257593731026 -0.015667685222001092 0 0 0 0
475800000 0.008251928664094273 0.01240318033086404 0.030039220072108862 -0.015835132111915392 0 0 0 0
479700000 0.007998475548365459 0.011652694538387784 0.03009629192316897 -0.015863464984623887 0 0 0 0
483600000 0.008581123613764634 0.012756295094323621 0.029945384849649613 -0.016154903567032478 0 0 0 0
487500000 0.00887835975134835 0.012644730385597831 0.029883908055755852 -0.01621526418759329 0 0 0 0
491400000 0.009066749597182466 0.012996072724649156 0.029734975680313965 -0.016357524290662326 0 0 0 0
495300000 0.008969236371885549 0.0129246315413739 0.029653682758662907 -0.016516834133011814 0 0 0 0
499200000 0.009341197723305971 0.01323483236619817 0.02964081490822475 -0.016631113022042184 0 0 0 0
503100000 0.009625970694615838 0.01324488665357279 0.029636876891518 -0.016612091479479438 0 0 0 0
507000000 0.009733677394714119 0.013467728869168222 0.02941297268215431 -0.016891531458460153 0 0 0 0
510900000 0.01032529926640036 0.013347434254470674 0.029309283178096623 -0.016996370668690815 0 0 0 0
514800000 0.01031569351991335 0.013957035384181759 0.029256385327229628 -0.01706477337456213 0 0 0 0
518700000 0.010276209726664588 0.01356375544781657 0.029160397566171673 -0.017250975737201506 0 0 0 0
522600000 0.010602250139354449 0.014405103295582646 0.029120041503741586 -0.017320192308985693 0 0 0 0
526500000 0.01055082756703401 0.014702461506966536 0.029023223246580552 -0.017393265745640554 0 0 0 0
530400000 0.011359407797341448 0.014384584252892279 0.028902788400800204 -0.017557511290986226 0 0 0 0
534300000 0.011301322094492059 0.014647075805896657 0.02883197432392182 -0.017678417898073628 0 0 0 0
538200000 0.01189724327306357 0.014775161171629393 0.028657770494746344 -0.01778044181946476 0 0 0 0
542100000 0.012178161265431805 0.014984920942335066 0.02863966317447341 -0.017890084335353516 0 0 0 0
546000000 0.011991437788943928 0.015577005736194634 0.02849189184026164 -0.018025426554260482 0 0 0 0
549900000 0.012395347496256039 0.01580043431492101 0.02841460214331743 -0.018080848501490974 0 0 0 0
553800000 0.012689469130235746 0.015405552687716454 0.028390383616724423 -0.018184152048431462 0 0 0 0
557700000 0.013330832646128396 0.01601306749726482 0.02822081580185286 -0.01832677796398523 0 0 0 0
561600000 0.013342544009426732 0.01613964828522075 0.028158248375403535 -0.018394307679102342 0 0 0 0
565500000 0.014142392895115747 0.01637516592228693 0.027981907542253968 -0.018604381677486542 0 0 0 0
569400000 0.013711918435815134 0.016484133398822858 0.028121300813881752 -0.01864369377488894 0 0 0 0
573300000 0.013759741263130006 0.016795651451250823 0.027882372804311353 -0.018763557238242638 0 0 0 0
577200000 0.01439428939118762 0.01714902343522867 0.02777006416371502 -0.018925241620741485 0 0 0 0
581100000 0.014877805395157798 0.01730782909303713 0.027735435551444206 -0.01896935181812674 0 0 0 0
585000000 0.015559186205088405 0.017745013528343772 0.027626310744861753 -0.01902943084634771 0 0 0 0
588900000 0.01584422460746521 0.017760135615732198 0.027613911651567895 -0.019111644554000006 0 0 0 0
592800000 0.0156047738269283 0.018029088432294862 0.027500983118039255 -0.019232657956751015 0 0 0 0
596700000 0.015613335056384398 0.017872737241354998 0.027371519258340398 -0.019359780931677742 0 0 0 0
600600000 0.01650858262891932 0.01855128945846474 0.02732897625428637 -0.01940261261718087 0 0 0 0
604500000 0.01692072718531394 0.01872048605221689 0.02727874897019142 -0.019584838244631194 0 0 0 0
608400000 0.01686191141285463 0.018876237961236147 0.02712041571269956 -0.019651633719467782 0 0 0 0
612300000 0.017222660147910636 0.019405461195230272 0.02704656679801392 -0.019754218072739135 0 0 0 0
616200000 0.016652721115761836 0.019682783510489733 0.027043533162114407 -0.019858467609502505 0 0 0 0
620100000 0.017850893575592736 0.019835499112333996 0.02692175778854124 -0.020037305775526926 0 0 0 0
624000000 0.01802299153764492 0.019973641828559003 0.026858535506252123 -0.02019613673829111 0 0 0 0
627900000 0.018349786058919428 0.02034562882778465 0.02664778996197879 -0.02023906833103597 0 0 0 0
631800000 0.018491178664144226 0.02043398295372639 0.026782544169147954 -0.0203688109065804 0 0 0 0
635700000 0.019427653146717544 0.02144393730670737 0.026572727416021506 -0.020659284839501395 0 0 0 0
639600000 0.018835609877242095 0.021310830035293087 0.026501584716846282 -0.020635875312663653 0 0 0 0
643500000 0.019390808055242997 0.02188870434071626 0.02638552729713006 -0.020801357705088435 0 0 0 0
647400000 0.0198946031232064 0.02240789121419171 0.026177694990529493 -0.020874460744109112 0 0 0 0
651300000 0.02015114812381858 0.022572910370057347 0.02619741176362237 -0.021050851811916915 0 0 0 0
655200000 0.020192986962619806 0.02255667007607748 0.026069158327969532 -0.02116805848773446 0 0 0 0
659100000 0.020559084637557234 0.022793517219361504 0.025997364606919704 -0.02116471858053562 0 0 0 0
663000000 0.020739419025621045 0.02361230127690949 0.025898150169554716 -0.021294433973567905 0 0 0 0
666900000 0.02174858981509924 0.024447767542661737 0.025751665393774926 -0.021512183621135664 0 0 0 0
670800000 0.021245111668160812 0.024279091529505775 0.025554242381846677 -0.021521090954045197 0 0 0 0
674700000 0.021674791841437776 0.024741165002872958 0.025515099204301478 -0.021739196096872634 0 0 0 0
678600000 0.022423550895956976 0.024775320854467583 0.025464078842514115 -0.021786168816221214 0 0 0 0
682500000 0.02272553992184077 0.02514567758100007 0.0253314253906164 -0.021907306388532638 0 0 0 0
686400000 0.023173780807914008 0.025810742786011188 0.025127312775838146 -0.022040556202380768 0 0 0 0
690300000 0.023105630579687172 0.02644606999296822 0.02495271432684237 -0.022069229732695605 0 0 0 0
694200000 0.023318636155470848 0.027034296163627295 0.02491438007268073 -0.02210343356645417 0 0 0 0
698100000 0.023514006478060775 0.027545841971144017 0.0248365809466888 -0.022294455716039017 0 0 0 0
702000000 0.023766019379846588 0.027278321865437764 0.024856179905297943 -0.022467788026931657 0 0 0 0
705900000 0.024398695772021643 0.027828508818899513 0.02465947044796167 -0.022553765410575632 0 0 0 0
709800000 0.024825717651184017 0.028307871161250484 0.02450223007246652 -0.02267328019860651 0 0 0 0
713700000 0.024744658116279874 0.02828609764881381 0.024353916793194652 -0.022611492643348934 0 0 0 0
717600000 0.024739548803586107 0.029089571406758184 0.02422404095503976 -0.022692008137762516 0 0 0 0
721500000 0.025577206658512354 0.029439893240405492 0.02417988798617206 -0.022869132310667114 0 0 0 0
725400000 0.025985807720905068 0.03024095842995165 0.02399446121068243 -0.022993074543694373 0 0 0 0
729300000 0.025779577828468736 0.030575866442048887 0.023941739838223248 -0.022910620769539262 0 0 0 0
733200000 0.026169939518266024 0.03125613899903966 0.02389483462632207 -0.023155034509999384 0 0 0 0
737100000 0.026408015025887223 0.03225378898678155 0.02362140228027908 -0.023042380831451176 0 0 0 0
741000000 0.026556575135357013 0.03192198110890553 0.02356883276578479 -0.02325773520359075 0 0 0 0
744900000 0.026882958235465437 0.03264249765648813 0.023467639924590753 -0.023375380919558857 0 0 0 0
748800000 0.027282515840801814 0.03316513375132625 0.02342534852436249 -0.023418884486781883 0 0 0 0
