# HZ S RI R 50
3900000 0.47699208797101783 -0.36443959656548525 0.011120364405086899 -0.07067410709378125 0 0 0 0
7800000 0.24626282131705002 -0.3062584903362874 -0.06517121121289433 -0.0960976009695493 0 0 0 0
11700000 0.1705142068210657 -0.23076989295027758 -0.10256166065809212 -0.07853286292778335 0 0 0 0
15600000 0.13963661471468924 -0.18289217654002718 -0.11910301565808143 -0.0616695190994491 0 0 0 0
19500000 0.12425608063418671 -0.15146600915354935 -0.12755269818844875 -0.048776590003751286 0 0 0 0
23400000 0.1158936086598658 -0.13018002985729252 -0.13246136073188083 -0.038682229356462754 0 0 0 0
27300000 0.11084634143051211 -0.11504689078385881 -0.13571318703525842 -0.030596521738759458 0 0 0 0
31200000 0.10653158429113095 -0.10342858130311566 -0.13755743339401655 -0.023826042376242827 0 0 0 0
35100000 0.10377231070633558 -0.09375528083404493 -0.1388315701020861 -0.018001660611692026 0 0 0 0
39000000 0.10209102076061488 -0.08693739202064588 -0.1396998462035663 -0.012911855082294511 0 0 0 0
42900000 0.10103488490521635 -0.08130846453035212 -0.14055872776532316 -0.008170514164257582 0 0 0 0
46800000 0.09939724966161555 -0.07672232161127698 -0.14072489533857896 -0.003949599459659395 0 0 0 0
50700000 0.09832640567840105 -0.07249139215281038 -0.1410251452270724 0.00010554993327215175 0 0 0 0
54600000 0.09763489543271577 -0.06934355078557801 -0.1410520156861799 0.003868459491441454 0 0 0 0
58500000 0.09666858014747583 -0.06677300205728477 -0.1410006274815011 0.007142800170991906 0 0 0 0
62400000 0.09647540579099041 -0.06415935535317173 -0.14111491014061164 0.01046998628890087 0 0 0 0
66300000 0.0954792714006348 -0.06293346960629191 -0.14088714475514108 0.013734969315053275 0 0 0 0
70200000 0.09497840962432877 -0.061728239906663346 -0.1406774903173855 0.016806394135300242 0 0 0 0
74100000 0.09449271170102974 -0.0607937388902063 -0.14013071980080988 0.019630565279753306 0 0 0 0
78000000 0.09349505225641488 -0.059618844566410444 -0.1399444155299907 0.022620196010150653 0 0 0 0
81900000 0.09367008849731512 -0.05858307232787325 -0.13928605167876165 0.02563480912604082 0 0 0 0
85800000 0.09258409906631493 -0.05688980642168015 -0.1387091280070794 0.02820689974786464 0 0 0 0
89700000 0.09255872807239038 -0.05613091370119735 -0.13800522953360958 0.031049102277137353 0 0 0 0
93600000 0.09184687560414645 -0.05577959659229172 -0.13759411242028927 0.03354702366201869 0 0 0 0
97500000 0.09193504518954175 -0.05495517348100318 -0.13695616830650992 0.03607689621865404 0 0 0 0
101400000 0.09143714867100913 -0.054781567230428395 -0.13622851785630324 0.03852321712231377 0 0 0 0
105300000 0.0913226480775903 -0.054796770809924164 -0.13544396360402744 0.040997168620705744 0 0 0 0
109200000 0.09093389291908024 -0.05490959075453901 -0.1345230057244257 0.043360065188617736 0 0 0 0
113100000 0.09080445583925649 -0.0548921191708996 -0.13355324687371814 0.04573643399469983 0 0 0 0
117000000 0.09058846905804313 -0.05502191208503065 -0.13274480056052146 0.048071841045508296 0 0 0 0
120900000 0.09027713373243282 -0.05468201030052108 -0.13176713657145467 0.050300029697008745 0 0 0 0
124800000 0.0897371725276415 -0.05483600344662271 -0.1308401575394968 0.05248227084228135 0 0 0 0
128700000 0.08977069187580768 -0.05501981391503267 -0.12973946392116456 0.054704626685773694 0 0 0 0
132600000 0.08914497395137559 -0.05490457549445427 -0.12868934392372075 0.056940671087859 0 0 0 0
136500000 0.0885771039599732 -0.05561133601643039 -0.12755793263924856 0.0588510993941734 0 0 0 0
140400000 0.0915831637402859 -0.05599124293998937 -0.12643260352019103 0.06071681352889997 0 0 0 0
144300000 0.09133109198357262 -0.05648587216174184 -0.1252913778946114 0.06249685127030872 0 0 0 0
148200000 0.09110014617639606 -0.056536748025169156 -0.1242062396017113 0.0647894801379995 0 0 0 0
152100000 0.0910022391087113 -0.0568554146618982 -0.12311204502257826 0.06665509553491124 0 0 0 0
156000000 0.09049151289770294 -0.057193883943679115 -0.12169501841183385 0.06852764101008527 0 0 0 0
159900000 0.09009628545797187 -0.0576486151693134 -0.12043846875628572 0.07040191225410368 0 0 0 0
163800000 0.09007107532954513 -0.058145168800786365 -0.11927982399665386 0.07227709572322057 0 0 0 0
167700000 0.08935306444383377 -0.05849643553010153 -0.1182833662121813 0.07397649243240555 0 0 0 0
171600000 0.0894121200290451 -0.05873866397381463 -0.11685142821028538 0.07571812947362948 0 0 0 0
175500000 0.08906090112024448 -0.05885849040421613 -0.11569212454898542 0.07749264871469504 0 0 0 0
179400000 0.0886038778451371 -0.059148810387604306 -0.11412179423845871 0.07913364727561148 0 0 0 0
183300000 0.0882370286055561 -0.059936044911817636 -0.11310647828985218 0.0808051338913653 0 0 0 0
187200000 0.08784802519575323 -0.06008328673978561 -0.11175913282585474 0.08267153179506723 0 0 0 0
191100000 0.08751500086610109 -0.06067853207094179 -0.11050069030094402 0.08424994389000276 0 0 0 0
195000000 0.08692008735614021 -0.060819425441366676 -0.10899194325188431 0.08582114924451797 0 0 0 0
198900000 0.08667969329921751 -0.061555953923885035 -0.1078109640346281 0.0873877644386056 0 0 0 0
202800000 0.08625340814906451 -0.06211153242269497 -0.10637204273962028 0.08905437821567633 0 0 0 0
206700000 0.08602699328786997 -0.062204248006863506 -0.10506464679408549 0.09041842988151505 0 0 0 0
210600000 0.08575731192543877 -0.0632065113648808 -0.10360478144536384 0.0918381599988888 0 0 0 0
214500000 0.08566510160889246 -0.06351045668547232 -0.10221436184159995 0.09358142697068657 0 0 0 0
218400000 0.08546558501135502 -0.06409018898379433 -0.10083453199656288 0.0951399219045086 0 0 0 0
222300000 0.08497145737503471 -0.06419732414576863 -0.09919212104685664 0.09638857092979627 0 0 0 0
226200000 0.08441541749018597 -0.06502559720983112 -0.09778104896892349 0.09783851277074115 0 0 0 0
230100000 0.08389699892966052 -0.0652080669720893 -0.0964325418567285 0.09921540579394075 0 0 0 0
234000000 0.08398329428553868 -0.06587350567222826 -0.09483038930158372 0.10068659080763231 0 0 0 0
237900000 0.08350545537442972 -0.06623072708405375 -0.09347773062802993 0.1021391205534684 0 0 0 0
241800000 0.0828244484468616 -0.06693444390824253 -0.09193815750339838 0.10364642298478655 0 0 0 0
245700000 0.0826143359688642 -0.06684295411892278 -0.09024073860239872 0.10482147003158272 0 0 0 0
249600000 0.08222529162104256 -0.06773559019866052 -0.08894497197457958 0.10614314501378222 0 0 0 0
253500000 0.08196489600182434 -0.06827398352846921 -0.08700017053794562 0.10761183907772072 0 0 0 0
257400000 0.08189031834307436 -0.06864913141657455 -0.08559958841978915 0.10877679355414233 0 0 0 0
261300000 0.08151441579118705 -0.06916893490498628 -0.0840192647427083 0.11014008757925954 0 0 0 0
265200000 0.08100064608001288 -0.06938357658734946 -0.0822354193031977 0.11147466820963751 0 0 0 0
269100000 0.08062752448617054 -0.06969160905752206 -0.08048913817157403 0.11261405299051579 0 0 0 0
273000000 0.08058526621155031 -0.070283806695754 -0.07890438884762478 0.11381847573250087 0 0 0 0
276900000 0.0807140683135956 -0.07034205198572287 -0.07683083629961941 0.11495640280953974 0 0 0 0
280800000 0.07986765940655374 -0.07051396268469079 -0.07540727721516743 0.11607286474170293 0 0 0 0
284700000 0.07924507123303881 -0.07121026495490708 -0.07344571387191073 0.11718974253702123 0 0 0 0
288600000 0.07925038684705535 -0.0716190797044497 -0.07163855156937901 0.11851233112095229 0 0 0 0
292500000 0.07919241757296759 -0.07253965699114134 -0.0700175021212734 0.11939411504201769 0 0 0 0
296400000 0.07852889821612462 -0.07308054501594884 -0.06801961449932807 0.1204606556285025 0 0 0 0
300300000 0.07815793320845657 -0.07327150176317015 -0.0661163845661824 0.12138686221117725 0 0 0 0
304200000 0.07759889318203468 -0.07373885027859697 -0.06419863561571623 0.12245471430380488 0 0 0 0
308100000 0.07784258620037039 -0.07386243337361045 -0.06236369584661597 0.12330354151829186 0 0 0 0
312000000 0.07756060838995148 -0.0741811328570344 -0.06026967901834693 0.12424935342852045 0 0 0 0
315900000 0.07716932073190624 -0.07462071974351563 -0.05853651004151245 0.12503796862136113 0 0 0 0
319800000 0.07686048508117987 -0.07474926699627275 -0.05660575665668567 0.1258976516572016 0 0 0 0
323700000 0.07642480974795544 -0.07515478033126181 -0.05477776849586421 0.12670043678170398 0 0 0 0
327600000 0.07581632711139476 -0.07587096354207577 -0.052688802106908676 0.12731257312784522 0 0 0 0
331500000 0.07555686023311574 -0.07628796145058679 -0.05063428928757249 0.12803837321066605 0 0 0 0
335400000 0.0755807786745324 -0.0764164933208527 -0.0489484977955198 0.1285601656415553 0 0 0 0
339300000 0.07530836861285599 -0.07666137165713288 -0.04671447737985031 0.12929538776861668 0 0 0 0
343200000 0.07482759337592218 -0.07710404517464975 -0.0449087774272532 0.13004697192654974 0 0 0 0
347100000 0.07497289446392003 -0.0780513946262205 -0.04298967076474007 0.13051456463376268 0 0 0 0
351000000 0.07438643342039689 -0.07798817921827222 -0.04095125323238125 0.13113157449948926 0 0 0 0
354900000 0.0738928797232945 -0.0786136178100174 -0.038785675242646554 0.13162995149119835 0 0 0 0
358800000 0.07385277962252645 -0.07854928525687896 -0.03678799675635016 0.1322784596042487 0 0 0 0
362700000 0.07388986188994513 -0.07885131197774155 -0.03496710246311846 0.13262045726579846 0 0 0 0
366600000 0.07330291401397555 -0.07933765557627818 -0.03294113256226174 0.1330009120987633 0 0 0 0
370500000 0.07258255374658357 -0.07952772781281098 -0.030975258056547092 0.1333491077898488 0 0 0 0
374400000 0.07280105125599008 -0.0802500834957704 -0.029020516332099507 0.13380269335111356 0 0 0 0
378300000 0.072485873592979 -0.08017463750401421 -0.027130219441575072 0.13409675314028502 0 0 0 0
382200000 0.07192972767042655 -0.08094471589439567 -0.025117957058939645 0.1342647412421995 0 0 0 0
386100000 0.07200467468730348 -0.08117219147724167 -0.022889692757280075 0.1345845034172767 0 0 0 0
390000000 0.0723999351653816 -0.08152649837916826 -0.0212135956450496 0.13486651589663343 0 0 0 0
393900000 0.07153044779750707 -0.08183260862730668 -0.019185945468013662 0.13531381268069778 0 0 0 0
397800000 0.07155115778264429 -0.08174904362276347 -0.01707635614438801 0.13532205704747688 0 0 0 0
401700000 0.07154550414014368 -0.08235954267231256 -0.014815991990361056 0.13541743294205663 0 0 0 0
405600000 0.07089872288112954 -0.08270954447769456 -0.01295436195983551 0.1356403181217975 0 0 0 0
409500000 0.07088683856565536 -0.08317762934105481 -0.011164134334921114 0.13553094895808132 0 0 0 0
413400000 0.07063722768141491 -0.08348440396824451 -0.0090481565730289 0.1356709650863591 0 0 0 0
417300000 0.07035537907050585 -0.08384981111562236 -0.007010696997105804 0.1358446036650909 0 0 0 0
421200000 0.0707209978762108 -0.08382011837536495 -0.00504877135181592 0.1358450126169892 0 0 0 0
425100000 0.07086190187670821 -0.08457477386478675 -0.0029654355579643334 0.13585939362197835 0 0 0 0
429000000 0.06989699871409862 -0.08487162597593091 -0.0010241113946942123 0.13572660980282028 0 0 0 0
432900000 0.06984687129342028 -0.08497091784442715 0.0008794037351235327 0.13576115425807872 0 0 0 0
436800000 0.06984474672699655 -0.08570274754775466 0.0030116842713681833 0.1355086294726795 0 0 0 0
440700000 0.0698678252951687 -0.08628560610820617 0.0047227389568836875 0.135677157556615 0 0 0 0
444600000 0.06984944526412143 -0.08646291241850806 0.0067622267518993254 0.13541279472944423 0 0 0 0
448500000 0.06927099924462682 -0.08657241257861588 0.008836387574360421 0.1350820597052404 0 0 0 0
452400000 0.06994403045882537 -0.08690597727841766 0.010778149215861099 0.13505686980088394 0 0 0 0
456300000 0.06965162337547194 -0.08730943400890168 0.012839738737032912 0.13429359768811872 0 0 0 0
460200000 0.06977609863454445 -0.08764732727275491 0.014282143598349268 0.13447035704692936 0 0 0 0
464100000 0.06924014293871802 -0.0874464075197824 0.01680065954258957 0.13410035860915492 0 0 0 0
468000000 0.06935093427374782 -0.08821230261194973 0.01854837794961583 0.13371591236106048 0 0 0 0
471900000 0.06955141541415122 -0.08782351232414158 0.02052306444189724 0.13339549697258568 0 0 0 0
475800000 0.06907843153953706 -0.08863756596326933 0.022764417525659122 0.13302708212752495 0 0 0 0
479700000 0.06907870467878033 -0.08922089869399814 0.024310589049234072 0.13282834514730082 0 0 0 0
483600000 0.06894527688888284 -0.08922605138304314 0.02637982647680132 0.1322650440175022 0 0 0 0
487500000 0.06895713035698947 -0.08952379306577256 0.028440166957193168 0.13152020405087628 0 0 0 0
491400000 0.06918597335833404 -0.08954691087313632 0.030270184332205487 0.13116166137259627 0 0 0 0
495300000 0.06884246558899824 -0.09001976003635005 0.03209272084450056 0.13047874830939396 0 0 0 0
499200000 0.06908411216827665 -0.09041313377056963 0.03411994635265125 0.12973791587190237 0 0 0 0
503100000 0.06896920860595293 -0.0907994971903869 0.03581922118155511 0.12930383743729268 0 0 0 0
507000000 0.06903237848286413 -0.09122730330728832 0.03794366545980051 0.12856315724407189 0 0 0 0
510900000 0.06894781702912053 -0.09143952879098102 0.03967687131667565 0.1277631070650111 0 0 0 0
514800000 0.06951447091130775 -0.09182737990510906 0.0413674053168636 0.12726949646423494 0 0 0 0
518700000 0.0689667620251103 -0.09216603407493151 0.0431835056646979 0.12643946520991367 0 0 0 0
522600000 0.06915745871413602 -0.09232976711758215 0.04511695381444911 0.12567179058451758 0 0 0 0
526500000 0.06923243294359684 -0.09236753251443094 0.04687443477646385 0.12493212089261117 0 0 0 0
530400000 0.0692133858718862 -0.09276217092873917 0.04848878846590211 0.12402565971375697 0 0 0 0
534300000 0.06968544934460204 -0.0931138162001484 0.050295628706401176 0.12319937353715515 0 0 0 0
538200000 0.06992430905412349 -0.09331715775789119 0.05181507637265174 0.12245022969926053 0 0 0 0
542100000 0.06993827707049542 -0.09355471507885778 0.05386301170879921 0.12144670052799753 0 0 0 0
546000000 0.06969739014243719 -0.09392277554758968 0.055504460547394004 0.12062788934604499 0 0 0 0
549900000 0.06967148223292882 -0.09433687983048525 0.057454806321740055 0.11976503600271768 0 0 0 0
553800000 0.06991606814020468 -0.09493084623879378 0.05865392694953809 0.11887368959334196 0 0 0 0
557700000 0.06998179870494074 -0.09434387150655096 0.06075730784767978 0.11782030771135939 0 0 0 0
561600000 0.0703567069244553 -0.09512094234056974 0.06208888521301913 0.11698547114115854 0 0 0 0
565500000 0.07090759048395646 -0.0952723059743713 0.06396186399403468 0.1154163205455713 0 0 0 0
569400000 0.07037770744945242 -0.09610220950418283 0.06512886959144995 0.11516465110034213 0 0 0 0
573300000 0.07021008398219732 -0.09612321411151845 0.0666751619232768 0.11377525605813944 0 0 0 0
577200000 0.07114731362311168 -0.09623496556966091 0.06837572931953273 0.11240942369217657 0 0 0 0
581100000 0.07125072651998977 -0.0967499184151241 0.06984469708133 0.11161422818737111 0 0 0 0
585000000 0.07137407535210821 -0.0969714555677688 0.0714074428894475 0.11054209073165537 0 0 0 0
588900000 0.07145678504647619 -0.09769503344306377 0.07281836403654596 0.1096246392519549 0 0 0 0
592800000 0.0713662524927856 -0.0981074754496304 0.07425503152932188 0.10840582606972754 0 0 0 0
596700000 0.07118778433541999 -0.09841448011227852 0.07569762199384447 0.10699822730259616 0 0 0 0
600600000 0.07179582433556618 -0.09912283937873359 0.07714537788248045 0.10606643009550651 0 0 0 0
604500000 0.07205500184817383 -0.09929023232932284 0.07866068689345986 0.10483993780630713 0 0 0 0
608400000 0.07218393358947085 -0.09912484408873398 0.08001860159665797 0.1036919024706956 0 0 0 0
612300000 0.0722210326300778 -0.09934283033385934 0.08101696128180978 0.10255310931137536 0 0 0 0
616200000 0.07225734951122299 -0.09986912067546165 0.08259995289918749 0.10130382791519578 0 0 0 0
620100000 0.07226702763387442 -0.10035691438513565 0.08439698105657234 0.10019831112008268 0 0 0 0
624000000 0.0728787727584565 -0.10091988386170818 0.08592121258343327 0.09904790242250629 0 0 0 0
627900000 0.07294962831703486 -0.10086517396719415 0.08689404716155848 0.09746908679006842 0 0 0 0
631800000 0.07332601425132917 -0.10194759060360499 0.08851302094069284 0.09601429017138963 0 0 0 0
635700000 0.07400301364425915 -0.10169114390933288 0.08983336442981875 0.09421415560825402 0 0 0 0
639600000 0.07336761046534275 -0.10219439386848068 0.09112402702855205 0.09371291340089294 0 0 0 0
643500000 0.07365538048219873 -0.10247134961576634 0.09226123784507345 0.09225033821852438 0 0 0 0
647400000 0.07418104886974504 -0.10268717297863324 0.09308270353496634 0.09062514349891014 0 0 0 0
651300000 0.07461840255131212 -0.10326266326299006 0.09479901158724828 0.0891924874419213 0 0 0 0
655200000 0.07448759642737912 -0.10373403508124346 0.09621485226483634 0.0876253026314407 0 0 0 0
659100000 0.07515574190636996 -0.10405513572404723 0.09703394720268121 0.08626004893433074 0 0 0 0
663000000 0.07506887406422853 -0.10416328600359814 0.09818774506753301 0.08536075400982736 0 0 0 0
666900000 0.07568766841406437 -0.10414479389594276 0.09921838434122454 0.08343253155142977 0 0 0 0
670800000 0.07493196377403516 -0.10537729415194172 0.10055928267556996 0.0816278514149967 0 0 0 0
674700000 0.07566096608012383 -0.10550054171284726 0.10186040756143584 0.08009193779438717 0 0 0 0
678600000 0.07586567109050452 -0.10634501250315478 0.10262319438104421 0.07888194243164576 0 0 0 0
682500000 0.07650016029281947 -0.10653621283593641 0.10338536226567788 0.07727561031074218 0 0 0 0
686400000 0.07670824598384435 -0.10672729820590066 0.10449949999604863 0.07553198448442891 0 0 0 0
690300000 0.0771049241347546 -0.10727827137999102 0.10528761372221707 0.07356004675251462 0 0 0 0
694200000 0.07746016060512206 -0.10774621303399015 0.10602022116202811 0.07230184654702373 0 0 0 0
698100000 0.07727278533010914 -0.10827640722499984 0.10726393524233013 0.0704859145367994 0 0 0 0
702000000 0.07732348558773727 -0.10880230898598454 0.10851778211446884 0.06937587045138999 0 0 0 0
705900000 0.07833128373159198 -0.1089996746883317 0.10883818904333031 0.06757513780815673 0 0 0 0
709800000 0.07837732262761997 -0.10935055568481945 0.11001591813587719 0.06547328697421585 0 0 0 0
713700000 0.07874712752525866 -0.11046758865305534 0.11053988109538788 0.06397783267456944 0 0 0 0
717600000 0.07934796880981548 -0.11056515242044171 0.11125841962574547 0.06253151600171605 0 0 0 0
721500000 0.0796197915829851 -0.11128965590068778 0.11214254830007765 0.060381910679150434 0 0 0 0
725400000 0.08070910218288041 -0.11179577034493665 0.11310078161779381 0.05942015102167246 0 0 0 0
729300000 0.08080567778398427 -0.11224730344456513 0.11334780038677505 0.05792389241109022 0 0 0 0
733200000 0.08154900638771023 -0.11250598267434453 0.11399376366119318 0.05649204635101615 0 0 0 0
737100000 0.08191280478722113 -0.11270210852860947 0.11444559097309472 0.05426930126243327 0 0 0 0
741000000 0.08145677429735497 -0.11401558647473678 0.1154130979688176 0.05299519259769235 0 0 0 0
744900000 0.08232567390328172 -0.11477467000150438 0.11576460639172048 0.051542131170603966 0 0 0 0
748800000 0.08281250306000446 -0.11519381578462047 0.11653378320212879 0.04940757229615211 0 0 0 0
752700000 0.08295516045392767 -0.1166775643139503 0.1168352535993271 0.04814619624276034 0 0 0 0
756600000 0.08317773953448908 -0.11742073514979001 0.11741235135084303 0.0467100988356438 0 0 0 0
760500000 0.08334116671525857 -0.11871124988522085 0.11816828848436686 0.04481107025907177 0 0 0 0
764400000 0.08361071567710848 -0.11938064446070354 0.11852014777928364 0.04385008783696678 0 0 0 0
768300000 0.08341443088357818 -0.12007863333202694 0.11902838845437361 0.04220932292360998 0 0 0 0
772200000 0.08434269558721379 -0.12121063351054903 0.1192289164315443 0.04044305789275675 0 0 0 0
776100000 0.08394200180932225 -0.12184100631345061 0.11982027956461563 0.038400405855667064 0 0 0 0
