# HZ S RI R 50
3900000 0.47848356333543757 -0.36432002279326103 0.07479417789230966 -0.6498491383244682 0 0 0 0
7800000 0.2477275659260327 -0.31056227552231425 -0.6217337100249707 -0.8535674770759405 0 0 0 0
11700000 0.16928951415499996 -0.23598429796191475 -0.9565658675691597 -0.6854103511594031 0 0 0 0
15600000 0.137194134820466 -0.18823044989084928 -1.1048649742165197 -0.5295419222884734 0 0 0 0
19500000 0.12060807288633198 -0.1567629294181126 -1.1809355729533924 -0.40874233209168626 0 0 0 0
23400000 0.11212893720167795 -0.1344247784772569 -1.2246899699409086 -0.31592236115509115 0 0 0 0
27300000 0.10599886429913241 -0.11867366843899013 -1.2516374640463575 -0.23877329460935662 0 0 0 0
31200000 0.10096851749330629 -0.10705163435670936 -1.2683387817297398 -0.1775083508956294 0 0 0 0
35100000 0.09849004615804145 -0.09746078685622876 -1.2780210419869769 -0.12200975452783128 0 0 0 0
39000000 0.09637101071904326 -0.09021153248397967 -1.2858352798945212 -0.07345714866663873 0 0 0 0
42900000 0.09479847925368348 -0.08426516377432282 -1.2915789155911663 -0.030361897266014126 0 0 0 0
46800000 0.09240731941323994 -0.0799374323011931 -1.2936006617549702 0.008817303021902319 0 0 0 0
50700000 0.0913189329248722 -0.07555613043868893 -1.2941436320314692 0.04722304554117802 0 0 0 0
54600000 0.09042669914360064 -0.07215899681810882 -1.2952645843207033 0.0824614241526988 0 0 0 0
58500000 0.08937654725524512 -0.06927253018627814 -1.2935327562433776 0.11362718555550769 0 0 0 0
62400000 0.08879297589699657 -0.06683871209943756 -1.2917663928970036 0.14577809340093398 0 0 0 0
66300000 0.08746359568256955 -0.06519613739623831 -1.2893243303570827 0.1758695735501866 0 0 0 0
70200000 0.087082767117615 -0.06426390392675305 -1.2850382787189263 0.20405555290772454 0 0 0 0
74100000 0.08611426545106184 -0.06307632364958175 -1.2812113929256377 0.2321846377768895 0 0 0 0
78000000 0.08562266632406679 -0.06177713199334467 -1.276260571443398 0.2601626165917619 0 0 0 0
81900000 0.08514300604158442 -0.06052934086950903 -1.272190091162211 0.28635609455640043 0 0 0 0
85800000 0.08525642364106141 -0.059119237457976884 -1.2653017216679265 0.31190467760741014 0 0 0 0
89700000 0.0849262260754891 -0.0578968109965626 -1.2576418716001434 0.3386102851123888 0 0 0 0
93600000 0.08433664239511497 -0.057571948151560866 -1.2520633749980004 0.36349280687534824 0 0 0 0
97500000 0.08418805274343277 -0.05638710948084868 -1.2450685593243735 0.3857981803706357 0 0 0 0
101400000 0.08361290395855502 -0.05648809313350285 -1.2367772342034449 0.40948332420523376 0 0 0 0
105300000 0.08313206798795221 -0.056027646532605155 -1.2294856051309866 0.43224035373126407 0 0 0 0
109200000 0.08296945272268427 -0.05604159543337715 -1.2204724161449694 0.45478601271671504 0 0 0 0
113100000 0.08271013515627786 -0.05605759389963014 -1.2103520521848192 0.47688781671552044 0 0 0 0
117000000 0.08252436776519408 -0.05582668631288015 -1.2010424158532598 0.4989297859871603 0 0 0 0
120900000 0.08185539105097046 -0.0555294820505546 -1.1911269995166969 0.518584707197815 0 0 0 0
124800000 0.08201444121433174 -0.055148501786915285 -1.1808029231125954 0.5396732003679064 0 0 0 0
128700000 0.08135571579644274 -0.05513436201722229 -1.1698854305880986 0.5590717013571864 0 0 0 0
132600000 0.08115477092803933 -0.055212348334728434 -1.1592395484272575 0.5799201043349067 0 0 0 0
136500000 0.08088914750574039 -0.05553832819511678 -1.1496651756792233 0.5976721277263802 0 0 0 0
140400000 0.08343410209686382 -0.05597901970912484 -1.1349152304431387 0.6133822243791204 0 0 0 0
144300000 0.08335667459867795 -0.05586654293498787 -1.1225068784421084 0.6316210695753365 0 0 0 0
148200000 0.08274429367610164 -0.05594803360394035 -1.1124391975766434 0.6505194420376945 0 0 0 0
152100000 0.08268225190956935 -0.055864544619504186 -1.0996481591301026 0.6684086149419436 0 0 0 0
156000000 0.08233045980067001 -0.05613565005040302 -1.0884599997794664 0.6853989233799629 0 0 0 0
159900000 0.08202785625456278 -0.05654195697696221 -1.075785409324635 0.7022073154610392 0 0 0 0
163800000 0.08205820865045424 -0.05670823731135175 -1.0637513776384089 0.719324705040297 0 0 0 0
167700000 0.08113636660031846 -0.056845842143824495 -1.0502378803381853 0.7358652936272302 0 0 0 0
171600000 0.08171939723347904 -0.05720495880351293 -1.0389187783591554 0.752211048211703 0 0 0 0
175500000 0.08108766093496014 -0.05707178209405499 -1.0258341919429257 0.7687164825153618 0 0 0 0
179400000 0.08105905827971843 -0.05750670238728312 -1.012438372329693 0.7830190515840175 0 0 0 0
183300000 0.08107882036070836 -0.05792496339033751 -0.999791040092451 0.7989829051239298 0 0 0 0
187200000 0.0807501802687422 -0.05842037172392899 -0.9860958115823123 0.8145811002682978 0 0 0 0
191100000 0.08057733852849226 -0.05866403726774408 -0.9739772748618799 0.829138981311441 0 0 0 0
195000000 0.0805860735861037 -0.05867189647631157 -0.959695243778233 0.8442801119514991 0 0 0 0
198900000 0.08049634727952373 -0.05917438498025484 -0.9475183491427553 0.8582353172627427 0 0 0 0
202800000 0.08030792119624043 -0.059716288077549966 -0.9331060410925431 0.8740209158539745 0 0 0 0
206700000 0.08032796007121364 -0.06038859528811938 -0.9195172948011962 0.8862012282172581 0 0 0 0
210600000 0.08017116228470725 -0.060705116956003884 -0.9065931725304178 0.8997364479578494 0 0 0 0
214500000 0.08019885175694302 -0.060948134701662195 -0.892580069811079 0.9160667931560587 0 0 0 0
218400000 0.07996055681329488 -0.061610097061884736 -0.8772457536354648 0.9292406586255667 0 0 0 0
222300000 0.07987638073781389 -0.06175261817833565 -0.8617068709920049 0.9416115963061001 0 0 0 0
226200000 0.07960230942455385 -0.06226819060438161 -0.8480969816024513 0.9561393233181202 0 0 0 0
230100000 0.07944024529925386 -0.0628286013351747 -0.8338273512054064 0.9667171742842791 0 0 0 0
234000000 0.07957868178554474 -0.0633514103142558 -0.8176348967718082 0.9801295881333529 0 0 0 0
237900000 0.07935039713464719 -0.06355447144406232 -0.8035167289685288 0.9931158205693076 0 0 0 0
241800000 0.07889373692333004 -0.06427371847249468 -0.7878187306034965 1.007095054257163 0 0 0 0
245700000 0.07920899636277107 -0.06405107360930155 -0.7715106972716504 1.0174432972421734 0 0 0 0
249600000 0.07903193496265211 -0.06528007851876692 -0.7581693900810479 1.0295206044781706 0 0 0 0
253500000 0.07908391320583702 -0.06559826925141009 -0.7406361922562572 1.0419739592781687 0 0 0 0
257400000 0.07909788479401637 -0.06640859818000341 -0.7255514026919074 1.053985214117334 0 0 0 0
261300000 0.07875634114962018 -0.06694627924696687 -0.7082888898750433 1.065010489085399 0 0 0 0
265200000 0.0786159857921479 -0.06750275394775558 -0.6907624218228042 1.0765172934779328 0 0 0 0
269100000 0.07891816866802889 -0.06755928271157957 -0.673538328651246 1.0866081555686957 0 0 0 0
273000000 0.07897250539440492 -0.06819283644961463 -0.656209493065042 1.0978262874104017 0 0 0 0
276900000 0.07916262723056504 -0.06799901903265688 -0.6393968272478304 1.1069539874706964 0 0 0 0
280800000 0.0787429828944366 -0.06877510733803663 -0.6234590172612431 1.1178448590804893 0 0 0 0
284700000 0.07861834648146211 -0.06965514068328414 -0.6040628536806939 1.1263166684876849 0 0 0 0
288600000 0.07875243820021594 -0.07038110269855632 -0.586739517633545 1.1370326806137652 0 0 0 0
292500000 0.07824291738378074 -0.07109034450692586 -0.5677571914329351 1.1461303808542382 0 0 0 0
296400000 0.07802542627977645 -0.07148283499932934 -0.5502394212202202 1.1528170033273588 0 0 0 0
300300000 0.07799624624860553 -0.07196063553792578 -0.5316754523760328 1.1626392803740184 0 0 0 0
304200000 0.07772596126223424 -0.07240046846567558 -0.5135222076691969 1.170282203243943 0 0 0 0
308100000 0.07779549436109788 -0.0728695176100125 -0.4944595699446916 1.179095061757903 0 0 0 0
312000000 0.07738862322568058 -0.0732142169214787 -0.4754074253142544 1.1857329158262406 0 0 0 0
315900000 0.07768558325189041 -0.07335984621993265 -0.4573912425594536 1.1922902984150647 0 0 0 0
319800000 0.07721626839001515 -0.07407677101551863 -0.4380031158488578 1.1988187650057611 0 0 0 0
323700000 0.07722677185806422 -0.07424780905957065 -0.41999324225528434 1.2047889561730498 0 0 0 0
327600000 0.07698622768868796 -0.07504163105380023 -0.40028230659692965 1.2108695146324984 0 0 0 0
331500000 0.07672518036991019 -0.07553551965140995 -0.3803545082863532 1.2163795623027303 0 0 0 0
335400000 0.07632922908919983 -0.0757808303367764 -0.363412713034447 1.2228517457942363 0 0 0 0
339300000 0.07624972599300191 -0.07619579004673463 -0.34146984048317236 1.2253167793454338 0 0 0 0
343200000 0.07606083638683413 -0.07653420369863423 -0.3235790881621101 1.231488164715337 0 0 0 0
347100000 0.07581923011536594 -0.07754748785975965 -0.3038163186157984 1.2356558948274268 0 0 0 0
351000000 0.07549502423440925 -0.07773757465954904 -0.2848112222509771 1.239995462901452 0 0 0 0
354900000 0.07580542308893382 -0.07793984761041915 -0.2651350670498773 1.2433188813377254 0 0 0 0
358800000 0.07516820474900902 -0.07815708997653699 -0.24586783626839853 1.2454664458926155 0 0 0 0
362700000 0.07525380142381817 -0.0787208078357749 -0.22524745720097172 1.2489705940233464 0 0 0 0
366600000 0.07497984893223594 -0.07870094172236354 -0.20854869584883337 1.252894110191118 0 0 0 0
370500000 0.07469485120837177 -0.07909974751778026 -0.18805052124605 1.2557168985802523 0 0 0 0
374400000 0.07477581790614538 -0.0791592833531855 -0.16847476558978075 1.2573479672958094 0 0 0 0
378300000 0.07447388066307895 -0.07982213996234015 -0.15105578923742494 1.2592992530604232 0 0 0 0
382200000 0.07427473602066705 -0.07984877862000998 -0.1306774319253328 1.2610042401586852 0 0 0 0
386100000 0.07443426875169727 -0.0801253459601779 -0.11025805977860897 1.2617633326700695 0 0 0 0
390000000 0.0742391337211913 -0.08038911185986183 -0.09129155092183264 1.2627202161973687 0 0 0 0
393900000 0.07434012395513333 -0.08013528468605897 -0.07405718730039086 1.263999335842436 0 0 0 0
397800000 0.07435198480482318 -0.08040148542361375 -0.05509432009753676 1.2633378647085298 0 0 0 0
401700000 0.07439600244513418 -0.08052785458973326 -0.03391218612605977 1.2642808740128106 0 0 0 0
405600000 0.07420378443917806 -0.08094159280142235 -0.014332744221950444 1.2640580663369962 0 0 0 0
409500000 0.07407930987325716 -0.08105038025059277 0.004454527223967891 1.265635887591359 0 0 0 0
413400000 0.07402156632474685 -0.08122251101857984 0.024137799875928644 1.2635043371256944 0 0 0 0
417300000 0.07419846605677907 -0.08128849181904164 0.046081230251635026 1.2629458757615817 0 0 0 0
421200000 0.07448663325316499 -0.08087929573787135 0.061360386426203666 1.2627787591670272 0 0 0 0
425100000 0.07464316774350083 -0.08130454234240055 0.0803412568704352 1.2594700587178345 0 0 0 0
429000000 0.0744299248603388 -0.08115643281113885 0.10000830301335377 1.2585568441344182 0 0 0 0
432900000 0.07452285990659122 -0.08125805986209929 0.12095240467974587 1.2571843873958282 0 0 0 0
436800000 0.07460667980387936 -0.08164120073998833 0.13966693064688607 1.2535358548340485 0 0 0 0
440700000 0.07486002837844673 -0.08166733278049731 0.1546565520129079 1.252791386864138 0 0 0 0
444600000 0.07516534962019682 -0.08162885908311802 0.1768864202700552 1.249045171568813 0 0 0 0
448500000 0.07545000936990147 -0.08171630802827823 0.1955406665938404 1.2450728993187314 0 0 0 0
452400000 0.07596895670681594 -0.08162454153044928 0.2153127954379871 1.2418655603094215 0 0 0 0
456300000 0.0762547514285514 -0.0816805706452688 0.23092604945429984 1.2325242059563577 0 0 0 0
460200000 0.07643485076106317 -0.08210229224593031 0.24739019614228638 1.2349508622424505 0 0 0 0
464100000 0.07643906500300451 -0.08123879269950282 0.27083421741366515 1.2290622699162164 0 0 0 0
468000000 0.0767285101194473 -0.08177423985545669 0.29064650795539243 1.223847423953418 0 0 0 0
471900000 0.07752989361681165 -0.08119229932399978 0.30872579015529783 1.2173341878147694 0 0 0 0
475800000 0.07726166219154526 -0.0816126202937039 0.32722783828121904 1.2119455191896205 0 0 0 0
479700000 0.07764569170621909 -0.08236573376099549 0.34751162182490625 1.206984374567398 0 0 0 0
483600000 0.07806323335068333 -0.08160824569535341 0.3622485236252533 1.2018788199349688 0 0 0 0
487500000 0.07870761813702701 -0.08203207466102445 0.3806681227373411 1.194506798285881 0 0 0 0
491400000 0.07961558917953504 -0.08179662973991392 0.3998085002530603 1.188044666484854 0 0 0 0
495300000 0.07957205081967873 -0.0818050976149729 0.4160654643827427 1.1795931910328292 0 0 0 0
499200000 0.08030724869204714 -0.08223436118927945 0.4342589717052966 1.173324613688727 0 0 0 0
503100000 0.08096980261271426 -0.08186240570320955 0.45086209883018796 1.1673091927475934 0 0 0 0
507000000 0.08161855194227219 -0.08239270252013618 0.46983871954791356 1.1584367733882217 0 0 0 0
510900000 0.08197227944321314 -0.08239144166121087 0.4864305154437265 1.1501459860420506 0 0 0 0
514800000 0.08309399785819217 -0.08293003375676408 0.5032297908093911 1.1414917999272145 0 0 0 0
518700000 0.08341044345602817 -0.08319033471421583 0.5200188379922606 1.1329054561313305 0 0 0 0
522600000 0.08392659391215153 -0.08335484416278878 0.5363610040721306 1.1253330225811375 0 0 0 0
526500000 0.08455312544597586 -0.08328807274201287 0.5520396507609677 1.115948894366229 0 0 0 0
530400000 0.08516840900313001 -0.0835386652501881 0.5687665213433121 1.107312424696607 0 0 0 0
534300000 0.08609265683882135 -0.08408611473366462 0.5849621146452119 1.0956169147458004 0 0 0 0
538200000 0.08664767517550521 -0.08433189058950354 0.5994215181263709 1.086138674610692 0 0 0 0
542100000 0.08738132926442839 -0.08471218893491486 0.6158588674140852 1.0760835639009447 0 0 0 0
546000000 0.08796610378299465 -0.08475407114341657 0.6316082646099243 1.0676613753500366 0 0 0 0
549900000 0.08837579167024971 -0.08504047106777704 0.6491787392578878 1.0578742885533863 0 0 0 0
553800000 0.08889085090175532 -0.08591965203707888 0.6604830572116762 1.0474292495154893 0 0 0 0
557700000 0.09017195652392056 -0.0861200521385589 0.6786074833264757 1.0356496418998231 0 0 0 0
561600000 0.09070209733683433 -0.0866858780130093 0.6915172168087145 1.025475130126915 0 0 0 0
565500000 0.09137056326765246 -0.08683015689487256 0.7056978776472593 1.0122937915952086 0 0 0 0
569400000 0.09163410025667398 -0.0882688108111812 0.7204713155433733 1.0050957629865191 0 0 0 0
573300000 0.0919330566461226 -0.0885649118067096 0.7339436354822068 0.9901116754368346 0 0 0 0
577200000 0.09312153892140221 -0.08878744739166813 0.7483694199486298 0.9797526940844268 0 0 0 0
581100000 0.09322054390011808 -0.08946175121303891 0.7615298748947942 0.9714090801121561 0 0 0 0
585000000 0.0947055058114005 -0.09024498301015367 0.7760948821961313 0.9561434573352809 0 0 0 0
588900000 0.09520919603657892 -0.0910933788902685 0.7890197316804207 0.946461912636733 0 0 0 0
592800000 0.09558233178722021 -0.09165531081797082 0.802600601282131 0.9346063712718091 0 0 0 0
596700000 0.09577195656309206 -0.09268960322479518 0.8167057769882985 0.9188150236778396 0 0 0 0
600600000 0.09625414664765182 -0.09341878683269139 0.8295914667749663 0.908393277256039 0 0 0 0
604500000 0.09703639667562235 -0.09420453059155984 0.8412015569077228 0.8960167585549736 0 0 0 0
608400000 0.09753547736544449 -0.09461300005158178 0.8549923132975005 0.8853750367481478 0 0 0 0
612300000 0.0979278571776673 -0.09550643518651362 0.8653687870796981 0.8697523285067722 0 0 0 0
616200000 0.09828068985975523 -0.09610763353847332 0.8796867739302908 0.8589995696633309 0 0 0 0
620100000 0.09847174636420249 -0.09701972599915791 0.8935130105232891 0.8464924800197031 0 0 0 0
624000000 0.09936748783074899 -0.09791600228623085 0.9059682066095622 0.8317060467635574 0 0 0 0
627900000 0.0995228603210517 -0.09851335491326962 0.9162411611263266 0.8175542602842846 0 0 0 0
631800000 0.10010407212734665 -0.09997084557131239 0.9303441273956319 0.8090052743788214 0 0 0 0
635700000 0.10068821416808116 -0.10023752870003791 0.9402264586868092 0.7871060986036377 0 0 0 0
639600000 0.10035834292897755 -0.1014616284384842 0.9505725561107773 0.7787102660100614 0 0 0 0
643500000 0.10095456171926949 -0.10204610623913371 0.9598737012744133 0.7638399223472613 0 0 0 0
647400000 0.10094874680266867 -0.10255762689089001 0.9715082657707438 0.7489519256520323 0 0 0 0
651300000 0.10164865690679095 -0.10396176790397765 0.9825304896212907 0.7317663459736213 0 0 0 0
655200000 0.10146000630131438 -0.10483519599222091 0.9956978605204281 0.7160017170687962 0 0 0 0
659100000 0.10219381381426718 -0.10578569215155051 1.0034894951773434 0.702165396976124 0 0 0 0
663000000 0.10186473794733945 -0.10642016186999935 1.014373938963128 0.6845316151897758 0 0 0 0
666900000 0.10262280616538819 -0.10712963467695151 1.0246984951870572 0.6730532028345809 0 0 0 0
670800000 0.10206593311758895 -0.10866237820287558 1.035996491899672 0.6527577556879782 0 0 0 0
674700000 0.10247040943724604 -0.10936082609529583 1.0456788026172503 0.6380657819703824 0 0 0 0
678600000 0.10299195222535121 -0.11042388703039231 1.0531547463906972 0.6241914187622346 0 0 0 0
682500000 0.10287471183008193 -0.1112870375487997 1.0591577962097907 0.6071690100688817 0 0 0 0
686400000 0.10280094156999989 -0.11195343882960944 1.0695887076757375 0.5890646816792626 0 0 0 0
690300000 0.10258701454555345 -0.11328653453074031 1.0789390057688488 0.5726206046676532 0 0 0 0
694200000 0.1032193495926237 -0.11428992071391111 1.0814998271029581 0.5558409676171951 0 0 0 0
698100000 0.10289554417647956 -0.11489462392111853 1.0909367516769362 0.5418882283140162 0 0 0 0
702000000 0.10244440966674062 -0.11618297432595996 1.1037921712486 0.5271258843460576 0 0 0 0
705900000 0.10262580816022182 -0.11680313484683448 1.1096588609124707 0.5078025979730147 0 0 0 0
709800000 0.10396209893872269 -0.11766755287039997 1.1151839853771104 0.49078860212518416 0 0 0 0
713700000 0.10373567298274931 -0.11880272965992676 1.1139604893437631 0.47040969130219545 0 0 0 0
717600000 0.10357248026780613 -0.11975767447360597 1.1251288675208644 0.4591460340349679 0 0 0 0
721500000 0.10443014118545768 -0.12106273121256679 1.128679914470732 0.4421045813336265 0 0 0 0
725400000 0.10352334277583813 -0.12095653039864988 1.1387914988563348 0.4228317191182575 0 0 0 0
729300000 0.10347137008954255 -0.121873633955354 1.1417226141104064 0.40596051812826417 0 0 0 0
733200000 0.10378598790857718 -0.12268159029518756 1.1470651398338867 0.3933445787282613 0 0 0 0
737100000 0.1045269372988113 -0.1232971387222299 1.1495710982718566 0.37600089664010117 0 0 0 0
741000000 0.10349268457747787 -0.12482472063428289 1.1562360474040025 0.35623675191576853 0 0 0 0
744900000 0.10409196716542016 -0.12570461743718284 1.159512367368151 0.34070046000370385 0 0 0 0
748800000 0.10398722983705809 -0.12627000459366172 1.1638335257452321 0.322933416214326 0 0 0 0
752700000 0.10428361591262555 -0.12769079787061 1.1674904013777334 0.3089043358753329 0 0 0 0
756600000 0.10384246373128653 -0.12871597659673287 1.1721444687612286 0.2924820443533613 0 0 0 0
760500000 0.10349045322057215 -0.12983888029887825 1.1761914441378831 0.2719594271979144 0 0 0 0
764400000 0.1037940239306201 -0.1304237094235951 1.1796351897992896 0.2605586337317233 0 0 0 0
768300000 0.10315650903599938 -0.13098846821513108 1.1817095495201169 0.24311313748685284 0 0 0 0
772200000 0.10313795209708446 -0.13317865585253766 1.1868944350633044 0.2274754875952738 0 0 0 0
776100000 0.10305095464418891 -0.13323518973575948 1.188683603114959 0.20753353196874896 0 0 0 0
780000000 0.10215419902759022 -0.13442610424947368 1.1920888523929345 0.18993290407711338 0 0 0 0
783900000 0.10239364060623612 -0.13525788008491355 1.1956805236596775 0.17393907063029404 0 0 0 0
787800000 0.10183243628270616 -0.13634744233763754 1.1990092855756658 0.16064344939836034 0 0 0 0
791700000 0.10137720272658192 -0.13747711521171 1.1995788852161184 0.13892473054270216 0 0 0 0
