# HZ S RI R 50
3900000 0.47746810362946607 -0.3641563652274888
7800000 0.24682025721263096 -0.311616051974872
11700000 0.16696758339222642 -0.23751280322231538
15600000 0.13316602737764294 -0.1889899692033508
19500000 0.11664353819433466 -0.156414935468871
23400000 0.10769110466584271 -0.13372384915541288
27300000 0.10134703902252981 -0.1175016008403513
31200000 0.09730365736703893 -0.10509639764475405
35100000 0.09467294504564014 -0.09548333562689904
39000000 0.09232296322085914 -0.08773884191570212
42900000 0.090741929129087 -0.0821230331615694
46800000 0.08895311733883314 -0.0771714573983688
50700000 0.08797396477382394 -0.07293428789635022
54600000 0.0876259247411682 -0.06952131529702324
58500000 0.08699060836708457 -0.06555861910070244
62400000 0.08647724880389507 -0.06339519366668031
66300000 0.08590553900603373 -0.06129285689326494
70200000 0.08458628700614221 -0.05960116336129569
74100000 0.08363622909555112 -0.05802489537149375
78000000 0.08355816904572184 -0.056506479745568376
81900000 0.08275729512647116 -0.054947688817654425
85800000 0.0823210710114022 -0.05409687417648612
89700000 0.08208395283401766 -0.053399953095952815
93600000 0.0820926971626637 -0.05201496480976225
97500000 0.08208393559278554 -0.051493128989708245
101400000 0.08229457054173774 -0.051887101857169764
105300000 0.08209165770504541 -0.051512668303378126
109200000 0.08171211736094082 -0.05091938342118121
113100000 0.08163977575935054 -0.05135952919716713
117000000 0.08150371127910241 -0.05131391101771656
120900000 0.08116843906687989 -0.05127776974339627
124800000 0.08151014161491761 -0.050658566264277866
128700000 0.08152848710046742 -0.050214679395191225
132600000 0.08047191193108018 -0.04955079323313558
136500000 0.07983795247586341 -0.04877627100619217
140400000 0.08246080684057737 -0.05085559846933243
144300000 0.08242214999733595 -0.050836028402175784
148200000 0.08241114303985175 -0.050672133909534504
152100000 0.08174925986343959 -0.05075205424457583
156000000 0.08144549278243207 -0.05070841915198717
159900000 0.08131724868597726 -0.050832256273224456
163800000 0.08057151501588737 -0.051154347603308795
167700000 0.0802749737940934 -0.051069927558325116
171600000 0.07990563322869798 -0.05140764283119864
175500000 0.07898210748981976 -0.05107845184750749
179400000 0.07898179033695911 -0.05138156808834562
183300000 0.07886859315114052 -0.051846259037708405
187200000 0.07799226662345293 -0.05211201563207877
191100000 0.07783510416564841 -0.05248449004349526
195000000 0.07719907487324235 -0.05227501263975312
198900000 0.07692275731372077 -0.05253234201868776
202800000 0.07640399954358956 -0.05289541259099689
206700000 0.07595469696925737 -0.05320889905477186
210600000 0.07620323631498213 -0.053235840089278806
214500000 0.07569722819384414 -0.05414783511158909
218400000 0.07549924981338225 -0.05409910003971987
222300000 0.07521352964623806 -0.05417961333176907
226200000 0.07454371058867665 -0.05489215318310702
230100000 0.07441639308979532 -0.05522400204824421
234000000 0.07360001197973813 -0.055543950589853425
237900000 0.07361763217531041 -0.05592086151361412
241800000 0.07316025070315471 -0.05577035898382918
245700000 0.07312991004855025 -0.05596361432288757
249600000 0.07241180528908027 -0.05653103689050312
253500000 0.07231762220478925 -0.05709833061598957
257400000 0.07179874972375477 -0.05703777815158058
261300000 0.07157278331463972 -0.05736804683752769
265200000 0.07107641237399308 -0.057751242697831016
269100000 0.07063290135187093 -0.0579567884716484
273000000 0.07044074591136244 -0.05759211953745408
276900000 0.06995643162970877 -0.05769691980044691
280800000 0.06985298415887443 -0.058350401025695046
284700000 0.06957319693200543 -0.05842405416217324
288600000 0.06918992401394852 -0.05885388984739318
292500000 0.06907551667061919 -0.05919645863366808
296400000 0.06843523601658705 -0.0593688880766738
300300000 0.0686635375841342 -0.05963595298507611
304200000 0.06806698213256025 -0.05973342796553849
308100000 0.06748419693847986 -0.059735129095896615
312000000 0.0677675155718217 -0.05962972137491389
315900000 0.06723473459405443 -0.06015605163303826
319800000 0.06655834242374033 -0.06047740123515545
323700000 0.06672268995476927 -0.06057194579600922
327600000 0.06658558357091597 -0.06100263113787976
331500000 0.06619417389695291 -0.061376128406635734
335400000 0.06628301760350797 -0.06172039230660674
339300000 0.06561254262392509 -0.06177322238236087
343200000 0.06508301591675286 -0.06224476872219952
347100000 0.06523543640050218 -0.06200131024212788
351000000 0.06501525734189365 -0.06262014784118107
354900000 0.06464046772450083 -0.06245533249255715
358800000 0.06482208580802717 -0.06273462297090539
362700000 0.06427505859938376 -0.062480617990106437
366600000 0.06376859080782299 -0.06264618795450198
370500000 0.06368529937639568 -0.06308273025089565
374400000 0.06381983671505165 -0.0633134166972097
378300000 0.0636228958994044 -0.06321358883310481
382200000 0.06302100780808587 -0.06376393831396783
386100000 0.06284487435927634 -0.0643027953895937
390000000 0.06285966987896191 -0.0638566270917241
393900000 0.06259231071322321 -0.06429525423824832
397800000 0.06227727260091077 -0.06446702403178757
401700000 0.0622651109035086 -0.06448188655456097
405600000 0.062139968263312605 -0.06464794244117408
409500000 0.062141976746657446 -0.06538143550196375
413400000 0.06192828994630518 -0.0653864531815102
417300000 0.06209165811106108 -0.06568388613455989
421200000 0.061724413930436754 -0.06581832917350965
425100000 0.061719003801005104 -0.06580340341495326
429000000 0.06172441222657896 -0.06622424437982097
432900000 0.06154497305495584 -0.0660494800983983
436800000 0.061428453992094754 -0.06619313688983221
440700000 0.061184519008990315 -0.06692772456591489
444600000 0.060852057139816854 -0.0670001014652794
448500000 0.06127151283949206 -0.06721535223042169
452400000 0.06128028054347961 -0.06753815889238528
456300000 0.0607728543356376 -0.06730997414768017
460200000 0.061285610710572744 -0.0677127079031729
464100000 0.060983097132384374 -0.06823746013402797
468000000 0.06080819422352192 -0.0678607618437536
471900000 0.06114955725064151 -0.06806009840487576
475800000 0.06115310171664713 -0.06863872162455267
479700000 0.060769140106358414 -0.06833893600497468
483600000 0.060684287294742574 -0.0694717074508668
487500000 0.06084775526729709 -0.06950628431055095
491400000 0.0610951464709351 -0.07035158276182166
495300000 0.060950610937157375 -0.06995955050291391
499200000 0.061431299787448934 -0.07073949292883977
503100000 0.06120886845907451 -0.07074981622943782
507000000 0.060979593490605034 -0.07106590380732734
510900000 0.060911557321802964 -0.0716197633941484
514800000 0.061561627641229334 -0.07148354433234484
518700000 0.06117888424623593 -0.07203166858962597
522600000 0.06151466604674939 -0.07203163416071191
526500000 0.061852037456165694 -0.07210196816571357
530400000 0.06160748035106406 -0.0729457654418984
534300000 0.06197351698679489 -0.07312383924397224
538200000 0.06174599871630831 -0.07363690648632987
542100000 0.06204736095755915 -0.07315891086931443
546000000 0.0616508182061809 -0.07405432570208297
549900000 0.06179399051218603 -0.07447621144811169
553800000 0.061991661310014434 -0.07462503712548045
557700000 0.06217680006827572 -0.07546882631827653
561600000 0.06233492639839361 -0.07550004207648178
565500000 0.06247349730358436 -0.07568963603833086
569400000 0.06295188714857355 -0.0759755563689803
573300000 0.0629555070605218 -0.07618872980391522
577200000 0.06331651768078941 -0.07640418096729715
581100000 0.0629346246998449 -0.07731951318325747
585000000 0.06343427355940646 -0.07814760863196413
588900000 0.06387023227906011 -0.07883810104752254
592800000 0.06403580039558528 -0.07930504894555544
596700000 0.06389719516681612 -0.07948978333008286
600600000 0.06446875489877045 -0.08064976342164393
604500000 0.06465180035682505 -0.08056940092912776
608400000 0.06479099682034482 -0.08070282042518871
612300000 0.06493104251298869 -0.08123847602440709
616200000 0.06510107671692615 -0.08124527352831369
620100000 0.06515599253560048 -0.0821760676850881
624000000 0.06591373199964769 -0.08268224410712355
627900000 0.06571256429056586 -0.08367744195950674
631800000 0.06607312482541736 -0.08403500023867685
635700000 0.06663560058664122 -0.08433280133263502
639600000 0.06631801321461758 -0.08469293809092647
643500000 0.06719370956061858 -0.08523690592046938
647400000 0.06737403526445929 -0.08592898744739413
651300000 0.06738195769036359 -0.08657991495207078
655200000 0.06729497721419679 -0.08694563242891791
659100000 0.06780536230239283 -0.08768728425712119
663000000 0.06828374372557085 -0.0878837652351554
666900000 0.06808229067323421 -0.08897105418545506
670800000 0.06833277009319824 -0.08900956051305145
674700000 0.06887430142785592 -0.08941848502315562
678600000 0.06929514695988993 -0.08977570283690425
682500000 0.06920812557195807 -0.09064567404660011
686400000 0.06943983348138073 -0.09164277827479778
690300000 0.0687880016498963 -0.0926671097354932
694200000 0.0697272815230024 -0.0930147893565157
698100000 0.06975707654496222 -0.0935385188204711
702000000 0.07025956818641294 -0.0943830319192374
705900000 0.07116468896693998 -0.09542872459916808
709800000 0.07125707710428157 -0.09662528675526978
713700000 0.07127843068408156 -0.09732081965849226
717600000 0.07136145105686471 -0.0982212728884065
721500000 0.07204630765343135 -0.09825361725027165
725400000 0.0723107236358214 -0.09928756977320738
729300000 0.07287620237048804 -0.10013757725325413
733200000 0.07312694723798126 -0.10096270754173825
737100000 0.07344585447116059 -0.10172860996503914
741000000 0.07349456393309975 -0.10269658319408041
744900000 0.07360813405450992 -0.10331346314754887
748800000 0.07409454538761738 -0.10437767705600004
752700000 0.07451262249465199 -0.10556727873716541
756600000 0.07479535769002811 -0.10700789190416753
760500000 0.07447266548224014 -0.10741056807842912
764400000 0.07531910819859802 -0.10987738189742682
768300000 0.07408972960713635 -0.11019112004221247
772200000 0.07483413670955104 -0.11267972996560222
776100000 0.07432717324160981 -0.11315473367731492
780000000 0.07453878522649272 -0.1144500889805983
783900000 0.07457117546206453 -0.1156107885074825
787800000 0.07464152746338526 -0.11677671736606733
791700000 0.07492806136187191 -0.11750832849636184
795600000 0.07485293760004774 -0.11918372280814046
799500000 0.0743293292436861 -0.12012390495645224
803400000 0.07382825713555781 -0.12158137206178038
807300000 0.07342180891858956 -0.1219397679188598
811200000 0.07388336005586994 -0.12368651233135164
815100000 0.07349089376921612 -0.12427506255594807
819000000 0.0738369986858402 -0.12482899883354802
822900000 0.07187781148301109 -0.12541416077590162
826800000 0.07268575951186139 -0.12687718528264255
830700000 0.07192484058529579 -0.12801247124147566
834600000 0.07096742135873439 -0.12902587454224992
838500000 0.0711726271817676 -0.13040556241261522
842400000 0.07112900905550364 -0.13149131623500968
846300000 0.07072348523189598 -0.13237620552739224
850200000 0.07002814737655749 -0.13426892991130446
854100000 0.06958386547622412 -0.13542942890800524
858000000 0.06915042899647225 -0.13589017876622525
861900000 0.06941379693180705 -0.13708553180996438
865800000 0.06909067153738008 -0.13857123188809486
869700000 0.06878107814326487 -0.13855165433176012
873600000 0.06755917757725453 -0.14033125684857542
877500000 0.06796955524979532 -0.14148647261975442
881400000 0.06702185761261888 -0.1419674024939193
885300000 0.06511406185263699 -0.1435049350275609
889200000 0.06559199612360087 -0.14451341234998913
893100000 0.06526530566904969 -0.1449807238394203
897000000 0.06437819057079541 -0.1453695518602588
900900000 0.0646128191115876 -0.14725217004311378
904800000 0.06292867940998394 -0.1488564212991231
908700000 0.06282843503745171 -0.14996559124399375
912600000 0.06206088585868232 -0.15073249842840983
916500000 0.06256775876817111 -0.1513060681396557
920400000 0.061605746838875895 -0.15272573776500714
924300000 0.06090114711247594 -0.1544682041409258
928200000 0.060374196449936565 -0.15467579161929393
932100000 0.059679240848921546 -0.15632805249276235
936000000 0.059226496461039085 -0.15659884967595672
939900000 0.05828719942038698 -0.1589762525269436
943800000 0.05755447934998562 -0.15981856558445545
947700000 0.05814237231989172 -0.15985325439037126
951600000 0.056979944544947335 -0.16179476802733642
955500000 0.05590173460171499 -0.16264437387898506
959400000 0.055921653794023356 -0.1638904126259006
963300000 0.05474668402386086 -0.16486994794158202
967200000 0.054242566031552274 -0.16511754586977268
971100000 0.053645574993761526 -0.16665770010737385
975000000 0.052709304832096425 -0.1677619411147126
978900000 0.052700438237055704 -0.16911744210185845
982800000 0.05175431333965365 -0.16952998682840748
986700000 0.05159431784575694 -0.1701636825131732
990600000 0.05063754371776864 -0.171737412996825
994500000 0.05037844359043964 -0.17360430809094557
998400000 0.04880498243086498 -0.1740099040147575
1002300000 0.049275968636037504 -0.175317353220321
1006200000 0.04818515549711505 -0.174928927502891
1010100000 0.047091123673614246 -0.17696440752122433
1014000000 0.046135744793559856 -0.17792669900587532
1017900000 0.045867358736279444 -0.17923888545364286
1021800000 0.04547212846890466 -0.180607804413728
1025700000 0.04382159007659538 -0.18106031897246277
1029600000 0.04330286833825892 -0.1823337968000803
1033500000 0.04241822598062806 -0.1828083109840684
1037400000 0.040692428217574315 -0.18373039722768697
1041300000 0.04042399388266284 -0.1844702887009468
1045200000 0.040007111259624674 -0.18522121284908416
1049100000 0.03817997176277798 -0.1865711318396421
1053000000 0.03722853765354467 -0.18694633078232337
1056900000 0.03616911410748942 -0.18835963604424003
1060800000 0.0361248784407817 -0.1885830260663381
1064700000 0.03562236137259943 -0.18930833840499703
1068600000 0.03352857488389568 -0.1903841326714954
1072500000 0.03354438037360558 -0.19178744366376504
1076400000 0.03220369859133935 -0.19206032325027708
1080300000 0.032037118559757265 -0.1921472573325008
1084200000 0.030948561798617213 -0.1938912702638387
1088100000 0.03019293203474027 -0.19467175501855594
1092000000 0.02885918769339169 -0.1961837412798965
1095900000 0.027108460234879728 -0.19654198994565325
1099800000 0.0262455548548946 -0.19651039738752313
1103700000 0.025475235374272005 -0.19691734816342427
1107600000 0.024240027091956568 -0.19835604940354623
1111500000 0.023887291071327955 -0.20010160282586534
1115400000 0.022411216447835346 -0.20032085548360448
1119300000 0.021624216887728687 -0.20200588262201044
1123200000 0.02007428747835014 -0.20179255299973883
1127100000 0.019173014155523187 -0.2029526937612162
1131000000 0.018104189454531343 -0.20456490612204437
1134900000 0.01662442756351838 -0.20468676796048865
1138800000 0.016183769282909977 -0.20486095163292006
1142700000 0.015062845574679757 -0.20555396391128425
1146600000 0.014562912656287666 -0.20568238528079086
1150500000 0.013600948339389511 -0.20807970024121378
1154400000 0.012617081191061199 -0.20826272619928402
1158300000 0.011857576975427454 -0.2079900241951376
1162200000 0.010597046282310993 -0.20934128897774726
1166100000 0.010370693104360944 -0.2105334359320661
1170000000 0.008285067185573487 -0.21029705421576778
1173900000 0.008225396413175773 -0.21110803249213872
1177800000 0.006450516112746802 -0.21152953837440727
1181700000 0.00634150716972262 -0.2121464772249197
1185600000 0.005623313869905917 -0.21409265581184214
1189500000 0.0038313631256496608 -0.2125650839978197
1193400000 0.0034245618762129885 -0.21463202502909762
1197300000 0.001887185052022911 -0.21488965978492985
1201200000 0.0010981001672486623 -0.21567230425262462
1205100000 -0.0002579934859610056 -0.21574367181990353
1209000000 -0.0009125296981809495 -0.21647487493621603
1212900000 -0.0022846592675019946 -0.21691668646041368
1216800000 -0.003327301049718695 -0.21710568990678758
1220700000 -0.00346431805823962 -0.21781035751686756
1224600000 -0.005568430485888146 -0.21723972924838483
1228500000 -0.006230843797267546 -0.2181505895178492
1232400000 -0.006228605322475537 -0.21987100173086965
1236300000 -0.007407277026642032 -0.2192736780610598
1240200000 -0.007951907932541224 -0.2201076631160156
1244100000 -0.01071290373767302 -0.21998190118469954
1248000000 -0.011458246047388659 -0.22154752148935278
1251900000 -0.011612496124330417 -0.22092327667199962
1255800000 -0.01181069818668289 -0.2211307817372948
1259700000 -0.01432085226666424 -0.22028513092962615
1263600000 -0.013784359287177743 -0.22277247322621477
1267500000 -0.01564552149706333 -0.22259677445668047
1271400000 -0.01666958558671159 -0.22356041940052546
1275300000 -0.017066382616263268 -0.22261129560194878
1279200000 -0.018800683670167496 -0.22286919375410608
1283100000 -0.020616781419733627 -0.22286632402574252
1287000000 -0.020493525385898975 -0.22358288591426007
1290900000 -0.022402718466434324 -0.22325852175697145
1294800000 -0.0220179418668975 -0.22476239456326053
1298700000 -0.025717409452449335 -0.22349094898683375
1302600000 -0.02505397511236491 -0.22467414861231857
1306500000 -0.026625966147924996 -0.2244971414933584
1310400000 -0.027733746463153127 -0.22500777679093886
1314300000 -0.028750840425863462 -0.22508530500552185
1318200000 -0.02920665769784174 -0.22510576269202062
1322100000 -0.030839012926753204 -0.22537800883250736
1326000000 -0.033552887012592215 -0.22472729839411482
1329900000 -0.0328326975740646 -0.22538958424250324
1333800000 -0.03379758273774919 -0.225411071218704
1337700000 -0.034486862491297524 -0.22599703114248942
1341600000 -0.03588326440081988 -0.22684658685029704
1345500000 -0.03742228868261686 -0.22675407694108804
1349400000 -0.03888065761332771 -0.22681881705208484
1353300000 -0.03982855568653972 -0.22689268422028766
1357200000 -0.03978290054263979 -0.22642012384733817
1361100000 -0.04108165055312884 -0.22734443811563249
1365000000 -0.043147505103527266 -0.22720383884632106
1368900000 -0.04436756967256872 -0.227854692592946
1372800000 -0.04372551492219033 -0.22761811727342637
1376700000 -0.04446198884831735 -0.2267765112279771
1380600000 -0.04764944556635554 -0.22745389660672458
1384500000 -0.048432948298270696 -0.226696033464964
1388400000 -0.04922425023937166 -0.2271945686379266
1392300000 -0.04873783135630724 -0.2271096470812426
1396200000 -0.05010773756376407 -0.2271634416043402
1400100000 -0.052130877213953486 -0.2275294894162101
1404000000 -0.05256420628815937 -0.22441445563356754
1407900000 -0.05413598023406212 -0.22803410812926322
1411800000 -0.05588039912060634 -0.22558489825843467
1415700000 -0.05535199789565429 -0.22767761622054788
1419600000 -0.05748642240917942 -0.22769228621271712
1423500000 -0.059272323625408824 -0.22672298172223088
1427400000 -0.06048466832556567 -0.22620655237445234
1431300000 -0.06260984826481443 -0.22567516720768516
1435200000 -0.06464903757492474 -0.22523938715878145
1439100000 -0.06411071132913991 -0.2256540799770966
1443000000 -0.06512055922893718 -0.22635756998829143
1446900000 -0.06620256214479493 -0.22587228737845153
1450800000 -0.06643509011330563 -0.2259413436681122
1454700000 -0.0677577947419186 -0.22567334235760655
1458600000 -0.06902985490119512 -0.22488819178923702
1462500000 -0.06943794125411179 -0.2244953005131871
1466400000 -0.07082755079953765 -0.22476157631206778
1470300000 -0.07201242785702469 -0.22461262689906838
1474200000 -0.07384004842466785 -0.22368563171411746
1478100000 -0.07415264174538916 -0.22395715484798973
1482000000 -0.07555261056353606 -0.22397048030490402
