#  HZ   S   RI   R     50.00 
! Rohde & Schwarz Vector Network Analyzer 
! Rohde-Schwarz,ZNL20-2Port,1323001220101312,1.72.1.6-23.02.1.246
! Created: UTC 10/9/2024, 8:34:17 PM
! freq[Hz]                re:S11                  im:S11                  re:S21                  im:S21                  re:S12                  im:S12                  re:S22                  im:S22
 3.900000000000000E6     1.772768642729473E-2    2.561594061291444E-4    3.202922603124005E-1   -1.425849512827751E-3    3.188176809604779E-1   -2.604624479520289E-3    1.625648221671606E-2    3.878825665933762E-4
 7.800000000000000E6     1.628322712013506E-2    1.979974586419546E-3    3.196682616413961E-1   -3.496339749241347E-3    3.177180650438557E-1   -4.006893360233496E-3    1.518161854922528E-2    1.442295005910434E-3
 1.170000000000000E7     1.507816751055009E-2    2.783424785600137E-3    3.191901467515342E-1   -5.813476565844578E-3    3.184763822245454E-1   -6.665240514405216E-3    1.430899346990047E-2    2.166503014204488E-3
 1.560000000000000E7     1.438798071656416E-2    3.419595393576146E-3    3.189628726143122E-1   -8.068073541213874E-3    3.181822436539187E-1   -8.824842667120733E-3    1.364388323365773E-2    2.588097395534940E-3
 1.950000000000000E7     1.369262042647997E-2    3.704862353292336E-3    3.187927344596324E-1   -1.038435693366392E-2    3.179103173966781E-1   -1.116877052292220E-2    1.312578071350021E-2    2.889177811211337E-3
 2.340000000000000E7     1.306488074829375E-2    4.131302457643679E-3    3.186583515393494E-1   -1.256180044541638E-2    3.177452228563045E-1   -1.330904713838173E-2    1.273673048281121E-2    3.209144084143175E-3
 2.730000000000000E7     1.242432235778032E-2    4.301338323752110E-3    3.184998155529754E-1   -1.487441373648776E-2    3.176042166888945E-1   -1.554273877874943E-2    1.235191488527431E-2    3.469346168506702E-3
 3.120000000000000E7     1.175372219041612E-2    4.357326125932387E-3    3.183875148362202E-1   -1.704407137069699E-2    3.175327368353254E-1   -1.775477491537500E-2    1.208055369686028E-2    3.747844300269136E-3
 3.510000000000000E7     1.128077673939916E-2    4.319143744637458E-3    3.182278181329979E-1   -1.931678205068398E-2    3.173195020525531E-1   -1.994881376834904E-2    1.174565954217542E-2    3.811849540302265E-3
 3.900000000000000E7     1.089983109861087E-2    4.275901065051068E-3    3.180588949758046E-1   -2.158713149975302E-2    3.170951387117100E-1   -2.222529445681623E-2    1.143312600218601E-2    3.765978714118282E-3
 4.290000000000000E7     1.070645326427753E-2    3.913567048050536E-3    3.177770592328496E-1   -2.374371672800797E-2    3.169008931855238E-1   -2.439673471300310E-2    1.118004706358947E-2    3.837941223436499E-3
 4.680000000000000E7     1.033500960545810E-2    3.692180843047501E-3    3.175852633138693E-1   -2.600077536944627E-2    3.166959334713600E-1   -2.664795727810292E-2    1.095938421946974E-2    3.677269652991272E-3
 5.070000000000000E7     1.033745230684603E-2    3.261974739553663E-3    3.173295900080009E-1   -2.819078284693297E-2    3.164208509810892E-1   -2.881996947180158E-2    1.102034197279173E-2    3.595489540551017E-3
 5.460000000000000E7     1.040753513681641E-2    3.083354939601567E-3    3.171504679953324E-1   -3.033503881293497E-2    3.161306820441718E-1   -3.094465844218812E-2    1.107472200531500E-2    3.455134021442304E-3
 5.850000000000000E7     1.077296087789697E-2    2.835777676084317E-3    3.168749162952104E-1   -3.241682903494914E-2    3.159074586136800E-1   -3.301455209393562E-2    1.116073204082745E-2    3.375784585969737E-3
 6.240000000000000E7     1.098814636430622E-2    2.620324489111607E-3    3.166313583382423E-1   -3.459709013530496E-2    3.156739295462909E-1   -3.516622087502689E-2    1.122449396997484E-2    3.224256433793978E-3
 6.630000000000000E7     1.184480524982650E-2    2.976470742721996E-3    3.162262973092517E-1   -3.670910487449332E-2    3.152304753046785E-1   -3.732096763469728E-2    1.184369274867229E-2    3.647266810372792E-3
 7.020000000000000E7     1.223518164395870E-2    2.952171632312906E-3    3.158571585236261E-1   -3.887453643933682E-2    3.148879736028464E-1   -3.949362562721493E-2    1.211292454626446E-2    3.602544417156147E-3
 7.410000000000000E7     1.264300499001639E-2    3.070686905681484E-3    3.155742276482867E-1   -4.098023249365764E-2    3.146078407540565E-1   -4.160983871555705E-2    1.222158233502966E-2    3.850499849984123E-3
 7.800000000000000E7     1.320446216982929E-2    3.226867536372509E-3    3.151809280836684E-1   -4.311040668392169E-2    3.142337643952637E-1   -4.370833703164895E-2    1.244323634631014E-2    3.992778799645783E-3
 8.190000000000000E7     1.375913195882198E-2    3.524022442134974E-3    3.149175807660569E-1   -4.524771496703776E-2    3.139457140450349E-1   -4.585313514927667E-2    1.279480844578714E-2    4.151743730551201E-3
 8.580000000000000E7     1.409167244783881E-2    4.029323376694805E-3    3.146285629167495E-1   -4.737895886240621E-2    3.135971407712932E-1   -4.795348505835394E-2    1.310296462558100E-2    4.252300114338439E-3
 8.970000000000000E7     1.445899254395957E-2    4.500986910007230E-3    3.142372482518127E-1   -4.956054366107098E-2    3.132602923695677E-1   -5.014432548491150E-2    1.326693235080488E-2    4.600098703305845E-3
 9.360000000000000E7     1.453729470674034E-2    5.166990751798390E-3    3.137933336384248E-1   -5.161309163115317E-2    3.128520604641180E-1   -5.222387673383642E-2    1.329059645586775E-2    5.062148282469123E-3
 9.750000000000000E7     1.468489586426720E-2    5.775411012828304E-3    3.134302767067370E-1   -5.368996795180680E-2    3.124632477639492E-1   -5.427656637436848E-2    1.359813793416077E-2    5.493592921424079E-3
 1.014000000000000E8     1.473646853489467E-2    6.346308328713632E-3    3.130466701130327E-1   -5.580972881759369E-2    3.120522064378283E-1   -5.636694354863922E-2    1.365234894819123E-2    5.814573450432422E-3
 1.053000000000000E8     1.474266131130624E-2    7.015014057803411E-3    3.126516000908888E-1   -5.793394227034447E-2    3.116410232095512E-1   -5.845581289876701E-2    1.383647982908323E-2    6.285279507381265E-3
 1.092000000000000E8     1.463298048123270E-2    7.572976508759124E-3    3.121910041215615E-1   -5.996903291839199E-2    3.112224958097387E-1   -6.052661447967903E-2    1.397382749042760E-2    6.749880044054248E-3
 1.131000000000000E8     1.446506194406607E-2    8.133038584316507E-3    3.117714549532872E-1   -6.201838793639246E-2    3.108386999221232E-1   -6.258765832314252E-2    1.402481041707880E-2    7.079137545914018E-3
 1.170000000000000E8     1.424032482534741E-2    8.667490739493388E-3    3.113579034565049E-1   -6.408666110746813E-2    3.103608029140694E-1   -6.467398841478256E-2    1.403408952274151E-2    7.520754472253550E-3
 1.209000000000000E8     1.392027108804816E-2    9.017209490142421E-3    3.108291729088887E-1   -6.618538815314762E-2    3.098516534530389E-1   -6.676824249026364E-2    1.392558708790236E-2    7.886750379970607E-3
 1.248000000000000E8     1.364335771579819E-2    9.386777036197931E-3    3.104235941327723E-1   -6.826063299720014E-2    3.094427769299299E-1   -6.877988649042509E-2    1.389092635937384E-2    8.228604694118520E-3
 1.287000000000000E8     1.329297211250907E-2    9.539139566417571E-3    3.098954781755108E-1   -7.035475110508276E-2    3.088782987520977E-1   -7.088102195783673E-2    1.383807279475834E-2    8.620810770781742E-3
 1.326000000000000E8     1.307899943878436E-2    9.691550852056816E-3    3.093932089798728E-1   -7.245172636388969E-2    3.083947592474395E-1   -7.294976866871558E-2    1.382701624561240E-2    8.840124574047340E-3
 1.365000000000000E8     1.284653027256958E-2    9.792820126556152E-3    3.089054494221752E-1   -7.451570705006812E-2    3.079161294844825E-1   -7.503455011538328E-2    1.372322833875241E-2    9.086247849943467E-3
 1.404000000000000E8     1.264713588902670E-2    9.763403443738364E-3    3.083818179751334E-1   -7.662272418570491E-2    3.074725497779371E-1   -7.710504673746210E-2    1.365183517472758E-2    9.322945998927277E-3
 1.443000000000000E8     1.258967407891995E-2    9.667916623002860E-3    3.078406708255489E-1   -7.868643394675556E-2    3.068285948672339E-1   -7.920126310628670E-2    1.373442333630113E-2    9.432518991104477E-3
 1.482000000000000E8     1.250433928799794E-2    9.639309272532162E-3    3.071947440390574E-1   -8.085435445942651E-2    3.062667598107093E-1   -8.130980852910610E-2    1.353744519851648E-2    9.672996302730965E-3
 1.521000000000000E8     1.251728590437742E-2    9.465168712222808E-3    3.066234596893499E-1   -8.299793096607200E-2    3.057099151732330E-1   -8.348978786977840E-2    1.355764529957796E-2    9.846318719018188E-3
 1.560000000000000E8     1.288640790556294E-2    9.328770602622260E-3    3.060609559090125E-1   -8.494719815839331E-2    3.051409269290896E-1   -8.541371824965439E-2    1.369905069529519E-2    9.866190378450674E-3
 1.599000000000000E8     1.334076733501124E-2    9.283295660755175E-3    3.054114517372364E-1   -8.700776271841328E-2    3.045503949527954E-1   -8.742596803212623E-2    1.388333712312296E-2    9.894907659194149E-3
 1.638000000000000E8     1.380059431202146E-2    9.213885154804339E-3    3.048167364017231E-1   -8.904965455574189E-2    3.038906717020301E-1   -8.949034574712915E-2    1.407082602558217E-2    9.870220951325837E-3
 1.677000000000000E8     1.409456587635436E-2    9.041033453111561E-3    3.041483588603718E-1   -9.100710566387436E-2    3.032649228688095E-1   -9.146969676557505E-2    1.420221502067021E-2    1.004268086458847E-2
 1.716000000000000E8     1.457794434117503E-2    9.253341302321451E-3    3.035112329611865E-1   -9.301279943786248E-2    3.026137500957438E-1   -9.349332937306422E-2    1.435395586435929E-2    1.012538552054797E-2
 1.755000000000000E8     1.507552359647181E-2    9.384840277612374E-3    3.028685694030142E-1   -9.497555456629760E-2    3.019848545935503E-1   -9.545766724824946E-2    1.465510622768759E-2    1.012951729704666E-2
 1.794000000000000E8     1.553739311825470E-2    9.617492425004212E-3    3.022479907648951E-1   -9.699577674177916E-2    3.013784270895479E-1   -9.750848430586885E-2    1.488970814086537E-2    1.021969055909357E-2
 1.833000000000000E8     1.607496034499957E-2    9.821812342714328E-3    3.015851711253859E-1   -9.904363349438308E-2    3.007052310180578E-1   -9.953542909701828E-2    1.512237553585923E-2    1.032404789274901E-2
 1.872000000000000E8     1.631243299930951E-2    1.032497791542186E-2    3.008943859981663E-1   -1.010846810784122E-1    3.000595397599530E-1   -1.015835726140416E-1    1.547100413834362E-2    1.045997747092193E-2
 1.911000000000000E8     1.677596628562113E-2    1.095643068180223E-2    3.002511761394252E-1   -1.030400624472164E-1    2.993785418985352E-1   -1.036076620694718E-1    1.562585380152221E-2    1.069285210869154E-2
 1.950000000000000E8     1.704268595297204E-2    1.140418447178104E-2    2.995385216560522E-1   -1.050340382937528E-1    2.986693931107429E-1   -1.055846643058958E-1    1.592331709941992E-2    1.095108798935251E-2
 1.989000000000000E8     1.729986186165469E-2    1.207696573584000E-2    2.988041359701060E-1   -1.070445161499840E-1    2.979136727973944E-1   -1.075825082231982E-1    1.634869369126020E-2    1.126354717288532E-2
 2.028000000000000E8     1.739536009770354E-2    1.264046625563420E-2    2.981103750008687E-1   -1.090570510447239E-1    2.971528654437530E-1   -1.096618460605172E-1    1.648819723512964E-2    1.156186796998174E-2
 2.067000000000000E8     1.750234254184539E-2    1.332261286120256E-2    2.973504694468418E-1   -1.110760259338102E-1    2.963918775397041E-1   -1.116477036178506E-1    1.680607111128787E-2    1.184001580169666E-2
 2.106000000000000E8     1.745812504479047E-2    1.393790339664591E-2    2.966287627107925E-1   -1.130807255526865E-1    2.956106136615881E-1   -1.136228886489165E-1    1.694992895971888E-2    1.226648705161033E-2
 2.145000000000000E8     1.731148641679048E-2    1.435512998931700E-2    2.958519450414528E-1   -1.150753376088432E-1    2.947648667338658E-1   -1.155562483657596E-1    1.711343442588038E-2    1.255996154848778E-2
 2.184000000000000E8     1.709998261728342E-2    1.479705207164786E-2    2.950716230032794E-1   -1.170953871996358E-1    2.939219095300415E-1   -1.175303503698029E-1    1.710162523255522E-2    1.286966381817397E-2
 2.223000000000000E8     1.704007597895079E-2    1.514914712727977E-2    2.942158915453759E-1   -1.191580940379659E-1    2.931432804886426E-1   -1.195032143026083E-1    1.723075061953782E-2    1.341328125600193E-2
 2.262000000000000E8     1.668013209170620E-2    1.534555325315764E-2    2.934123524306053E-1   -1.210914839605731E-1    2.922933210568064E-1   -1.213902086369121E-1    1.727591847006302E-2    1.364567273928407E-2
 2.301000000000000E8     1.653935073410650E-2    1.555798491227831E-2    2.924960799328363E-1   -1.230654555958457E-1    2.914516440915773E-1   -1.233793990421567E-1    1.719608601562199E-2    1.407757440936107E-2
 2.340000000000000E8     1.640882477678006E-2    1.559585729587300E-2    2.916423965651372E-1   -1.250528061559338E-1    2.905832918069081E-1   -1.252928533928742E-1    1.728623926361063E-2    1.430603048443242E-2
 2.379000000000000E8     1.615943472612549E-2    1.557641475204912E-2    2.907169223698133E-1   -1.270472279737733E-1    2.897408945342791E-1   -1.272498277190099E-1    1.716162064274347E-2    1.462819415406148E-2
 2.418000000000000E8     1.610451741386179E-2    1.552903778227245E-2    2.898803156372299E-1   -1.289485439399689E-1    2.888587594533184E-1   -1.291470418531153E-1    1.714847238726161E-2    1.467827942303974E-2
 2.457000000000000E8     1.607131066093402E-2    1.531835990264917E-2    2.889620179620383E-1   -1.308984842761961E-1    2.879756576410532E-1   -1.311381311342323E-1    1.719990057651882E-2    1.497714229316641E-2
 2.496000000000000E8     1.628362423520336E-2    1.515793991189433E-2    2.880341823802491E-1   -1.327781336253242E-1    2.870680830861245E-1   -1.330119120761100E-1    1.734531216771787E-2    1.497562553927737E-2
 2.535000000000000E8     1.642647271751641E-2    1.506714653109573E-2    2.870326785815198E-1   -1.346949346496484E-1    2.861137928582626E-1   -1.349759659110791E-1    1.743032820562080E-2    1.506014164460148E-2
 2.574000000000000E8     1.669688271719979E-2    1.488412144894482E-2    2.861432270428795E-1   -1.366420866282049E-1    2.851828402595148E-1   -1.368754495968241E-1    1.747465476599952E-2    1.505697636283906E-2
 2.613000000000000E8     1.710972118735660E-2    1.485370953251338E-2    2.851815790130479E-1   -1.384819496862993E-1    2.842557305217583E-1   -1.387023394224202E-1    1.768266311839776E-2    1.503213734238315E-2
 2.652000000000000E8     1.751733651655527E-2    1.482024027685201E-2    2.842125405341463E-1   -1.403309860209218E-1    2.832421058275969E-1   -1.405988619407911E-1    1.791642161783483E-2    1.500078999391355E-2
 2.691000000000000E8     1.795846212684057E-2    1.477376590423321E-2    2.832174961153108E-1   -1.422222724002701E-1    2.823111577942806E-1   -1.425021642147845E-1    1.816992747518512E-2    1.512470447760363E-2
 2.730000000000000E8     1.836912764126490E-2    1.489921586116512E-2    2.822476546994790E-1   -1.441671366655839E-1    2.813027959405192E-1   -1.444134127199192E-1    1.848485989093505E-2    1.518701757267749E-2
 2.769000000000000E8     1.882005328150168E-2    1.497229328465286E-2    2.812150491402635E-1   -1.460189910952445E-1    2.802633900411680E-1   -1.462598167626195E-1    1.875299328363867E-2    1.534726718097062E-2
 2.808000000000000E8     1.942368351374955E-2    1.535288329987719E-2    2.802042085239176E-1   -1.478403543536576E-1    2.792317546523401E-1   -1.481412751697596E-1    1.910513516778699E-2    1.537693242701997E-2
 2.847000000000000E8     1.978464150004494E-2    1.565755621285723E-2    2.791886631539283E-1   -1.497502195879996E-1    2.782315144012884E-1   -1.500123653527693E-1    1.936458694746632E-2    1.545984132556002E-2
 2.886000000000000E8     2.023727565397065E-2    1.600443618948757E-2    2.781576349439390E-1   -1.515914267201941E-1    2.772158358595849E-1   -1.518377058213917E-1    1.977132487087351E-2    1.556934235808753E-2
 2.925000000000000E8     2.041220469990498E-2    1.646993849459365E-2    2.771720830929717E-1   -1.533557044075887E-1    2.761663430598136E-1   -1.536769847963122E-1    2.004479870584494E-2    1.570376957402948E-2
 2.964000000000000E8     2.079660887646799E-2    1.678654883521272E-2    2.760743779251036E-1   -1.552560288724895E-1    2.751272641708171E-1   -1.555208751329891E-1    2.044442511069656E-2    1.591467737463201E-2
 3.003000000000000E8     2.106923523945363E-2    1.727235786129959E-2    2.750023200779386E-1   -1.570388824251800E-1    2.740299847813589E-1   -1.572963393662903E-1    2.097250868570514E-2    1.612154110067091E-2
 3.042000000000000E8     2.118473836167531E-2    1.760782443755400E-2    2.739801948193779E-1   -1.587938294440980E-1    2.730029555770871E-1   -1.591167548659339E-1    2.125433607282481E-2    1.639547528657231E-2
 3.081000000000000E8     2.124137147760643E-2    1.815160801051732E-2    2.728617713994934E-1   -1.606279032852455E-1    2.718528449371250E-1   -1.609174362242404E-1    2.151011850183933E-2    1.669055346955196E-2
 3.120000000000000E8     2.134237198509642E-2    1.845599613248480E-2    2.717034308920560E-1   -1.623955664869861E-1    2.706814636788542E-1   -1.627182986481032E-1    2.172030794583731E-2    1.697717521309608E-2
 3.159000000000000E8     2.131848206788678E-2    1.892819501917368E-2    2.705938781728110E-1   -1.642328430018254E-1    2.696223177031528E-1   -1.644723281774665E-1    2.216296798311437E-2    1.721561622725507E-2
 3.198000000000000E8     2.131418537533074E-2    1.906409298024910E-2    2.694866780107161E-1   -1.659516848604216E-1    2.685232900137016E-1   -1.661980223500764E-1    2.237499136574672E-2    1.746360392348757E-2
 3.237000000000000E8     2.116444411480612E-2    1.926227934657957E-2    2.683406072869687E-1   -1.677209075156261E-1    2.673936347122071E-1   -1.680138867779123E-1    2.230303738803337E-2    1.782223885033613E-2
 3.276000000000000E8     2.113835406140292E-2    1.947170039820522E-2    2.671935824412838E-1   -1.695502557300888E-1    2.662691359280782E-1   -1.697696797044870E-1    2.252747079170853E-2    1.802417323625343E-2
 3.315000000000000E8     2.105929574943767E-2    1.964666231967826E-2    2.660456525722277E-1   -1.712598960172982E-1    2.650558131033792E-1   -1.715474223898220E-1    2.265852200668937E-2    1.824286886921708E-2
 3.354000000000000E8     2.102629401707745E-2    1.960399263227129E-2    2.649563409771327E-1   -1.730316759009120E-1    2.639976462130603E-1   -1.732497033941126E-1    2.276629656328409E-2    1.852070271918449E-2
 3.393000000000000E8     2.104884915624860E-2    1.963679235586914E-2    2.637298671151958E-1   -1.747284657869831E-1    2.627309144058625E-1   -1.750135824627168E-1    2.283144688026412E-2    1.870893076324954E-2
 3.432000000000000E8     2.112091394195455E-2    1.958525096383974E-2    2.625569796827123E-1   -1.764359791922383E-1    2.615988065830950E-1   -1.767061697227334E-1    2.286759271549406E-2    1.879178914255783E-2
 3.471000000000000E8     2.125316286987420E-2    1.938018330940989E-2    2.614579775689046E-1   -1.781470899106148E-1    2.604692070101300E-1   -1.784586409239551E-1    2.294831342806020E-2    1.903309083806743E-2
 3.510000000000000E8     2.147723609302271E-2    1.943508679883158E-2    2.602386721028712E-1   -1.798738276648804E-1    2.592544026800808E-1   -1.801327538056443E-1    2.301535207711671E-2    1.907533328496295E-2
 3.549000000000000E8     2.158899699934153E-2    1.927063967481632E-2    2.590612017155999E-1   -1.815892907009159E-1    2.581106459660567E-1   -1.818020155633221E-1    2.320510033145550E-2    1.918366111380836E-2
