# HZ S RI R 50
3900000 -0.001753746437635867 0.0010199748171897708 0.3245096677553476 -0.0010688038519641957 0 0 0 0
7800000 -0.0001928829309158249 0.0016312254577301058 0.3245769340506513 -0.002770674382078773 0 0 0 0
11700000 -0.0004531584347994378 0.002312554645676885 0.32448578477654977 -0.004320005637550391 0 0 0 0
15600000 -0.0009598752437497187 0.0030923851647518376 0.3251167548883773 -0.005774038025910096 0 0 0 0
19500000 -0.0009323246848063429 0.0037637362020136577 0.3246313858976381 -0.007249473198455377 0 0 0 0
23400000 6.186846264946008e-05 0.00453927189791903 0.32489217881345134 -0.00929759527035934 0 0 0 0
27300000 -0.00014321912011811244 0.00505259150256498 0.32509638870151464 -0.01093656394373465 0 0 0 0
31200000 -0.00047197336443028227 0.00497800890838648 0.32529328750576675 -0.012708587912511103 0 0 0 0
35100000 0.00031191193445549606 0.006034650973704386 0.3255199578899895 -0.014523010098803062 0 0 0 0
39000000 0.0006396566491693285 0.006352734181791087 0.3255458773858125 -0.01621204875361884 0 0 0 0
42900000 0.00018972878594291162 0.006200547174797516 0.3256454976678703 -0.018355278099151873 0 0 0 0
46800000 0.001188756657447468 0.006629279368084977 0.32593720694612 -0.02017265636235134 0 0 0 0
50700000 0.0017203363342435842 0.007661150941723157 0.3257909010615104 -0.022325749971341624 0 0 0 0
54600000 0.002041892619944953 0.008411398601236039 0.32593753637933526 -0.023831252021806745 0 0 0 0
58500000 0.0024368853937251187 0.008581755105863237 0.32553808342227036 -0.025978094795210918 0 0 0 0
62400000 0.0026469799361389075 0.008366341659663231 0.3253833249161697 -0.0281631844156391 0 0 0 0
66300000 0.002945220249186957 0.008533987074656704 0.3248010619408644 -0.029924390394655557 0 0 0 0
70200000 0.0032530778689086005 0.008974811924270486 0.3245804539325682 -0.03203093080369027 0 0 0 0
74100000 0.0036982600480016 0.009780675762676352 0.32454460612960023 -0.03379641337474933 0 0 0 0
78000000 0.004015333621280279 0.009808319847873528 0.3243420327181778 -0.03589061705608551 0 0 0 0
81900000 0.0042990053093244236 0.010158097462683983 0.32375543066266627 -0.03785393030641988 0 0 0 0
85800000 0.00480723491688262 0.010538677184056764 0.3235224973162197 -0.03934077233276666 0 0 0 0
89700000 0.005201661644890082 0.011046310556506487 0.3230176968567571 -0.04139338692630496 0 0 0 0
93600000 0.005533580745279655 0.01074044166298851 0.32238339397432525 -0.0429935553098455 0 0 0 0
97500000 0.005327725989932035 0.010935126031831584 0.32195963310513537 -0.04478893138329542 0 0 0 0
101400000 0.006025300622187879 0.01092814950886355 0.32163498380594385 -0.04655481732879182 0 0 0 0
105300000 0.006135945750485793 0.011018450023130115 0.32150130447428465 -0.04825585296692978 0 0 0 0
109200000 0.005946076988549868 0.011106946433523156 0.3207305996805559 -0.04954674772286402 0 0 0 0
113100000 0.006140023866240402 0.010690251031161255 0.3204043332705814 -0.05118476150300789 0 0 0 0
117000000 0.006585932048897079 0.01050118131529498 0.319610610275425 -0.05295283020385078 0 0 0 0
120900000 0.006424718015469465 0.010429686269582362 0.31965306362432583 -0.054174370668020715 0 0 0 0
124800000 0.006610741599907713 0.0099449442643598 0.3191407235431193 -0.05601324015510997 0 0 0 0
128700000 0.007250719912041664 0.010214156469459262 0.319106715905281 -0.05759622595065927 0 0 0 0
132600000 0.007416944713725329 0.00956012895658054 0.31886841418199685 -0.05875228688957136 0 0 0 0
136500000 0.007792306018438367 0.009582943164532788 0.31860931559939354 -0.06068343998318525 0 0 0 0
140400000 0.006508917458658191 0.01014539246472951 0.3185828918481097 -0.06263157578148558 0 0 0 0
144300000 0.00637187858619881 0.009936006123894506 0.318789788910451 -0.06419886208256301 0 0 0 0
148200000 0.006038253216301706 0.010245475697118834 0.3184380243291463 -0.06571972934908027 0 0 0 0
152100000 0.006168870959531568 0.010387150700652317 0.31822632250341826 -0.06739702563745148 0 0 0 0
156000000 0.005752418843021814 0.009857572503248348 0.31830854226768024 -0.06916954340111509 0 0 0 0
159900000 0.00593377900149024 0.010150124684213077 0.3179600034676895 -0.07048420281524352 0 0 0 0
163800000 0.005629183033033953 0.010183276194400235 0.317767030662639 -0.07227093181580016 0 0 0 0
167700000 0.0056570437690449645 0.01007220368061021 0.31724167115071134 -0.07463855453675082 0 0 0 0
171600000 0.00505411862283925 0.010312286235881646 0.3169460267638282 -0.07618856956648216 0 0 0 0
175500000 0.0051609927217136035 0.01049461618130132 0.31693413317498303 -0.07794749035362246 0 0 0 0
179400000 0.00448143055831075 0.010952384553142756 0.31618733292811485 -0.07951541801623138 0 0 0 0
183300000 0.004072121972293773 0.011170188338980203 0.3158218446931803 -0.08176502697038854 0 0 0 0
187200000 0.0036697172241822815 0.011095588036426164 0.31583406036918893 -0.0834200996819408 0 0 0 0
191100000 0.0035415675598588323 0.011912457088062737 0.31505585890041926 -0.08575730381207806 0 0 0 0
195000000 0.0029293781928730303 0.012026584730818668 0.31468305719149986 -0.08741618064395235 0 0 0 0
198900000 0.0029684768444106645 0.012615786550894365 0.31406916774306276 -0.08919611405177139 0 0 0 0
202800000 0.0024981186728853227 0.012800675591943918 0.31368298976235065 -0.09095233114687462 0 0 0 0
206700000 0.0019572725977042506 0.013422229332235793 0.31276418675125595 -0.09265277524676202 0 0 0 0
210600000 0.0018991552171160027 0.013774900463522283 0.3122985077717811 -0.09461231638115024 0 0 0 0
214500000 0.0014922386248565522 0.014122198847780435 0.3117160688155768 -0.09663926610891717 0 0 0 0
218400000 0.0010124578875746878 0.014580421562528464 0.3103960284260904 -0.09848024226229223 0 0 0 0
222300000 0.0007822233657766422 0.015400313891890843 0.31042893645240166 -0.10000031757929587 0 0 0 0
226200000 0.0006533164212160636 0.015960656973073167 0.3098262371653444 -0.10141335420495723 0 0 0 0
230100000 0.00012947513506354855 0.016590126255937566 0.30884068235036627 -0.10302319950281644 0 0 0 0
234000000 0.00021133314428138747 0.017626321761759562 0.3077024642729301 -0.10470934855776484 0 0 0 0
237900000 -0.0002772600228477089 0.0181550171505153 0.3073637040381169 -0.10638035565827753 0 0 0 0
241800000 7.281227854371746e-05 0.018865302013928664 0.306252194945973 -0.10797571080301283 0 0 0 0
245700000 -0.00030083587886743185 0.01983717893978896 0.30564994727851846 -0.10960753312909602 0 0 0 0
249600000 -0.00034457247329531464 0.020438374946849174 0.3047259342423242 -0.11091500673867395 0 0 0 0
253500000 -0.00015526978204823068 0.021071783487501806 0.30405202071367016 -0.11197178991440437 0 0 0 0
257400000 -5.047391381941699e-08 0.02151109805925263 0.30358002156334146 -0.11428832463264187 0 0 0 0
261300000 -7.373939697050008e-05 0.022664745919122344 0.30329305992310185 -0.11539595581277347 0 0 0 0
265200000 0.00017324958750466877 0.0232627408313904 0.3027784325599405 -0.11670744933159748 0 0 0 0
269100000 0.00030152161112744527 0.023961445491678217 0.3016599486494104 -0.11810893745345909 0 0 0 0
273000000 0.0005726936914561221 0.025048217823501022 0.3010815439526752 -0.11992115914590018 0 0 0 0
276900000 0.0008716915898624757 0.025977859094076072 0.30084849534574637 -0.12187044940022375 0 0 0 0
280800000 0.0009249967512767202 0.026499288552959313 0.30062072075107615 -0.12250514385806816 0 0 0 0
284700000 0.001540251103865788 0.02714444631741351 0.2996708105738224 -0.12481552623670235 0 0 0 0
288600000 0.0016187865237889852 0.0279834470882307 0.29916274513096247 -0.12657220772042319 0 0 0 0
292500000 0.0020505381046332263 0.028917463976958258 0.2989758383920612 -0.12778447994759928 0 0 0 0
296400000 0.0024213973698436722 0.029512764682077156 0.29805941143914333 -0.12950899429544782 0 0 0 0
300300000 0.0030969444033454156 0.029779349469061404 0.29748874045722384 -0.13149839016478326 0 0 0 0
304200000 0.003323224802044239 0.03046766565771636 0.2957638024951443 -0.1327553594153859 0 0 0 0
308100000 0.0034784712091991974 0.030837114599922104 0.2961005499687537 -0.13476139134894058 0 0 0 0
312000000 0.004151082772144092 0.03161472275535408 0.2956502646211298 -0.13689559433219986 0 0 0 0
315900000 0.004596909710252083 0.03178774358051804 0.2948626376355392 -0.13804586749857178 0 0 0 0
319800000 0.004950693872081448 0.03237862010230056 0.2940691408945508 -0.13987133158736217 0 0 0 0
323700000 0.005501746773628684 0.032723167152619005 0.2935053804960102 -0.1416482044261135 0 0 0 0
327600000 0.006009469374696373 0.03328183231303435 0.2924644892651259 -0.14332862508387637 0 0 0 0
331500000 0.006249588179184603 0.03344066882318227 0.29158429464595603 -0.14497667985744786 0 0 0 0
335400000 0.00686216683922038 0.033887282113330267 0.290735793204182 -0.14644771482725394 0 0 0 0
339300000 0.007239627249798475 0.0339174136574285 0.2894543263297399 -0.1479840001505483 0 0 0 0
343200000 0.008159872307845812 0.0341480911571145 0.28824363466349223 -0.15007697592827807 0 0 0 0
347100000 0.008606650304553102 0.03428047156494819 0.2875364673872329 -0.1515034930314135 0 0 0 0
351000000 0.009056638259430825 0.03440973601372955 0.2863728052776612 -0.15308286977233385 0 0 0 0
354900000 0.009291831452511763 0.03444408783737923 0.2850127745207107 -0.15443726360446322 0 0 0 0
358800000 0.009731452305973928 0.03438661282283536 0.2844825223297943 -0.1555183463073917 0 0 0 0
362700000 0.010369673971086433 0.03459195228154977 0.283421302429954 -0.15736737676707951 0 0 0 0
366600000 0.01047463747773247 0.03422574102058949 0.28262174761368253 -0.158342571052833 0 0 0 0
370500000 0.010380975643192398 0.03439330354435003 0.2815369052417341 -0.15989633523355587 0 0 0 0
374400000 0.01096999609349148 0.034170972343252316 0.2802735478005432 -0.16129572722826072 0 0 0 0
378300000 0.011366624300417334 0.034268866285582976 0.2799942270388507 -0.16239447239796456 0 0 0 0
382200000 0.011651820586784257 0.034334181738323935 0.2787816276185185 -0.16413335662700596 0 0 0 0
386100000 0.011697231879983868 0.0343179156285825 0.27855214098664216 -0.16544088727060627 0 0 0 0
390000000 0.01176046963009373 0.0337756490393212 0.2770204613035996 -0.1663159151646113 0 0 0 0
393900000 0.011707396070507792 0.034483789329105945 0.276445123514923 -0.16774308738476737 0 0 0 0
397800000 0.011797995016118902 0.034427821781152314 0.27590572110680545 -0.16938711678477758 0 0 0 0
401700000 0.011818736646351052 0.03410007608285339 0.27485004920747313 -0.1710406859047927 0 0 0 0
405600000 0.011581807057829107 0.03402990059800108 0.2735266955826428 -0.1723567071260072 0 0 0 0
409500000 0.011919329383446954 0.033705893897080834 0.27324860681628294 -0.17355045861235327 0 0 0 0
413400000 0.011602396185473212 0.03366981454809571 0.2723448577784984 -0.17520382753601504 0 0 0 0
417300000 0.011344520830212592 0.03336434397002498 0.27123474116176893 -0.17656460118403952 0 0 0 0
421200000 0.01134929370298172 0.033110507542725744 0.2709018235499146 -0.17832781300881528 0 0 0 0
425100000 0.011455583838360935 0.03309475875652782 0.26964085194953497 -0.17940180955625692 0 0 0 0
429000000 0.011373686951065429 0.03253839561276563 0.26902185566362213 -0.18072289588587492 0 0 0 0
432900000 0.010852619788074008 0.03242373480416137 0.2684644469881287 -0.1816556058708871 0 0 0 0
436800000 0.010334979601617365 0.03252084293751775 0.26751215947737916 -0.18379849882449886 0 0 0 0
440700000 0.010267317564375598 0.03307865823580681 0.2661079197979535 -0.18590494010420425 0 0 0 0
444600000 0.009529581466765056 0.03300149936713029 0.2649038841342037 -0.18745597950924628 0 0 0 0
448500000 0.00936438587458756 0.03309499861223022 0.2643039133643406 -0.18844374873276434 0 0 0 0
452400000 0.008590185267207383 0.033374921998384675 0.26383902372566215 -0.1900023670469209 0 0 0 0
456300000 0.00843224965905675 0.033080628338722454 0.2598498598215802 -0.190369887215988 0 0 0 0
460200000 0.007949210406839817 0.033820083948647654 0.2607307186916744 -0.19348017829931696 0 0 0 0
464100000 0.007273775004769133 0.03388172267822013 0.2600595047052046 -0.19468807463435836 0 0 0 0
468000000 0.007203558900938796 0.03378887073675959 0.2589393546816663 -0.19622121535989695 0 0 0 0
471900000 0.006922574843130933 0.03434635370632782 0.25814450132202804 -0.1976821709888223 0 0 0 0
475800000 0.006634202206764605 0.03490125667597936 0.2570182964654101 -0.19875036115282022 0 0 0 0
479700000 0.006003704680725568 0.03548619761697463 0.25693030409401524 -0.20084567316668872 0 0 0 0
483600000 0.005430380124408307 0.03571661791178354 0.2539841264661767 -0.20165140127016787 0 0 0 0
487500000 0.004878608788220528 0.036300712935079096 0.25328457839557217 -0.2029364756307891 0 0 0 0
491400000 0.005052885739216357 0.036658591590145284 0.2519340049783215 -0.204468365526744 0 0 0 0
495300000 0.004358135523697018 0.03745062329053714 0.25032153849970257 -0.20542617728748336 0 0 0 0
499200000 0.00422545623144232 0.038099651701451284 0.24945031754454985 -0.20690084282028323 0 0 0 0
503100000 0.003972616165813192 0.0391883871204061 0.24824815540867268 -0.20837516226315428 0 0 0 0
507000000 0.0038483786242831594 0.03984856492821903 0.24736784465414186 -0.20957641976244726 0 0 0 0
510900000 0.0034395005286688217 0.04059663770065356 0.24647909844771526 -0.21059805150680733 0 0 0 0
514800000 0.0034549466816062814 0.04102958359721912 0.2450337159685712 -0.2119377306505555 0 0 0 0
518700000 0.0033979978244198903 0.041998254907652764 0.2438978577632006 -0.2131371845789235 0 0 0 0
522600000 0.0029230927939112423 0.042665750337855655 0.242769322424453 -0.2144155085367364 0 0 0 0
526500000 0.0030878612548435502 0.043491177346242776 0.24210455625513316 -0.2152782613498717 0 0 0 0
530400000 0.003376599070226391 0.04416959086938668 0.24054193782330865 -0.2175198390305987 0 0 0 0
534300000 0.0029601390093607453 0.04511900234707161 0.23921093426608586 -0.2186463350179639 0 0 0 0
538200000 0.00291001944209102 0.046050889307254345 0.23810883161989688 -0.2198762497775027 0 0 0 0
542100000 0.003513219223742995 0.04687152766750492 0.2370666853727848 -0.2213479777541386 0 0 0 0
546000000 0.00390997749651372 0.047041784537537656 0.23582700637990567 -0.22252635696579168 0 0 0 0
549900000 0.004321677706648012 0.04757053779207921 0.23436656935934852 -0.2238728340369344 0 0 0 0
553800000 0.004833960267383984 0.04863354834162169 0.2335334271072696 -0.2254841223781975 0 0 0 0
557700000 0.004664008071143871 0.04962078659713238 0.23211481237999895 -0.22616645480573752 0 0 0 0
561600000 0.004669014251351568 0.049769259308652544 0.23103436589787865 -0.2282532126350642 0 0 0 0
565500000 0.005991115342084848 0.05055513658356403 0.22918447972790906 -0.22916517030243005 0 0 0 0
569400000 0.005832276421215787 0.05102219150477438 0.2289622439837526 -0.2304833076957637 0 0 0 0
573300000 0.006695689964620071 0.052174034242604424 0.22648868357050222 -0.23248023525868816 0 0 0 0
577200000 0.007040125876099599 0.05274658652713392 0.2251986510803552 -0.23371769495451009 0 0 0 0
581100000 0.007413581777463069 0.0534916830452397 0.2236811490909137 -0.2345512936294847 0 0 0 0
585000000 0.007898885527744554 0.053870886299201746 0.2222982792547258 -0.2364810914238585 0 0 0 0
588900000 0.008729827862015482 0.05390931491247796 0.2207326928722224 -0.23714308565729283 0 0 0 0
592800000 0.009016751335231766 0.054073458973678844 0.21882071705018385 -0.23836979252595067 0 0 0 0
596700000 0.009570554464307204 0.054940537551243736 0.2172050673032818 -0.23995080923984285 0 0 0 0
600600000 0.010593834992181013 0.05473674660305109 0.21691325155464544 -0.24024799069252906 0 0 0 0
604500000 0.011233936347856585 0.05517015298717659 0.21541354674294863 -0.24140154218414167 0 0 0 0
608400000 0.011706953299227408 0.055501783161015464 0.2143934256341307 -0.2420687968305652 0 0 0 0
612300000 0.012280406664618042 0.05566406993949137 0.21240578208600847 -0.24391360093596154 0 0 0 0
616200000 0.012680122792968058 0.055810568388941155 0.20981414890579997 -0.2437623408595653 0 0 0 0
620100000 0.013867669922975228 0.05583538949278195 0.20894960915744162 -0.24480265160958756 0 0 0 0
624000000 0.014439769621457262 0.05614804513513481 0.20824569312082064 -0.24680117852672803 0 0 0 0
627900000 0.0148450194819193 0.055805203840497225 0.20712324161143914 -0.24773508282176032 0 0 0 0
631800000 0.015913697990356496 0.05621154628274273 0.2034461066784024 -0.24697414655740943 0 0 0 0
635700000 0.016192536126415438 0.056110293804867026 0.203341783227308 -0.24786712025977017 0 0 0 0
639600000 0.01680419968305767 0.05587011523985506 0.2021583925756768 -0.2496216594641055 0 0 0 0
643500000 0.016940034700364384 0.05575865504181687 0.20156120607766212 -0.2507524953716499 0 0 0 0
647400000 0.01753315741635614 0.055731492130428745 0.2013871963306647 -0.250867694771477 0 0 0 0
651300000 0.017819270755487098 0.055565129966232585 0.19910992452451043 -0.252043057630685 0 0 0 0
655200000 0.018076398297464304 0.05520346011338528 0.19750177076726405 -0.2528253594841547 0 0 0 0
659100000 0.018416986358958807 0.05466128509626526 0.19714944716307095 -0.2536023704987873 0 0 0 0
663000000 0.019171718669478442 0.054553030588544306 0.19564426702541637 -0.2543883148482155 0 0 0 0
666900000 0.0188457911080324 0.05441821806175555 0.19467640915506687 -0.2561883847790857 0 0 0 0
670800000 0.018558616249133665 0.054226344015910206 0.19316198040928712 -0.25676359102949375 0 0 0 0
674700000 0.018976534436627758 0.053537309970035266 0.1917871356774658 -0.25779278057440924 0 0 0 0
678600000 0.019009230939820078 0.052766105468614086 0.19081445782411255 -0.25923804069078804 0 0 0 0
682500000 0.019017291508700927 0.053021719274429786 0.18936088846760096 -0.2601774860588933 0 0 0 0
686400000 0.018599765713860694 0.0527700199841989 0.18868759225421708 -0.26092817017305087 0 0 0 0
690300000 0.018762786514322838 0.05305836054516742 0.186452100668186 -0.2623242233486302 0 0 0 0
694200000 0.018853947603645383 0.05220545968834649 0.18481802672743786 -0.2628193283298669 0 0 0 0
698100000 0.018570796733785637 0.05164920207624158 0.1845054904649546 -0.2644666216883517 0 0 0 0
702000000 0.018049870097989227 0.05130703686956982 0.18292145360780046 -0.26625604294470556 0 0 0 0
705900000 0.01748733149343087 0.051223862908821347 0.18107209273674163 -0.26745015521120996 0 0 0 0
709800000 0.017353634017896184 0.05094151870452598 0.17921737355833905 -0.26713700051985 0 0 0 0
713700000 0.017250225021251744 0.05090839746061903 0.17715716520926664 -0.2692223253526144 0 0 0 0
717600000 0.016716875522763477 0.0504525366886093 0.1769363820204783 -0.26948801878165884 0 0 0 0
721500000 0.016781014391604395 0.050196476562892264 0.17369623330492454 -0.2707968603626957 0 0 0 0
725400000 0.015522157065481077 0.05033377121398909 0.17533928342544883 -0.2717498724356344 0 0 0 0
729300000 0.01509045369200668 0.050381239344283416 0.1727354413467664 -0.2721409787912736 0 0 0 0
733200000 0.01534936769373477 0.049829925067676376 0.1713564107391136 -0.27340547846445773 0 0 0 0
737100000 0.014177488511460765 0.04982224635286216 0.17000394886954734 -0.2741231671974699 0 0 0 0
741000000 0.01411030915938655 0.050757446630623655 0.16842858601276872 -0.2749981117000378 0 0 0 0
744900000 0.0136160899060656 0.05040934246837648 0.1668880429960114 -0.27620794261795134 0 0 0 0
748800000 0.012880624872833916 0.05065022161471464 0.16438650155211043 -0.2774660920356134 0 0 0 0
752700000 0.012358617550727828 0.05123200776539904 0.1637210293526731 -0.27822195985501036 0 0 0 0
756600000 0.01208520878296345 0.05120977437111799 0.16294350201202665 -0.2785723023757323 0 0 0 0
760500000 0.011822513852814963 0.052141617124796584 0.1606657633725024 -0.2799768693833287 0 0 0 0
764400000 0.011119753678474044 0.052542025602547324 0.15996531606659026 -0.2799142875969342 0 0 0 0
768300000 0.010556673032695333 0.05283954336778805 0.15898506525888037 -0.281669081253225 0 0 0 0
772200000 0.010013496817830642 0.053635733848695986 0.1565703820869992 -0.28302973349067206 0 0 0 0
