# HZ S RI R 50
3900000 0.9999629589678072 -0.0036530411360489357 0.6412808863107918 -0.00997546820147277 0 0 0 0
7800000 0.9997180746190168 -0.00641003900314762 0.64122581511267 -0.021015743650651245 0 0 0 0
11700000 0.9997015366818676 -0.009473013857259766 0.641422272598419 -0.030144093122651087 0 0 0 0
15600000 0.9996899169744795 -0.012000917028897107 0.6417816898094929 -0.041323094070177174 0 0 0 0
19500000 0.9999649275397502 -0.014594097585605677 0.6412424845564373 -0.052145496229579216 0 0 0 0
23400000 1.0005782703336359 -0.017395074012514434 0.6417583330779076 -0.06364511456586733 0 0 0 0
27300000 1.0003851737159961 -0.021431503126081303 0.6418230452143311 -0.07451422631122219 0 0 0 0
31200000 1.0010390863677026 -0.02347769361214488 0.6423157267416886 -0.08599077994572508 0 0 0 0
35100000 0.999812918519473 -0.02561179866634488 0.6408224429721924 -0.09720618833242972 0 0 0 0
39000000 1.0008086755647299 -0.02904593325723349 0.6397702729702761 -0.10936137649890655 0 0 0 0
42900000 1.0013730868134205 -0.03242060097232995 0.6394010417584852 -0.12083215792680492 0 0 0 0
46800000 1.000412865814559 -0.035662648280982416 0.6367932560235549 -0.1329324972176294 0 0 0 0
50700000 1.0017431423448215 -0.03832520006596912 0.6351574097045884 -0.1448158744446451 0 0 0 0
54600000 1.0012640909473025 -0.04089004812779038 0.6324569664643178 -0.15720233297081004 0 0 0 0
58500000 1.001658194691262 -0.0431688577733388 0.6301319140983939 -0.16850097234987368 0 0 0 0
62400000 1.001891877427204 -0.045897162544249595 0.6270585269472668 -0.18008802772554733 0 0 0 0
66300000 1.0012742523402574 -0.04886171347173191 0.6233101217946435 -0.19135838823207096 0 0 0 0
70200000 1.0015321455188977 -0.05286234237349264 0.6194175752836963 -0.20430308037265493 0 0 0 0
74100000 1.003157814021154 -0.05625443331606228 0.6157363145343099 -0.21537160167888592 0 0 0 0
78000000 1.001712332267083 -0.05824191090374988 0.6117300686728122 -0.22681071665826852 0 0 0 0
81900000 1.0027234456732745 -0.059974859086732106 0.6072738575476849 -0.23755029532245933 0 0 0 0
85800000 1.0019693414869177 -0.06384239431681361 0.6025695344444296 -0.24807889008580508 0 0 0 0
89700000 1.0030001434355835 -0.06672586362570815 0.5974336953712899 -0.25932448314602313 0 0 0 0
93600000 1.0025264693195886 -0.06863093432471168 0.5923359682959017 -0.26988716114975303 0 0 0 0
97500000 1.002878584185385 -0.07211430351894228 0.5874839695272606 -0.2809400333500512 0 0 0 0
101400000 1.003144725307962 -0.07424114537222365 0.5816928333837834 -0.290195154656485 0 0 0 0
105300000 1.002859641213671 -0.0765576379857459 0.576344624734538 -0.30041390923468125 0 0 0 0
109200000 1.0031676574454524 -0.07993955896672594 0.5706400667367266 -0.3107047039513829 0 0 0 0
113100000 1.0035553718087387 -0.08272832095793153 0.5654834021906904 -0.3203432450298837 0 0 0 0
117000000 1.0047931813753508 -0.08641126008838909 0.5593383759329685 -0.3302127093838131 0 0 0 0
120900000 1.0043251923320364 -0.08877294574015247 0.5540462183666894 -0.3398980492929491 0 0 0 0
124800000 1.0045997531554318 -0.0922580839407285 0.5484534511892525 -0.34921786579792924 0 0 0 0
128700000 1.0058177375061628 -0.09464088887042024 0.5422918151256907 -0.3599073900902299 0 0 0 0
132600000 1.0054585653114378 -0.09958507105861494 0.53516040108984 -0.36892700715279203 0 0 0 0
136500000 1.0044346782602853 -0.10078596125782714 0.5293776174238182 -0.3783352418635728 0 0 0 0
140400000 1.0060888740334257 -0.10496541195460439 0.5095291268927304 -0.3859354162761425 0 0 0 0
144300000 1.005633491928727 -0.10833177072777439 0.5421791889298243 -0.36338579593057957 0 0 0 0
148200000 1.0065106361699911 -0.11157685082574179 0.4902067775608065 -0.43327791585960285 0 0 0 0
152100000 1.0080636228937578 -0.11480401737450047 0.4685270500951849 -0.4476563237014995 0 0 0 0
156000000 1.0068681439429126 -0.11711537249733776 0.48322208055967025 -0.4327086397059743 0 0 0 0
159900000 1.0073996380271197 -0.1205211010565976 0.48950242429662943 -0.42809378808764276 0 0 0 0
163800000 1.0077845055775758 -0.12338149054706021 0.4753013313398955 -0.4359732089786803 0 0 0 0
167700000 1.0052752616649052 -0.12652207322914127 0.5050617247514493 -0.4162547334441621 0 0 0 0
171600000 1.0080688359172354 -0.12997865504325642 0.478817974406557 -0.4494484484876794 0 0 0 0
175500000 1.0092445660533367 -0.13353830263164637 0.425070450964873 -0.4932601275723164 0 0 0 0
179400000 1.010221487453923 -0.13775014787129547 0.4014392348914248 -0.5037750457461608 0 0 0 0
183300000 1.0095116026428466 -0.13991573494747592 0.4178349138724301 -0.49502519659827876 0 0 0 0
187200000 1.0084664616491916 -0.1442912268612119 0.4199174431855342 -0.49686917616140214 0 0 0 0
191100000 1.009782434749312 -0.14557483688016776 0.4237879511371012 -0.49323091036353583 0 0 0 0
195000000 1.0092599062848497 -0.15030085547989572 0.41048327564301107 -0.5031039202572839 0 0 0 0
198900000 1.008981178061586 -0.1531277826854873 0.4170487890524603 -0.4999107183009506 0 0 0 0
202800000 1.0088193586572631 -0.15463495624806722 0.4398366553292416 -0.4927846716683249 0 0 0 0
206700000 1.0106314600352142 -0.15932242899480079 0.39284062836799344 -0.5255260546407897 0 0 0 0
210600000 1.0130729903109221 -0.16435497624146672 0.354414605018684 -0.5492174346420424 0 0 0 0
214500000 1.0142573833269135 -0.16675861390662977 0.31511804320320447 -0.5674844002239786 0 0 0 0
218400000 1.0136889023626856 -0.1716941609116694 0.30191024758413093 -0.5691234459679122 0 0 0 0
222300000 1.0136080636861142 -0.17361441008317052 0.32869363632795895 -0.5564332098342788 0 0 0 0
226200000 1.014700519393778 -0.178005123967794 0.31118981553493696 -0.5675296940492575 0 0 0 0
230100000 1.013453332503284 -0.18085316892999267 0.3074197547524279 -0.568594983548973 0 0 0 0
234000000 1.0137300264157918 -0.1855491022839205 0.3048605534155631 -0.5709723333809009 0 0 0 0
237900000 1.0132579177740444 -0.18829453057347853 0.3293196284734074 -0.5572825369865768 0 0 0 0
241800000 1.0117601566706578 -0.19006981069644144 0.3308982872672165 -0.559926382434708 0 0 0 0
245700000 1.0129277340225982 -0.19458703253421003 0.30990982492546076 -0.5722262960082527 0 0 0 0
249600000 1.011646112723563 -0.19800945402236456 0.3322669281497807 -0.559240632520596 0 0 0 0
253500000 1.0128910372711395 -0.2027001934973711 0.2983201024769938 -0.5792056255098595 0 0 0 0
257400000 1.0166679799524723 -0.20611428524596856 0.23120873110948548 -0.6139223605701252 0 0 0 0
261300000 1.0183681186429276 -0.21111397407094537 0.1997237057470948 -0.6240404053139924 0 0 0 0
265200000 1.0189832019195364 -0.21454966224568559 0.18274238833903653 -0.6276535219696181 0 0 0 0
269100000 1.0196837357868798 -0.21855055518353597 0.16291768399423984 -0.6299757731355906 0 0 0 0
273000000 1.019696403990094 -0.22379474040398664 0.1458097274692847 -0.6360594109741222 0 0 0 0
276900000 1.0202489861883821 -0.22768346743100784 0.13024709494724857 -0.6408814154969146 0 0 0 0
280800000 1.0211463311464506 -0.23018222123850268 0.1240915911340556 -0.6503010843773618 0 0 0 0
284700000 1.0202776238681572 -0.23326800069971412 0.11356933435022872 -0.645617916102388 0 0 0 0
288600000 1.0200999646070656 -0.2378604411027133 0.11394315428138037 -0.6366311269820185 0 0 0 0
292500000 1.0190719644893396 -0.24186877030758464 0.1246370721911052 -0.631561252738759 0 0 0 0
296400000 1.018310023558167 -0.2462481681051622 0.1309554020341619 -0.6297730600002654 0 0 0 0
300300000 1.0188229442346322 -0.2483631875570418 0.1168259759511065 -0.6303762944765019 0 0 0 0
304200000 1.0175807813013298 -0.2525140093065663 0.11783108514253127 -0.6253961547928865 0 0 0 0
308100000 1.0151888697639728 -0.2552122295602817 0.16149210532924202 -0.6188814006657449 0 0 0 0
312000000 1.0097216002069134 -0.25672842966262616 0.20241114488590867 -0.6172886731398347 0 0 0 0
315900000 1.0105665165343416 -0.2607974790794609 0.1913064413020656 -0.6162008839996546 0 0 0 0
319800000 1.0115956014426415 -0.2629774062069728 0.1900187366335034 -0.6134486873693143 0 0 0 0
323700000 1.0161214964295024 -0.2701788049712803 0.11417630099633275 -0.6265121271757009 0 0 0 0
327600000 1.0171974335026415 -0.27397060462409545 0.08135064470402331 -0.6284029765392742 0 0 0 0
331500000 1.0144093863169212 -0.2774154885425408 0.10875713396439682 -0.6297781352142262 0 0 0 0
335400000 1.0126148468596714 -0.27976660998697794 0.130601322524238 -0.6361635219082741 0 0 0 0
339300000 1.0108123121041932 -0.2823220246835828 0.12425058330165534 -0.636827137670907 0 0 0 0
343200000 1.0108137327867563 -0.28723462392961663 0.10489292287096867 -0.6367189481760581 0 0 0 0
347100000 1.0180160706975387 -0.2906527302890978 0.02938750641094565 -0.6535594674945753 0 0 0 0
351000000 1.0234233695072141 -0.30320422486642395 -0.08657534041886505 -0.6542437226605722 0 0 0 0
354900000 1.0257463716627355 -0.30942052821589255 -0.13401088723981858 -0.6407679164413246 0 0 0 0
358800000 1.0262513643465458 -0.3142642301882857 -0.15373259407602521 -0.627745397714522 0 0 0 0
362700000 1.0245427975265413 -0.3183665001615071 -0.1603842384085126 -0.6188859300400033 0 0 0 0
366600000 1.0252957541177665 -0.32262582043149957 -0.16748461040846457 -0.6137965507880195 0 0 0 0
370500000 1.0247609328081948 -0.32599407777650774 -0.17613390957115757 -0.6084753767070636 0 0 0 0
374400000 1.0267272715074962 -0.3294888797956708 -0.18894206760677756 -0.6036449323017392 0 0 0 0
378300000 1.0268149781309948 -0.3348975648213221 -0.2041798851921334 -0.5994455376156963 0 0 0 0
382200000 1.0270715994889728 -0.3408449197364735 -0.21978554652189797 -0.5921853192380453 0 0 0 0
386100000 1.0262300439115453 -0.3431581766822248 -0.23277219021147288 -0.5855800721922045 0 0 0 0
390000000 1.0228435045016966 -0.3514453296832834 -0.2466096093145728 -0.5800216164137453 0 0 0 0
393900000 1.0224620433229579 -0.35422293935258226 -0.2569909935374509 -0.5792465268813299 0 0 0 0
397800000 1.0243184185650882 -0.35850147762764945 -0.26028041728262113 -0.5759501293346581 0 0 0 0
401700000 1.022229135516905 -0.3618458355135039 -0.25595536883314973 -0.5694591707019806 0 0 0 0
405600000 1.0180922972233755 -0.36450948482737183 -0.24429687403088773 -0.5665545460654342 0 0 0 0
409500000 1.0177613197567614 -0.36764202837654847 -0.2331193542786082 -0.56958517946332 0 0 0 0
413400000 1.013776767117895 -0.37215056689304493 -0.2268079205754205 -0.573079446841018 0 0 0 0
417300000 1.0140899844745621 -0.3751833393542346 -0.22597127622950391 -0.5722268293258639 0 0 0 0
421200000 1.0127525801621602 -0.3796230928667674 -0.22881867777302622 -0.5708655759021382 0 0 0 0
425100000 1.0127315836227833 -0.38197228514292 -0.2268505612069384 -0.5701770841620779 0 0 0 0
429000000 1.0124488116506363 -0.385700903796539 -0.21787094090884407 -0.5776476283624644 0 0 0 0
432900000 1.0110710544929744 -0.38913143006129064 -0.2138895384701478 -0.5827059464179023 0 0 0 0
436800000 1.0060102046413297 -0.39057636660644696 -0.19853243868978515 -0.6003230609560052 0 0 0 0
440700000 1.0067297578427619 -0.3917604898632202 -0.1953577657377187 -0.6080221070140175 0 0 0 0
444600000 1.0104094565002553 -0.40192425193568315 -0.2391683691032795 -0.5746804325943328 0 0 0 0
448500000 1.0046533914930673 -0.3967251722317372 -0.1830751195131119 -0.630559175964861 0 0 0 0
452400000 1.000910630540752 -0.3910684604906142 -0.13260159253760798 -0.6782232423871943 0 0 0 0
456300000 1.0034733139231 -0.4076927226771318 -0.16574160460846205 -0.6095865170854387 0 0 0 0
460200000 0.9992942951831741 -0.4095917342046975 -0.18524815622200214 -0.6278468042742167 0 0 0 0
464100000 1.00422884884485 -0.419436101516394 -0.23201720904488343 -0.5891409843818027 0 0 0 0
468000000 1.0059891702017945 -0.4256972806021256 -0.27089543734459254 -0.5732110139106046 0 0 0 0
471900000 1.0056042954083009 -0.4310784916918484 -0.27942017290671706 -0.5691549658119047 0 0 0 0
475800000 1.0035400825774123 -0.434486896331151 -0.2808500877369845 -0.5676896149447118 0 0 0 0
479700000 1.0027323031240192 -0.43938685950779266 -0.27840609752252127 -0.5719487412203751 0 0 0 0
483600000 0.9970163376012604 -0.4400957084450805 -0.2744073435005841 -0.5824767588375301 0 0 0 0
487500000 0.9960848817438194 -0.4399435365267873 -0.2694217038798222 -0.6021603114868271 0 0 0 0
491400000 0.9941945817231955 -0.4427565926486516 -0.2691328419481976 -0.6094528590569576 0 0 0 0
495300000 0.9916718308320767 -0.44662053726111733 -0.2692534681147757 -0.605634759865177 0 0 0 0
499200000 0.99211703353997 -0.4509546316319062 -0.2802746323559392 -0.5955135602505918 0 0 0 0
503100000 0.9923944370672674 -0.45899264591696903 -0.3280857927349426 -0.5750960186179634 0 0 0 0
507000000 1.0005411161878233 -0.47175357376786636 -0.4059919880712782 -0.5307385833901349 0 0 0 0
510900000 1.0016405595544828 -0.48176721248268795 -0.45005929567201874 -0.5014306927180294 0 0 0 0
514800000 1.001490255502277 -0.485780133901031 -0.46284310070724416 -0.4947511468019647 0 0 0 0
518700000 0.9977917747681864 -0.48558116379153066 -0.44003532149791597 -0.5189709708405321 0 0 0 0
522600000 0.9906262021616545 -0.48134411338405597 -0.38752448263626926 -0.5514756341993674 0 0 0 0
526500000 0.9886745193458065 -0.4856627464029731 -0.39221090048558754 -0.5433833649396548 0 0 0 0
530400000 0.9922751233356203 -0.49925725057171433 -0.4646652889763014 -0.4902706042915584 0 0 0 0
534300000 1.0005607340853608 -0.5237507567715481 -0.5513568892366862 -0.39853637455586144 0 0 0 0
538200000 1.002706141626728 -0.5346182259868647 -0.5808590982588107 -0.3497137193748169 0 0 0 0
542100000 1.00288506049778 -0.5421961302008109 -0.5954217740655169 -0.3198764871632207 0 0 0 0
546000000 1.0012855597971742 -0.5503862731939847 -0.6071473967273188 -0.29383756917004944 0 0 0 0
549900000 1.001643632462669 -0.5588009179336165 -0.6180494935942649 -0.2751904095236798 0 0 0 0
553800000 0.9938809734645891 -0.5651882964043252 -0.6189680329582314 -0.2545680121097515 0 0 0 0
557700000 0.9964965810606846 -0.5701848634558476 -0.6272946962655943 -0.23938069900303882 0 0 0 0
561600000 0.9988607954783936 -0.5730028531656819 -0.636129190178847 -0.21969737762344313 0 0 0 0
565500000 0.9941048419254055 -0.5852151720535289 -0.6396202845101381 -0.19716216088100985 0 0 0 0
569400000 0.9958142553617564 -0.5924023401936326 -0.6474868190166156 -0.17640909949405445 0 0 0 0
573300000 0.9899699164953403 -0.5986913635403811 -0.6440520564456308 -0.15101592806649577 0 0 0 0
577200000 0.9875095045988302 -0.6066418858647469 -0.6406705747549575 -0.12724022742065508 0 0 0 0
581100000 0.9860954925408095 -0.6118668498275563 -0.6331929392875242 -0.10450268054078599 0 0 0 0
585000000 0.9793886646664396 -0.6190831651393465 -0.6232239748546713 -0.0830535198393651 0 0 0 0
588900000 0.9753799671865931 -0.6283540886734027 -0.6121702717875624 -0.06806303874768646 0 0 0 0
592800000 0.9715582328280307 -0.6346717584891906 -0.6010912628313722 -0.056411235340806734 0 0 0 0
596700000 0.9695289550978984 -0.6381764052298895 -0.5905236757412451 -0.04537447544641448 0 0 0 0
600600000 0.9653174313276836 -0.6413467306828675 -0.5827484741796196 -0.03925314272866379 0 0 0 0
604500000 0.9599452766967623 -0.6465620103260575 -0.5764357478918087 -0.03245465293558196 0 0 0 0
608400000 0.9601542728541014 -0.6483284149809018 -0.5726667048079985 -0.025976687262901643 0 0 0 0
612300000 0.9553600894966003 -0.654516778426235 -0.5699345829487847 -0.01991220503392672 0 0 0 0
616200000 0.9566013710639313 -0.6604045193294287 -0.5703120542681646 -0.015769252405493827 0 0 0 0
620100000 0.9557454557491621 -0.6642875931948169 -0.5702393171013934 -0.013319672114470448 0 0 0 0
624000000 0.9554824325734625 -0.6707778343958262 -0.5730892344890591 -0.009907844973815364 0 0 0 0
627900000 0.9486236802256585 -0.6700152519886483 -0.5716983914994798 -0.003145097789961783 0 0 0 0
631800000 0.9485404023281856 -0.6776202430553528 -0.5705122071457583 0.004542176048936791 0 0 0 0
635700000 0.9488317748910112 -0.6836507972011104 -0.5717680527053133 0.017137315921944722 0 0 0 0
639600000 0.9457296227940738 -0.6906854768352777 -0.5653505997993739 0.026448418439702498 0 0 0 0
643500000 0.9438486113927763 -0.6969506649573386 -0.5606260560162509 0.03549679202233001 0 0 0 0
647400000 0.938891736710155 -0.7047242054382412 -0.555004059968814 0.04156408554337996 0 0 0 0
651300000 0.9359971918289488 -0.7069911767859742 -0.550889962090598 0.04620603508998472 0 0 0 0
655200000 0.9331767705284859 -0.7133664410450946 -0.5477383840123978 0.05126797036902753 0 0 0 0
659100000 0.9290041977723187 -0.7179490185210509 -0.5445440135027699 0.05640955761212285 0 0 0 0
663000000 0.9276800906435976 -0.7186154289882688 -0.5398153063843133 0.06063715570966097 0 0 0 0
666900000 0.9219254917711717 -0.7261040647859497 -0.5374830956930432 0.05999756511198778 0 0 0 0
670800000 0.9205137475199485 -0.723853408121329 -0.5374413247176042 0.057155645988746936 0 0 0 0
674700000 0.9180001264969194 -0.7276193892049463 -0.540041156064331 0.05647402298499955 0 0 0 0
678600000 0.9138181626277626 -0.7355714978085487 -0.5429705557032549 0.055483038221814183 0 0 0 0
682500000 0.9020066849223987 -0.7223480002314956 -0.5528516419570785 0.01547323413394487 0 0 0 0
686400000 0.9030809674046404 -0.7202896820218926 -0.5623004729757218 -0.0028128575424751605 0 0 0 0
690300000 0.8989758546759481 -0.7258002688467676 -0.5678944071899559 -0.008301766340609265 0 0 0 0
694200000 0.9028012520221744 -0.7188304625754812 -0.5726149970334934 -0.01725618132025635 0 0 0 0
698100000 0.896129082167422 -0.725433672116518 -0.5786845351049464 -0.016340026899286583 0 0 0 0
702000000 0.8905436227075367 -0.7275180261832185 -0.5818755521674068 -0.015316239510585052 0 0 0 0
705900000 0.8930261039412669 -0.7253754402721749 -0.583705575901651 -0.013776111836956432 0 0 0 0
709800000 0.891955850579622 -0.7314517722996776 -0.5875265441078044 -0.012387354102616403 0 0 0 0
713700000 0.891417079794316 -0.7364320848058271 -0.5877188816529983 -0.007137798810634412 0 0 0 0
717600000 0.8860440479249387 -0.7392289751158265 -0.5895915955675632 -0.0006831759173135509 0 0 0 0
721500000 0.8821376361458646 -0.7479098657409551 -0.5872630099275554 0.01287911822827452 0 0 0 0
725400000 0.8828827133647809 -0.7496200821847252 -0.5894540256442032 0.017201608650365095 0 0 0 0
729300000 0.8809357439987299 -0.7542663616292655 -0.5865869443524361 0.027580264982549153 0 0 0 0
733200000 0.877997181170475 -0.7586815664557249 -0.585642238348672 0.034718588476143626 0 0 0 0
737100000 0.8723384862314076 -0.7614456071501257 -0.5778235512910765 0.03924589825285342 0 0 0 0
741000000 0.8653787654001641 -0.7672375087895266 -0.5624495328192891 0.06082731166070583 0 0 0 0
744900000 0.8607119767534355 -0.7730302325434494 -0.5547051831548647 0.07716154903246016 0 0 0 0
748800000 0.857931818953585 -0.77908825716058 -0.5490361628158682 0.08935436577361086 0 0 0 0
752700000 0.8543307451464834 -0.782709230298064 -0.5456931572109164 0.09401131656460104 0 0 0 0
756600000 0.8510742681879835 -0.7850739481082761 -0.5435503962170464 0.09605206371915281 0 0 0 0
760500000 0.8472144037380898 -0.7875474397000509 -0.5440614511319226 0.09550096166074451 0 0 0 0
764400000 0.8451900202828492 -0.7880038623089051 -0.549087616430314 0.08913726785426611 0 0 0 0
768300000 0.8530680672185363 -0.7909472377693513 -0.5647950075109983 0.08057350085036201 0 0 0 0
772200000 0.8546847730587338 -0.7913998567627706 -0.5893469476072384 0.07162198173034895 0 0 0 0
776100000 0.8543069967951166 -0.7942060609507513 -0.607139727641962 0.06904196231370385 0 0 0 0
780000000 0.8530936172551916 -0.7986437815604405 -0.6133515047370687 0.07397735393464905 0 0 0 0
783900000 0.8521439277247679 -0.8026771407593859 -0.6068206261920558 0.08380274779918376 0 0 0 0
787800000 0.8423282084486396 -0.8051021009218919 -0.5867950357153964 0.10102267638164567 0 0 0 0
791700000 0.8348788319697266 -0.8119519199008473 -0.5665555422420243 0.11747257263305629 0 0 0 0
