#  HZ   S   RI   R     50.00 
! Rohde & Schwarz Vector Network Analyzer 
! Rohde-Schwarz,ZNL20-2Port,1323001220101312,1.72.1.6-23.02.1.246
! Created: UTC 10/9/2024, 8:51:46 PM
! freq[Hz]                re:S11                  im:S11                  re:S21                  im:S21                  re:S12                  im:S12                  re:S22                  im:S22
 3.900000000000000E6     1.010271186276291      -7.033811857827358E-3    5.045295694466411E-1   -8.931428039701112E-3   -7.365402599412766E-6    1.036538316952966E-5   -8.356577753118564E-2    2.878721572016337E-3
 7.800000000000000E6     1.007020393105937      -1.226672031975755E-2    5.022883217094249E-1   -1.980853897277545E-2   -8.773961402691990E-6    2.545717781943068E-6   -8.410943899240392E-2    6.497597812861163E-3
 1.170000000000000E7     1.005204069283941      -2.012374736551445E-2    4.972275734490498E-1   -2.911291836003930E-2   -4.803898810639693E-6   -1.430452644107028E-6   -8.517899254507846E-2    1.008468541879832E-2
 1.560000000000000E7     1.002857666135137      -2.735430540256158E-2    4.958104014966357E-1   -3.839722677506739E-2   -2.110652426295792E-5   -1.104409498626315E-5   -8.531579795746763E-2    1.314710038680984E-2
 1.950000000000000E7     1.000718010385143      -3.430351875506685E-2    4.957262486781241E-1   -4.778574486803536E-2   -1.974120808467258E-5   -8.207192335828350E-7   -8.540389070160162E-2    1.610008513810605E-2
 2.340000000000000E7     9.989800964019689E-1   -4.089266949408518E-2    4.979842150000095E-1   -5.744037126735255E-2   -3.048917762823315E-5    3.559128356556199E-6   -8.540490588602398E-2    1.885983235962808E-2
 2.730000000000000E7     9.973229691034742E-1   -4.775049331610704E-2    4.988885477651476E-1   -6.745666162101097E-2   -4.019375488217715E-5   -9.961722325214447E-7   -8.541707899532826E-2    2.164831084062812E-2
 3.120000000000000E7     9.957387258353448E-1   -5.432849339111819E-2    4.991178963445245E-1   -7.737633083875807E-2   -5.899685106006948E-5   -5.732333745169264E-7   -8.526338164926020E-2    2.437602733686432E-2
 3.510000000000000E7     9.944324080149760E-1   -6.128248832445559E-2    5.003804438732213E-1   -8.781633129656358E-2   -6.284659130488593E-5    1.088571133019229E-5   -8.502386127915132E-2    2.686092133495641E-2
 3.900000000000000E7     9.932288817464546E-1   -6.827416180974512E-2    5.001563724152094E-1   -9.828889297984070E-2   -7.830001621024381E-5    7.940200232345038E-6   -8.470508644791162E-2    2.922963293154002E-2
 4.290000000000000E7     9.923468460050058E-1   -7.545784825520355E-2    4.992508220058448E-1   -1.086602293688469E-1   -9.794506512064677E-5    2.232822842615876E-5   -8.427888549578294E-2    3.150366002968382E-2
 4.680000000000000E7     9.917828949203175E-1   -8.282460680185198E-2    4.976452078706157E-1   -1.190001851496202E-1   -1.099827910060437E-4    3.057635318811496E-5   -8.367812022884935E-2    3.366772138744109E-2
 5.070000000000000E7     9.915304923573194E-1   -9.021486625464074E-2    4.952331957826425E-1   -1.288853886835656E-1   -1.355197166885656E-4    2.557672990331658E-5   -8.292768194311996E-2    3.582630069426188E-2
 5.460000000000000E7     9.913690548303954E-1   -9.781536141513043E-2    4.921286774367057E-1   -1.386140570305933E-1   -1.375213391217174E-4    3.693855727293681E-5   -8.198658549866948E-2    3.802876083634049E-2
 5.850000000000000E7     9.912955851238302E-1   -1.053107054408660E-1    4.874218050790475E-1   -1.484500764085508E-1   -1.489959135098848E-4    5.492604634826929E-5   -8.092839598657318E-2    4.017706286841214E-2
 6.240000000000000E7     9.914884604621629E-1   -1.129908085229066E-1    4.828615611919302E-1   -1.573661899487555E-1   -1.771795467503340E-4    5.670192950704834E-5   -7.978789521658046E-2    4.225677400169709E-2
 6.630000000000000E7     9.913935617766555E-1   -1.203362572197892E-1    4.772042033565689E-1   -1.648177052276486E-1   -1.999861794018836E-4    6.582119476439827E-5   -7.806617383522689E-2    4.460600070917912E-2
 7.020000000000000E7     9.913908728905809E-1   -1.276690111129561E-1    4.719094993395737E-1   -1.731780013731890E-1   -2.180409659674886E-4    8.355624635153625E-5   -7.670647433005147E-2    4.686238334504378E-2
 7.410000000000000E7     9.913018232675664E-1   -1.349555057094623E-1    4.684332900496084E-1   -1.810417164835285E-1   -2.401972888487032E-4    8.945130383324302E-5   -7.529394326362911E-2    4.916520423643177E-2
 7.800000000000000E7     9.911042827745582E-1   -1.420747476813841E-1    4.616663534781761E-1   -1.893996204132278E-1   -2.642196566518409E-4    9.726626037824394E-5   -7.381088661256718E-2    5.146354409159638E-2
 8.190000000000000E7     9.907422046189487E-1   -1.491289912342215E-1    4.584596734838145E-1   -1.982045568094888E-1   -2.885592260078387E-4    1.085202460847607E-4   -7.219086365560154E-2    5.386078301211879E-2
 8.580000000000000E7     9.903111437432938E-1   -1.561871296537320E-1    4.545259762781268E-1   -2.075805382051842E-1   -3.114594653768279E-4    1.275856693974128E-4   -7.062160686422340E-2    5.621247321129910E-2
 8.970000000000000E7     9.896423138452107E-1   -1.629757981894754E-1    4.505357408546055E-1   -2.168115503177522E-1   -3.349097995780558E-4    1.373120365648989E-4   -6.899745522148706E-2    5.864975259559357E-2
 9.360000000000000E7     9.885330615019325E-1   -1.694501504392307E-1    4.469952927996576E-1   -2.246802506948802E-1   -3.533195284359748E-4    1.597258984244998E-4   -6.748178054414267E-2    6.123084371518172E-2
 9.750000000000000E7     9.875602553184629E-1   -1.757566883052921E-1    4.437740458267713E-1   -2.332756414564249E-1   -3.891677581614504E-4    1.783712240189983E-4   -6.585080072668860E-2    6.371083213847643E-2
 1.014000000000000E8     9.863222990725086E-1   -1.817329193706763E-1    4.411415315071042E-1   -2.411772803186575E-1   -4.226853770006034E-4    1.934189424176783E-4   -6.428151073646071E-2    6.618841098018673E-2
 1.053000000000000E8     9.851572892746768E-1   -1.878238692210360E-1    4.371508881506858E-1   -2.510665309957779E-1   -4.459164505574075E-4    2.175788167878462E-4   -6.269315665634093E-2    6.864304783710148E-2
 1.092000000000000E8     9.838330097376453E-1   -1.936755745286255E-1    4.354494611418201E-1   -2.607585310700049E-1   -4.835326975089069E-4    2.382567411983649E-4   -6.111291782355423E-2    7.106992026717661E-2
 1.131000000000000E8     9.824523298149379E-1   -1.993392300187207E-1    4.345096112884937E-1   -2.697211880057452E-1   -5.144697751924981E-4    2.671334167537875E-4   -5.953846244014467E-2    7.342104460717171E-2
 1.170000000000000E8     9.809644855621377E-1   -2.051233630371189E-1    4.310096034583272E-1   -2.794814253881793E-1   -5.417271205472696E-4    2.941061439513703E-4   -5.802894979101368E-2    7.565713942224722E-2
 1.209000000000000E8     9.791965588388820E-1   -2.112158242564100E-1    4.283216727224594E-1   -2.892848227743987E-1   -5.840682665622987E-4    3.094594788663083E-4   -5.649495432001133E-2    7.776888277832714E-2
 1.248000000000000E8     9.777537555205271E-1   -2.174697565459952E-1    4.238108780525803E-1   -2.987826223376254E-1   -6.116771368257152E-4    3.384673403515718E-4   -5.497666459570803E-2    7.988859488541936E-2
 1.287000000000000E8     9.762779420143010E-1   -2.239581234657286E-1    4.183658993714052E-1   -3.091550250436573E-1   -6.508500458447333E-4    3.776744501814128E-4   -5.335282897956303E-2    8.188699895081893E-2
 1.326000000000000E8     9.750284401217244E-1   -2.306935794302191E-1    4.130707374580155E-1   -3.188491327663693E-1   -6.844462174787913E-4    4.095695618208138E-4   -5.177393175464293E-2    8.382049235994932E-2
 1.365000000000000E8     9.738857210956887E-1   -2.379990239717691E-1    4.046219171533641E-1   -3.283101553186492E-1   -7.235466897798132E-4    4.431134657842944E-4   -5.010598434282381E-2    8.559545255139071E-2
 1.404000000000000E8     9.727143509534021E-1   -2.457030939635407E-1    3.960975529392568E-1   -3.374460324653660E-1   -7.645128906954875E-4    4.826743258261883E-4   -4.835254980958822E-2    8.732771858929016E-2
 1.443000000000000E8     9.715764982498148E-1   -2.540063946991042E-1    3.857397131066427E-1   -3.466256651038466E-1   -7.944965329782871E-4    5.243549107544538E-4   -4.656031591889537E-2    8.889104732513599E-2
 1.482000000000000E8     9.704262022800086E-1   -2.625697868797339E-1    3.746828147284293E-1   -3.541161657735487E-1   -8.360145604790816E-4    5.646946055795374E-4   -4.467208846789109E-2    9.036503343419972E-2
 1.521000000000000E8     9.692062319215358E-1   -2.710701150142407E-1    3.652986760810089E-1   -3.611457542099372E-1   -8.825760271189047E-4    6.200689448250509E-4   -4.272802211466462E-2    9.180765015912325E-2
 1.560000000000000E8     9.678338534792351E-1   -2.795085012011394E-1    3.562481422897266E-1   -3.669956724835277E-1   -9.215199062498798E-4    6.659206658001580E-4   -4.061768629488920E-2    9.319146910107091E-2
 1.599000000000000E8     9.660631033144399E-1   -2.876357505428877E-1    3.465042287545667E-1   -3.727800529772676E-1   -9.626248591081152E-4    7.225877975134777E-4   -3.839624434909865E-2    9.441811678535009E-2
 1.638000000000000E8     9.643764635864630E-1   -2.957198745827057E-1    3.365769439463607E-1   -3.790524871905525E-1   -1.005631888358501E-3    7.644508980881869E-4   -3.609096404531160E-2    9.564604875543888E-2
 1.677000000000000E8     9.628952187533648E-1   -3.034980526173416E-1    3.263910102364977E-1   -3.842088806407776E-1   -1.046454186934704E-3    8.215137209132343E-4   -3.371930398096612E-2    9.698650985616276E-2
 1.716000000000000E8     9.614126436102424E-1   -3.107917931559899E-1    3.178924091646287E-1   -3.917809967806511E-1   -1.082617542361150E-3    8.855126837662614E-4   -3.109839881816932E-2    9.825376674706136E-2
 1.755000000000000E8     9.601594148675426E-1   -3.179089366033815E-1    3.088411880017470E-1   -3.959409080515475E-1   -1.128592384316355E-3    9.215313003055881E-4   -2.799514483615651E-2    9.901591301266285E-2
 1.794000000000000E8     9.589701438377896E-1   -3.248469273327196E-1    3.037263870603152E-1   -4.038349256077651E-1   -1.226473934471934E-3    1.032036608729186E-3   -2.640729220956037E-2    9.895869654843961E-2
 1.833000000000000E8     9.572006820288385E-1   -3.315430024228950E-1    2.964685614523040E-1   -4.093200917545692E-1   -1.241400487022528E-3    1.128221755559923E-3   -2.449700738393675E-2    1.008851348028121E-1
 1.872000000000000E8     9.555449487881191E-1   -3.381513078144514E-1    2.884310447876695E-1   -4.194921972682352E-1   -1.269406378115863E-3    1.218343924312259E-3   -2.193786755514737E-2    1.023984670897194E-1
 1.911000000000000E8     9.535578648509170E-1   -3.446080262855403E-1    2.781969369578538E-1   -4.249932949799276E-1   -1.314210281976108E-3    1.302997852820755E-3   -1.937944386134458E-2    1.037548725390545E-1
 1.950000000000000E8     9.514403102866030E-1   -3.507506000760539E-1    2.703862555129342E-1   -4.317101564304259E-1   -1.345371247035628E-3    1.388722384822179E-3   -1.682369769287665E-2    1.050772847391929E-1
 1.989000000000000E8     9.495909124796769E-1   -3.571150091430922E-1    2.603258321999987E-1   -4.390459754297634E-1   -1.377705353671001E-3    1.491085558722871E-3   -1.426122032112145E-2    1.064117711067297E-1
 2.028000000000000E8     9.474899616221689E-1   -3.633889884846668E-1    2.531192363557123E-1   -4.431326255790985E-1   -1.404851764980787E-3    1.589070140738209E-3   -1.185238564184728E-2    1.076490339637386E-1
 2.067000000000000E8     9.452628259906273E-1   -3.697270519625293E-1    2.417559891512508E-1   -4.513560264754644E-1   -1.424921950345480E-3    1.727256497003038E-3   -9.384298663842853E-3    1.089455330052283E-1
 2.106000000000000E8     9.428625072086062E-1   -3.762241540273168E-1    2.332358368286385E-1   -4.562029929661305E-1   -1.450704157062800E-3    1.825995724390002E-3   -7.061661470485044E-3    1.101782532805384E-1
 2.145000000000000E8     9.399593202864914E-1   -3.825649210110005E-1    2.261316049652591E-1   -4.582680286899216E-1   -1.464873980705885E-3    1.950489385178956E-3   -4.740810067726291E-3    1.114216750488342E-1
 2.184000000000000E8     9.370595644115068E-1   -3.894290088032320E-1    2.152817030793951E-1   -4.623467334657613E-1   -1.488014633773960E-3    2.075878953926125E-3   -2.480616824164923E-3    1.125355040433008E-1
 2.223000000000000E8     9.337733688553321E-1   -3.961784197791374E-1    2.070488775351745E-1   -4.650490375314050E-1   -1.488891039603227E-3    2.207757420602724E-3   -1.916165500662393E-4    1.136717436971333E-1
 2.262000000000000E8     9.300766005700392E-1   -4.033008349973454E-1    1.966306826791750E-1   -4.670500504997314E-1   -1.483412977449273E-3    2.342266195656850E-3    2.019932414946482E-3    1.145787850955821E-1
 2.301000000000000E8     9.261993229616489E-1   -4.107194820927227E-1    1.845676139270110E-1   -4.684129068186164E-1   -1.473597469236421E-3    2.486922130163244E-3    4.234052612493242E-3    1.154816527924474E-1
 2.340000000000000E8     9.223269451485380E-1   -4.183395289120747E-1    1.724632286210826E-1   -4.704698185191527E-1   -1.444686281312687E-3    2.643733567927261E-3    6.505657765115601E-3    1.163364695142730E-1
 2.379000000000000E8     9.183787511978532E-1   -4.260557084075353E-1    1.566822670969642E-1   -4.716949832171975E-1   -1.410073544465308E-3    2.787121193725763E-3    8.759045532876777E-3    1.170740048255962E-1
 2.418000000000000E8     9.145250005830604E-1   -4.338014723603365E-1    1.430994439012726E-1   -4.725521187432544E-1   -1.369140358793700E-3    2.937413409453767E-3    1.111422004742878E-2    1.176702907521711E-1
 2.457000000000000E8     9.108640318502563E-1   -4.414901253588577E-1    1.295990343521240E-1   -4.736902144450910E-1   -1.306660707177095E-3    3.097097165450607E-3    1.355866669578609E-2    1.182063462320957E-1
 2.496000000000000E8     9.075757304007576E-1   -4.490312916467963E-1    1.136615413717253E-1   -4.727867404131874E-1   -1.230434876136952E-3    3.253902116240695E-3    1.606377272765561E-2    1.186062087504122E-1
 2.535000000000000E8     9.045956291318361E-1   -4.562811223822557E-1    1.014716068337666E-1   -4.721797137401447E-1   -1.144836141179330E-3    3.399068171863161E-3    1.872288967107879E-2    1.189632030465325E-1
 2.574000000000000E8     9.023727311286357E-1   -4.632423126631764E-1    8.835452643761649E-2   -4.711669234335847E-1   -1.043208802434616E-3    3.545143015518916E-3    2.139710793761654E-2    1.192142709181045E-1
 2.613000000000000E8     9.003009330319982E-1   -4.700759159744875E-1    7.883708266125163E-2   -4.698358367062082E-1   -9.223656100599318E-4    3.684113384612342E-3    2.424112136183750E-2    1.194207127301536E-1
 2.652000000000000E8     8.985107235870983E-1   -4.770522267454813E-1    6.919181069699647E-2   -4.722192511382646E-1   -7.848699766011099E-4    3.820316845037659E-3    2.723302648808134E-2    1.196236150005176E-1
 2.691000000000000E8     8.968375682257400E-1   -4.839289878985933E-1    5.851806203509272E-2   -4.755292376412519E-1   -6.438921931156604E-4    3.918994182473915E-3    3.036667984742982E-2    1.197491275516299E-1
 2.730000000000000E8     8.944419779059030E-1   -4.902704245090279E-1    5.327969143818646E-2   -4.758476420860890E-1   -4.836926323996763E-4    4.013761067910578E-3    3.360106913687604E-2    1.198855221305345E-1
 2.769000000000000E8     8.919171515896681E-1   -4.964036609984941E-1    4.650916176769004E-2   -4.773927605622557E-1   -3.340650603822121E-4    4.081278127392830E-3    3.689302987119490E-2    1.198973462218050E-1
 2.808000000000000E8     8.894878262211658E-1   -5.028838864941354E-1    3.441295646281930E-2   -4.813312967336095E-1   -1.572719660743514E-4    4.142007509448065E-3    4.035281512920462E-2    1.199015646527235E-1
 2.847000000000000E8     8.868085297721980E-1   -5.087562993112322E-1    2.412257375245255E-2   -4.827739974616440E-1    1.242709844363039E-5    4.183663288426573E-3    4.386510523446620E-2    1.197889296034101E-1
 2.886000000000000E8     8.836574803194185E-1   -5.141883497039328E-1    1.567665122353972E-2   -4.825573151955422E-1    1.872877464175113E-4    4.200288386693999E-3    4.748976826153652E-2    1.197063002926154E-1
 2.925000000000000E8     8.808073188801625E-1   -5.200974286154616E-1    2.891469781749960E-3   -4.827953377617607E-1    3.477369664888312E-4    4.190188183605450E-3    5.118446895337776E-2    1.193936554263523E-1
 2.964000000000000E8     8.782986559997285E-1   -5.260480676423009E-1   -1.175869680545762E-2   -4.832214018074570E-1    4.929067055385564E-4    4.150593471268302E-3    5.489326859064175E-2    1.191047881616756E-1
 3.003000000000000E8     8.759634437035765E-1   -5.323640134759113E-1   -2.760035705292766E-2   -4.817289567139764E-1    6.173036045390491E-4    4.092096850027147E-3    5.866404943079657E-2    1.185361594458904E-1
 3.042000000000000E8     8.735528889181285E-1   -5.395005464147041E-1   -4.561464694481257E-2   -4.772657287754475E-1    7.005176861236641E-4    4.015116866068910E-3    6.236929723100696E-2    1.176587280305679E-1
 3.081000000000000E8     8.710410364944641E-1   -5.475525985223928E-1   -6.252338750954903E-2   -4.715466378503436E-1    7.418841671054948E-4    3.936529615443429E-3    6.579800132322686E-2    1.162869027780927E-1
 3.120000000000000E8     8.672806066570433E-1   -5.558091415003819E-1   -7.544565674722779E-2   -4.653395718342243E-1    7.428862267412896E-4    3.909778359771778E-3    6.832136940799807E-2    1.147465195713901E-1
 3.159000000000000E8     8.626712732147463E-1   -5.644188737394290E-1   -8.862635347981905E-2   -4.608097578488707E-1    7.689914727934870E-4    3.949661161248773E-3    7.041084629501054E-2    1.137274832773847E-1
 3.198000000000000E8     8.575397477301896E-1   -5.731491018735699E-1   -1.036006112265373E-1   -4.555860245027640E-1    8.525026550867618E-4    3.960921515797597E-3    7.269889666201965E-2    1.133033323985009E-1
 3.237000000000000E8     8.518944553709431E-1   -5.816636134369255E-1   -1.176744409445457E-1   -4.467223395697437E-1    9.299539800142339E-4    3.917575609942080E-3    7.538348790571553E-2    1.127047977600082E-1
 3.276000000000000E8     8.459972445357357E-1   -5.904049052660844E-1   -1.326367455377331E-1   -4.347115756407404E-1    9.726005969911375E-4    3.875237377313965E-3    7.822250101707189E-2    1.117453139242882E-1
 3.315000000000000E8     8.398206977647761E-1   -5.988312000332593E-1   -1.446851079776430E-1   -4.221770197718069E-1    9.842988667515672E-4    3.832925380575907E-3    8.089505994040477E-2    1.104987194472762E-1
 3.354000000000000E8     8.337402493964177E-1   -6.063892236425157E-1   -1.525380374799546E-1   -4.119991486630076E-1    9.752033648060349E-4    3.806434834905257E-3    8.346199472766337E-2    1.091176320069612E-1
 3.393000000000000E8     8.281051892076189E-1   -6.136843491869282E-1   -1.610820768490069E-1   -4.017368008122466E-1    9.634760198275498E-4    3.791549105866624E-3    8.593292949291717E-2    1.075095603651984E-1
 3.432000000000000E8     8.229692573855391E-1   -6.211589371034569E-1   -1.702999716207935E-1   -3.906346096867125E-1    9.407010061225226E-4    3.792471346117708E-3    8.825625753567148E-2    1.058031670930051E-1
 3.471000000000000E8     8.186860878890685E-1   -6.279792353307252E-1   -1.751351852443200E-1   -3.833835964510647E-1    9.138774676112499E-4    3.803527016497748E-3    9.050427649877069E-2    1.040494862892476E-1
 3.510000000000000E8     8.150947005910283E-1   -6.346870787544298E-1   -1.782942332609727E-1   -3.802101697860553E-1    8.874734125171506E-4    3.814017889102147E-3    9.274966928221914E-2    1.021111239059527E-1
 3.549000000000000E8     8.121672995433061E-1   -6.418427965120422E-1   -1.850493416049209E-1   -3.784342286859471E-1    8.428066868886473E-4    3.841165469522712E-3    9.492757240948221E-2    1.001847711955530E-1
