#  HZ   S   RI   R     50.00 
! Rohde & Schwarz Vector Network Analyzer 
! Rohde-Schwarz,ZNL20-2Port,1323001220101312,1.72.1.6-23.02.1.246
! Created: UTC 10/23/2024, 6:12:17 PM
! freq[Hz]                re:S11                  im:S11                  re:S21                  im:S21                  re:S12                  im:S12                  re:S22                  im:S22
 3.900000000000000E6     1.000503797746613      -4.834385027572755E-3    2.102778783889792E-1   -3.510101770666226E-3    8.091474722128262E-7   -1.494726718710368E-5    1.336244427118437E-2    4.318626203874295E-5
 5.893896948474238E6     1.000327861233430      -7.261158716372394E-3    2.103287117383847E-1   -5.649494184661002E-3    1.478260452500614E-5    7.405580172621273E-6    1.323763837263628E-2    3.163252048206218E-4
 7.887793896948474E6     1.000122583457150      -9.971053615271303E-3    2.102348492997370E-1   -7.736838453562322E-3    5.076236978010079E-6   -1.924463819897618E-5    1.295391311721564E-2    5.652912160061654E-4
 9.881690845422711E6     9.999031087704753E-1   -1.260989339995361E-2    2.100862190119769E-1   -9.869666657509850E-3   -1.862002454039791E-6   -1.977245923437665E-5    1.268831246960298E-2    9.974881260502121E-4
 1.187558779389695E7     1.000525292121880      -1.611236153665125E-2    2.099905017518736E-1   -1.199622968523201E-2   -6.453357317396505E-6    1.143969984882180E-5    1.233677286073762E-2    1.241647921300407E-3
 1.386948474237119E7     1.000331333617402      -1.915230194293640E-2    2.098313990880189E-1   -1.415366550092931E-2   -1.237423220794240E-5   -3.658393133852559E-6    1.222092635112319E-2    1.416657011684818E-3
 1.586338169084542E7     1.000299805507599      -2.211273006089556E-2    2.096551233664592E-1   -1.634367234478210E-2    1.948393898801502E-5   -1.000592664577180E-5    1.208779021687482E-2    1.760348381612386E-3
 1.785727863931966E7     1.000080653733650      -2.499184885334520E-2    2.094613965413216E-1   -1.852802751130229E-2    6.257494936212164E-6    2.655214266641806E-7    1.195716683029592E-2    1.961795459876191E-3
 1.985117558779390E7     1.000179977307537      -2.776196570884207E-2    2.093199600993685E-1   -2.061620423560762E-2   -2.844619990768027E-6    1.657417140131388E-5    1.182992146899304E-2    2.182786606799042E-3
 2.184507253626813E7     1.000108007237263      -3.057600024462346E-2    2.091339468002506E-1   -2.268891704994531E-2   -1.909255986707357E-5    7.827272777293850E-7    1.175452085574701E-2    2.414780872398790E-3
 2.383896948474237E7     1.000054563975676      -3.350844195059838E-2    2.089646914690237E-1   -2.483673463572755E-2    1.030320255043209E-5   -6.026204838056599E-7    1.168797299293426E-2    2.705940228633782E-3
 2.583286643321661E7     1.000032578407096      -3.618258152509204E-2    2.087916770369038E-1   -2.691177078715694E-2   -3.817766786023612E-6   -7.514470659461535E-6    1.155227810083916E-2    2.914499316520464E-3
 2.782676338169084E7     9.999552406624459E-1   -3.925486868715210E-2    2.085497855778552E-1   -2.908918121687479E-2   -1.398463894870169E-5   -1.745430689764403E-5    1.143391269747985E-2    3.244234841382889E-3
 2.982066033016508E7     9.998360774375702E-1   -4.195660495838784E-2    2.082712693615175E-1   -3.120798962857401E-2   -7.688525454665874E-6    4.687330108105968E-6    1.135473618064180E-2    3.394471980662772E-3
 3.181455727863932E7     9.998221967999288E-1   -4.479031885166989E-2    2.079957511169682E-1   -3.340128200314740E-2   -2.135657892532162E-5   -3.763069462529769E-5    1.123889188574518E-2    3.587369653204514E-3
 3.380845422711356E7     9.997149157543792E-1   -4.770264932387386E-2    2.077029675008177E-1   -3.553867201668575E-2   -1.644116067390468E-5   -3.468136453589852E-5    1.123314233715629E-2    3.808421982762762E-3
 3.580235117558780E7     9.995166140409889E-1   -5.055908123356113E-2    2.073712926879377E-1   -3.769016983072750E-2   -9.178027558739784E-6   -1.862109469837997E-5    1.112861061650276E-2    3.936140344892253E-3
 3.779624812406203E7     9.995664806177899E-1   -5.341520188802840E-2    2.069723753326332E-1   -3.987888814222122E-2   -1.528951910067353E-5   -2.925786095414216E-5    1.112841929361500E-2    4.164058991031194E-3
 3.979014507253627E7     9.994998633478543E-1   -5.628503207777855E-2    2.065708768539943E-1   -4.202850941109164E-2   -3.590200799399531E-6   -2.796111616626501E-6    1.107294072733774E-2    4.302929726148103E-3
 4.178404202101051E7     9.993324233580645E-1   -5.922685512509336E-2    2.061265846365293E-1   -4.419345774050879E-2   -2.046527650361308E-5    1.228552032802273E-5    1.106969827094422E-2    4.385476993145825E-3
 4.377793896948475E7     9.993733026583314E-1   -6.210247659089871E-2    2.056629667819258E-1   -4.632105634293490E-2   -3.566912691459699E-5    2.154102452990798E-5    1.114308733579856E-2    4.533175529337571E-3
 4.577183591795898E7     9.992314891323932E-1   -6.506542904385607E-2    2.051175242940602E-1   -4.843854804175322E-2   -1.178491848645923E-5   -8.985458565285668E-6    1.111333132244069E-2    4.670229620684985E-3
 4.776573286643322E7     9.992789875053791E-1   -6.799467597266626E-2    2.046610721311361E-1   -5.057038588541811E-2   -5.122776943239282E-5   -2.262324221922577E-5    1.106727462930113E-2    4.805895270614693E-3
 4.975962981490745E7     9.992801108697166E-1   -7.080810907186927E-2    2.041477379670919E-1   -5.267753852619756E-2   -1.078357578347014E-5   -2.907740903759075E-5    1.109024453226620E-2    4.931572112163588E-3
 5.175352676338169E7     9.991781181003119E-1   -7.387177792525565E-2    2.034982794179292E-1   -5.480914845606720E-2   -4.819702832032165E-5   -5.817816709320640E-6    1.121483665198833E-2    5.097512725958234E-3
 5.374742371185593E7     9.992441398205257E-1   -7.670055573449464E-2    2.029128671776489E-1   -5.691674936007830E-2   -6.608275479296064E-6   -2.942843574640504E-5    1.134658979810502E-2    5.211876952313541E-3
 5.574132066033017E7     9.990303963363467E-1   -7.965818247990689E-2    2.022932010654712E-1   -5.902374018264036E-2   -4.805878721622442E-5   -9.715362370639206E-6    1.141746532400652E-2    5.460022472744585E-3
 5.773521760880440E7     9.990231672769047E-1   -8.255585890905774E-2    2.015437442672791E-1   -6.110682422409525E-2   -2.218955584494338E-5   -9.524812454331072E-6    1.151320038067836E-2    5.577022974518941E-3
 5.972911455727864E7     9.990140366443587E-1   -8.538226399636346E-2    2.008678996589426E-1   -6.319703465813595E-2   -1.901325491445804E-5    1.516521153707678E-5    1.171147591942185E-2    5.825350286529777E-3
 6.172301150575288E7     9.989305879876162E-1   -8.819077609043005E-2    2.001182199907208E-1   -6.523041568055350E-2   -3.553591011003511E-5   -6.540876779087532E-6    1.180220126879237E-2    5.982015191372220E-3
 6.371690845422712E7     9.988471296107643E-1   -9.116574946444511E-2    1.994043700825666E-1   -6.725989966989107E-2   -6.287425662147844E-6   -1.044989587981965E-5    1.191154048990402E-2    6.084153657793505E-3
 6.571080540270136E7     9.987673913584141E-1   -9.409244623891778E-2    1.986230439973730E-1   -6.921653432935770E-2   -1.725677328858880E-5   -5.878062274679297E-6    1.211815116681435E-2    6.239677533740656E-3
 6.770470235117559E7     9.987079319359776E-1   -9.695477100955913E-2    1.978815267207982E-1   -7.125933161308709E-2   -3.293954770130790E-5   -3.891409394773396E-6    1.218510580305408E-2    6.469748264297429E-3
 6.969859929964983E7     9.986762088313391E-1   -9.994088190767227E-2    1.970718952367278E-1   -7.330535659151496E-2   -1.998971000981356E-5   -4.289857061088042E-6    1.235046172285441E-2    6.650636473667455E-3
 7.169249624812406E7     9.985282400440472E-1   -1.027154447581377E-1    1.962124469557619E-1   -7.531456220807654E-2   -1.716724417609788E-5   -1.054728615504652E-5    1.252295784545198E-2    6.783389392394139E-3
 7.368639319659831E7     9.986326720206237E-1   -1.057998408975775E-1    1.954059803327558E-1   -7.730318970651670E-2   -5.136711473967563E-5   -6.399207566874437E-6    1.270555507817556E-2    6.983406721530603E-3
 7.568029014507253E7     9.985624508688834E-1   -1.083899460244688E-1    1.946287292613505E-1   -7.921549021113668E-2   -2.327218934846746E-5    1.379660175274098E-5    1.281691807249063E-2    7.185406681327238E-3
 7.767418709354678E7     9.983169790467220E-1   -1.112692232563995E-1    1.937512370069276E-1   -8.118026612840733E-2   -2.902427485221513E-5   -2.085027584274031E-5    1.293121164886279E-2    7.392196407907119E-3
 7.966808404202102E7     9.982407605789377E-1   -1.140847686495648E-1    1.928488169339210E-1   -8.316156231747264E-2   -3.459277716401059E-5    3.852918623569166E-6    1.303942911550802E-2    7.640604721513500E-3
 8.166198099049525E7     9.982101691096560E-1   -1.168117232704164E-1    1.919808804788398E-1   -8.506851376577014E-2   -5.714881497490903E-5   -8.534406976400502E-6    1.330060841933467E-2    7.835931494027318E-3
 8.365587793896949E7     9.980329045494938E-1   -1.197501402977592E-1    1.911440884390349E-1   -8.705163292945851E-2   -5.233514055888358E-5   -3.147484660190355E-5    1.343718982726941E-2    8.062103352081977E-3
 8.564977488744372E7     9.979287288870067E-1   -1.225941201112316E-1    1.901902170407655E-1   -8.894995694087518E-2   -4.802383547285128E-5    4.794722406948047E-6    1.354621753129573E-2    8.255800708186848E-3
 8.764367183591796E7     9.977919429326095E-1   -1.253775905898423E-1    1.893062856499764E-1   -9.085150118049438E-2   -1.047717579146474E-5    2.595407319528918E-5    1.367652385539471E-2    8.555620603694854E-3
 8.963756878439221E7     9.976880166492350E-1   -1.282893210014665E-1    1.883643751936441E-1   -9.275014003142545E-2   -3.143524776966162E-5   -1.616687326519072E-5    1.384609420664614E-2    8.844207361223377E-3
 9.163146573286644E7     9.974470545832261E-1   -1.310572572390972E-1    1.874332350422152E-1   -9.462931321818703E-2   -4.058918260114262E-5    5.638067488993448E-6    1.397748876818891E-2    8.997521930393233E-3
 9.362536268134068E7     9.972850562507685E-1   -1.338472913016443E-1    1.864964693198712E-1   -9.650062099801907E-2   -4.976897399053497E-5   -1.754927036151955E-5    1.401795798228035E-2    9.276031798014246E-3
 9.561925962981491E7     9.971192595072195E-1   -1.367992829240592E-1    1.854987223956856E-1   -9.839537841220801E-2   -6.250974815337860E-5    3.285821064706240E-7    1.416126021539269E-2    9.554602759573025E-3
 9.761315657828915E7     9.969865858454053E-1   -1.395168592332891E-1    1.845307090515093E-1   -1.002758180293955E-1   -2.846592381922766E-5   -1.631068447338074E-5    1.430756652839652E-2    9.728127861665879E-3
 9.960705352676338E7     9.967658612963429E-1   -1.422886329196360E-1    1.835008250567738E-1   -1.021190172908628E-1   -2.715374604744488E-5    1.879519296151964E-5    1.438295260187032E-2    1.000450815614658E-2
 1.016009504752376E8     9.965943726665544E-1   -1.451523153272733E-1    1.824803330286524E-1   -1.039526914363968E-1   -5.541961491783758E-5    3.372129887485143E-5    1.452269429432150E-2    1.024612967147985E-2
 1.035948474237119E8     9.964212765071341E-1   -1.478677345944895E-1    1.814473124778277E-1   -1.058354592836380E-1   -4.706953732735634E-5    2.488466748428037E-5    1.449979241725024E-2    1.049952833653876E-2
 1.055887443721861E8     9.962824310826141E-1   -1.506405365200822E-1    1.803676894309855E-1   -1.076537193680723E-1   -4.529997890462044E-5    5.734031972529717E-6    1.465588986952562E-2    1.075689357361186E-2
 1.075826413206603E8     9.960755784395692E-1   -1.534357726525586E-1    1.792814182910074E-1   -1.095013746576171E-1   -4.947605110804385E-5    1.296091180915787E-5    1.465926044217510E-2    1.092780094721862E-2
 1.095765382691346E8     9.957936239738286E-1   -1.563455800300018E-1    1.781696398522800E-1   -1.112693875865096E-1   -1.135332784218999E-5    2.208301255776010E-5    1.480150071372592E-2    1.119268127190807E-2
 1.115704352176088E8     9.956212617063903E-1   -1.591647034652656E-1    1.770295298192770E-1   -1.130715869095863E-1   -5.242527022992585E-5    3.043034805394465E-6    1.483293551344258E-2    1.146129725555878E-2
 1.135643321660831E8     9.953953524880867E-1   -1.620155662257926E-1    1.758991653164594E-1   -1.149053915257608E-1   -4.857190986532447E-5    2.580825992480787E-5    1.485424976093818E-2    1.166560016310639E-2
 1.155582291145573E8     9.951421298609330E-1   -1.647711252930931E-1    1.747047527271263E-1   -1.166688558837735E-1   -5.228651410577801E-5   -1.186546015131564E-5    1.495728631118916E-2    1.184422309627534E-2
 1.175521260630315E8     9.950197656944566E-1   -1.676331581452948E-1    1.735730402580390E-1   -1.184332135378862E-1   -3.440763836269903E-5    1.929518910456060E-5    1.499066969908949E-2    1.207628304273828E-2
 1.195460230115058E8     9.947169253015807E-1   -1.705159894461190E-1    1.722899516201460E-1   -1.201682871721369E-1   -4.038229321192829E-5   -1.132527266921443E-6    1.505692727130424E-2    1.225966564144215E-2
 1.215399199599800E8     9.945349036005457E-1   -1.733890528483639E-1    1.710744524324342E-1   -1.219076958243838E-1   -2.411536663957047E-5    9.124214525267241E-6    1.514366651404704E-2    1.244615561229473E-2
 1.235338169084542E8     9.943129359033257E-1   -1.762440654552711E-1    1.697618512459125E-1   -1.236300114636429E-1   -2.424454219595214E-5   -6.657814594444693E-6    1.524546407431467E-2    1.259894105138929E-2
 1.255277138569285E8     9.940912129011301E-1   -1.792268779581001E-1    1.684277201072441E-1   -1.253808845842296E-1   -3.692228653298204E-5   -5.839797963706457E-6    1.525198074448045E-2    1.268541684741216E-2
 1.275216108054027E8     9.939165925674646E-1   -1.820705824809978E-1    1.672103568455911E-1   -1.270350542144193E-1   -5.762937314628990E-5    1.564884755585227E-5    1.531328595348584E-2    1.282743652472040E-2
 1.295155077538769E8     9.937270514330486E-1   -1.851399232843534E-1    1.658177568284404E-1   -1.287742941827301E-1   -3.002341056289765E-5    1.220793784753341E-5    1.541060478302028E-2    1.306598686488838E-2
 1.315094047023512E8     9.935199444512794E-1   -1.880248071413387E-1    1.644675371736742E-1   -1.304181703525899E-1   -3.859982938060406E-5    9.402505556991726E-6    1.556099566144074E-2    1.321158858590078E-2
 1.335033016508254E8     9.931531538902779E-1   -1.910435556621510E-1    1.630166326660754E-1   -1.320924288492058E-1   -2.872273000037120E-5    1.581162983702334E-5    1.568283368478381E-2    1.333506303638087E-2
 1.354971985992997E8     9.930128910065750E-1   -1.939482212016965E-1    1.615609087664767E-1   -1.337188844323962E-1   -1.401881931379444E-5    1.877358632371551E-5    1.572270321122423E-2    1.344340855800799E-2
 1.374910955477739E8     9.927003956397594E-1   -1.969343902817009E-1    1.601901469510833E-1   -1.353389287123931E-1   -7.255553645725523E-6   -3.728526283768808E-5    1.587138821755206E-2    1.365626833919159E-2
 1.394849924962481E8     9.924432166185951E-1   -1.999301820871604E-1    1.587094280724479E-1   -1.368989731468703E-1    7.692630873969117E-7    1.924062737608122E-5    1.605719640341107E-2    1.373779883933810E-2
 1.414788894447224E8     9.922396373373288E-1   -2.029135021131183E-1    1.571823074921478E-1   -1.384335316736161E-1    8.591519180871332E-6   -1.720097682123652E-5    1.617041157716648E-2    1.385519803043112E-2
 1.434727863931966E8     9.920512539448041E-1   -2.060332857495228E-1    1.557677957293039E-1   -1.399877646485923E-1    2.627155459632803E-5    2.296356623866872E-5    1.636222114599165E-2    1.404712338122101E-2
 1.454666833416708E8     9.916633894269854E-1   -2.090827225894300E-1    1.542746798214142E-1   -1.415284731679308E-1    5.663004245763543E-5    1.601447631663154E-5    1.663766766990228E-2    1.405781253058447E-2
 1.474605802901451E8     9.913806141045555E-1   -2.121117312612760E-1    1.527507943002811E-1   -1.430042101940564E-1    7.109630670967080E-5   -3.482324453665628E-5    1.673558159778232E-2    1.418255331417326E-2
 1.494544772386193E8     9.911480470839534E-1   -2.150903090714300E-1    1.512518649248492E-1   -1.445316051602498E-1    9.567644802709735E-5   -2.667223019866953E-5    1.700216660130935E-2    1.432775432174944E-2
 1.514483741870936E8     9.909902103258695E-1   -2.180943972767051E-1    1.497202408412470E-1   -1.460068028706234E-1    1.376136122308495E-4   -5.743284422664232E-5    1.711262149652222E-2    1.441044917890691E-2
 1.534422711355678E8     9.906048012178980E-1   -2.210690594739948E-1    1.481293139745826E-1   -1.474644005652444E-1    1.608579408453686E-4   -9.854030673719829E-5    1.735595010677275E-2    1.451576900944738E-2
 1.554361680840420E8     9.903186207927862E-1   -2.239128797884218E-1    1.465553407769482E-1   -1.489380910386276E-1    2.069663669702388E-4   -1.152489413191069E-4    1.761861628399593E-2    1.473118855132350E-2
 1.574300650325163E8     9.900673199453256E-1   -2.268711033120515E-1    1.449147874737306E-1   -1.504067968308160E-1    2.727082483504511E-4   -2.089118368921037E-4    1.797795930218032E-2    1.501982109490905E-2
 1.594239619809905E8     9.897653340154292E-1   -2.296944058106516E-1    1.432918277045436E-1   -1.518134267162027E-1    2.697826341470783E-4   -3.822197482405513E-4    1.830121965002359E-2    1.513488001430073E-2
 1.614178589294647E8     9.895874893052783E-1   -2.325508982632992E-1    1.414939037386893E-1   -1.532637427521694E-1    2.627362825815802E-4   -5.240044550214256E-4    1.895935151256753E-2    1.530626636270681E-2
 1.634117558779390E8     9.892448979536169E-1   -2.353756167067421E-1    1.397033185548887E-1   -1.543730239659041E-1    8.616400466606456E-5   -7.358192080271698E-4    1.952362656409808E-2    1.518174659816785E-2
 1.654056528264132E8     9.892078449726796E-1   -2.381880800056049E-1    1.380620213172574E-1   -1.554046201040423E-1   -1.628391366359749E-4   -8.348382079505012E-4    1.993486336778618E-2    1.482911800671658E-2
 1.673995497748874E8     9.891867339152506E-1   -2.411326933652377E-1    1.365809249914938E-1   -1.563839333063324E-1   -4.175211898284319E-4   -7.147325358064728E-4    1.996304956790749E-2    1.457055059100956E-2
 1.693934467233617E8     9.889219963686735E-1   -2.442841203462107E-1    1.352633548688559E-1   -1.575868594148505E-1   -5.638292747743533E-4   -5.443344772241974E-4    1.993288754134657E-2    1.446659941873810E-2
 1.713873436718359E8     9.886814995657931E-1   -2.473974443052488E-1    1.338700129482208E-1   -1.588320514564807E-1   -6.095195334060765E-4   -4.153111223300974E-4    1.996881165607213E-2    1.457655187516675E-2
 1.733812406203102E8     9.883384982353846E-1   -2.502780406064492E-1    1.324988563976887E-1   -1.601805292292392E-1   -5.767951487522911E-4   -2.922625720898475E-4    2.002093311471340E-2    1.476391291226806E-2
 1.753751375687844E8     9.878949890410424E-1   -2.534106101236879E-1    1.310431257892865E-1   -1.615325481244851E-1   -6.168625152587991E-4   -2.033556840150820E-4    2.013201411323868E-2    1.493385749316940E-2
 1.773690345172586E8     9.874964027971894E-1   -2.564279048623555E-1    1.295177795184737E-1   -1.629488006302569E-1   -5.895346382787839E-4   -1.150528193435002E-4    2.024394169175224E-2    1.513667557374379E-2
 1.793629314657329E8     9.871616739300251E-1   -2.595600188938854E-1    1.279285369696015E-1   -1.642907304421108E-1   -5.499524124134141E-4   -6.079108545029375E-5    2.043613997360786E-2    1.533504446925355E-2
 1.813568284142071E8     9.868212519998444E-1   -2.623019003435726E-1    1.263394832958913E-1   -1.655913152602350E-1   -5.360705059504750E-4   -3.709704016129421E-5    2.072670804177418E-2    1.548823671151775E-2
 1.833507253626814E8     9.863868291700018E-1   -2.653353561848067E-1    1.246675951398726E-1   -1.669304768219964E-1   -4.902937620802994E-4    8.588223804635023E-6    2.081542583261886E-2    1.574206763835164E-2
