#  HZ   S   RI   R     50.00 
! Rohde & Schwarz Vector Network Analyzer 
! Rohde-Schwarz,ZNL20-2Port,1323001220101312,1.72.1.6-23.02.1.246
! Created: UTC 10/23/2024, 9:37:13 PM
! freq[Hz]                re:S11                  im:S11                  re:S21                  im:S21                  re:S12                  im:S12                  re:S22                  im:S22
 3.900000000000000E6     1.000096370430122      -5.054009857672778E-3    2.132974418271405E-1   -4.166364071685924E-3    1.286322764293231E-4   -1.370570176891994E-4    1.136684090752284E-2    1.855796792026056E-4
 5.893896948474238E6     1.000213010008708      -7.756589522960634E-3    2.131303028165970E-1   -6.467734976209446E-3    2.058055183360708E-5    1.635011803762113E-6    1.114092350863825E-2    5.777903041600998E-4
 7.887793896948474E6     1.000200887704606      -1.055587339670072E-2    2.130476881327103E-1   -8.653397107789833E-3    4.980963698976593E-5   -9.103743735730841E-5    1.119410461285397E-2    6.914974656762043E-4
 9.881690845422711E6     9.998289309144589E-1   -1.249639538995247E-2    2.128835540124716E-1   -1.068796991439450E-2    4.527554800037104E-5   -4.197716188268183E-5    1.096092977871398E-2    1.034194620186749E-3
 1.187558779389695E7     9.998825108571917E-1   -1.591449746265960E-2    2.126409525917477E-1   -1.304129857232798E-2    5.718257269807605E-5   -4.231120016761517E-5    1.073431363959160E-2    1.312635173165079E-3
 1.386948474237119E7     1.000118471774257      -1.910976814633623E-2    2.126559543979855E-1   -1.534708649715749E-2    9.300921791332056E-5   -4.492470108686050E-5    1.067382076268321E-2    1.622698377790008E-3
 1.586338169084542E7     1.000029384554714      -2.197627226503380E-2    2.123967785564113E-1   -1.737604816450187E-2    1.590981595399278E-5    6.255496292802475E-5    1.065242380551595E-2    1.888486464339175E-3
 1.785727863931966E7     1.000219799242022      -2.498017116928686E-2    2.121421042024502E-1   -1.980704568682841E-2    3.806175883685671E-5    5.179977044517122E-5    1.058689138547346E-2    1.897484186973362E-3
 1.985117558779390E7     9.999576355824291E-1   -2.781198263764645E-2    2.118563634844695E-1   -2.191450529616907E-2   -7.454220197694524E-5   -4.999944511503569E-5    1.054641300464594E-2    2.158739783127379E-3
 2.184507253626813E7     9.999416368767149E-1   -3.051143183248939E-2    2.117683790357478E-1   -2.423639325549149E-2    4.995534248374325E-5    5.140137183131614E-5    1.044188338781527E-2    2.538537754734602E-3
 2.383896948474237E7     9.999101153834868E-1   -3.358358652515678E-2    2.114783703291870E-1   -2.652531359132921E-2   -8.422789512077167E-5    8.559306041633293E-7    1.049314626510343E-2    2.743246176639103E-3
 2.583286643321661E7     9.996572109960008E-1   -3.635952776166342E-2    2.111906429514825E-1   -2.870543273096872E-2   -8.487209459800181E-5   -4.011463763797072E-5    1.037541856514368E-2    3.007822958813794E-3
 2.782676338169084E7     9.998170564488854E-1   -3.895351272276702E-2    2.106906293741292E-1   -3.078444756740021E-2    6.696422180037382E-6   -2.073237147228009E-5    1.040660654432448E-2    3.297519762682792E-3
 2.982066033016508E7     9.999328486061436E-1   -4.194036772265654E-2    2.105456601598900E-1   -3.288718417204307E-2    6.770480008260488E-5   -2.529788562080538E-6    1.028214569443251E-2    3.525369250633106E-3
 3.181455727863932E7     9.998421101079843E-1   -4.484606163581322E-2    2.102503909792178E-1   -3.519808112859731E-2   -3.972660885688325E-5   -4.221528374259609E-5    1.037718360529662E-2    3.679961671220709E-3
 3.380845422711356E7     9.996285080900689E-1   -4.741337581229392E-2    2.097628474447360E-1   -3.720610411439527E-2   -1.492514463385401E-5   -7.654224615613748E-5    1.030278269124410E-2    3.990582404972629E-3
 3.580235117558780E7     9.996636811769106E-1   -5.038943631843262E-2    2.093805131808792E-1   -3.937548369976643E-2    1.387889096853231E-7    2.077073055315538E-5    1.036037257012295E-2    3.920126423077707E-3
 3.779624812406203E7     9.997533567613728E-1   -5.305736047276220E-2    2.091344889742510E-1   -4.149762947831104E-2    5.942982292083305E-5   -2.953513245283506E-5    1.046153008258558E-2    4.472478952196111E-3
 3.979014507253627E7     9.995823774249498E-1   -5.613231738027762E-2    2.084441078476169E-1   -4.370132498794840E-2    1.849922491541454E-5    4.189122781663795E-5    1.033980108533762E-2    4.632232167608570E-3
 4.178404202101051E7     9.996852479264811E-1   -5.879102702512946E-2    2.079268175456998E-1   -4.570547933898011E-2   -4.371181046753065E-5    2.762310315197660E-5    1.048462544289206E-2    4.768943220189816E-3
 4.377793896948475E7     9.993416065970383E-1   -6.168986971073961E-2    2.073394593432859E-1   -4.793372758055908E-2    4.406710667673636E-5    1.552409448895941E-5    1.064427328564190E-2    4.865424261251574E-3
 4.577183591795898E7     9.995104766596500E-1   -6.501272369962961E-2    2.070243831993732E-1   -5.016881106446221E-2    5.766882374904654E-5    1.611415640975115E-5    1.042827162679299E-2    5.130849178635800E-3
 4.776573286643322E7     9.993139841585311E-1   -6.792806607770885E-2    2.064920057336326E-1   -5.225917875149698E-2   -5.736944304734245E-5   -1.427534451127446E-5    1.070336420068389E-2    5.407098373001620E-3
 4.975962981490745E7     9.994687440768303E-1   -7.037354314326581E-2    2.059882283322466E-1   -5.440134577600868E-2   -9.032255596687685E-5   -1.822839125471146E-5    1.050063026742279E-2    5.488719829729684E-3
 5.175352676338169E7     9.991568255126806E-1   -7.319329629986990E-2    2.055148579213067E-1   -5.654605321435515E-2   -1.475097003404181E-5    2.117887497646342E-5    1.065629222618604E-2    5.714975843254745E-3
 5.374742371185593E7     9.990575167736139E-1   -7.647661250856924E-2    2.046972615943464E-1   -5.861286331934881E-2   -3.233498869566960E-5   -2.279580927278930E-5    1.069548005732583E-2    5.918412597030820E-3
 5.574132066033017E7     9.989150703583938E-1   -7.911696106318412E-2    2.041759950436011E-1   -6.077920540020205E-2    1.580750826624040E-5    3.248384680670676E-6    1.085392304424539E-2    6.164007699409685E-3
 5.773521760880440E7     9.988459728638708E-1   -8.190490720355935E-2    2.034125014168275E-1   -6.281202429611304E-2   -5.750266718761641E-5    3.081172333305434E-5    1.087526427756679E-2    6.393769623805294E-3
 5.972911455727864E7     9.990304001309719E-1   -8.479646030474773E-2    2.027950351929809E-1   -6.486598236946660E-2   -1.499879625798114E-5   -2.501593802803095E-5    1.076673619495384E-2    6.677440247622290E-3
 6.172301150575288E7     9.991358852822293E-1   -8.775648568686140E-2    2.020740326773290E-1   -6.696481435820983E-2   -1.496132262994076E-5   -2.417337092964078E-5    1.098019934085209E-2    7.032827841260263E-3
 6.371690845422712E7     9.989895597945694E-1   -9.050829188694541E-2    2.013877160422865E-1   -6.891803149084647E-2   -2.308199010772835E-5    1.188115597033914E-6    1.108934326860067E-2    6.984635078266567E-3
 6.571080540270136E7     9.989788341776645E-1   -9.368884343947571E-2    2.006520663959796E-1   -7.105840002528159E-2   -4.075250102142457E-5    2.029880540109870E-5    1.116462168206120E-2    7.268257864721997E-3
 6.770470235117559E7     9.987880065883475E-1   -9.651098285315243E-2    1.999186285237315E-1   -7.307455596224326E-2   -3.442358821170458E-5   -7.718094336420708E-5    1.108740675047535E-2    7.540046696502233E-3
 6.969859929964983E7     9.984054151455903E-1   -9.960915265390503E-2    1.991525462143456E-1   -7.516165656080299E-2   -7.263429576346805E-5    4.848756850073273E-6    1.121884523677159E-2    7.625585773565805E-3
 7.169249624812406E7     9.984161291968064E-1   -1.022772396218657E-1    1.982675210747034E-1   -7.713845762530086E-2   -5.360084718941312E-5    1.390070149276028E-5    1.146901257246082E-2    7.774198066136614E-3
 7.368639319659831E7     9.983921030078469E-1   -1.047886960787004E-1    1.974123839508899E-1   -7.930146313186419E-2   -8.350468145299900E-5   -4.278482538434359E-5    1.163311397614431E-2    7.989812577404382E-3
 7.568029014507253E7     9.982538740870458E-1   -1.073724447132555E-1    1.966378667112270E-1   -8.103065948416509E-2   -1.384861322726651E-5   -2.516822851620509E-5    1.146259577297507E-2    7.929914762422935E-3
 7.767418709354678E7     9.981983485370817E-1   -1.108831138892400E-1    1.959131368498076E-1   -8.317415142897908E-2   -3.549807822855608E-5   -3.559264658101579E-5    1.156779850798855E-2    8.393986152767735E-3
 7.966808404202102E7     9.983119303559957E-1   -1.134650165779775E-1    1.949874723921781E-1   -8.529220023526868E-2   -3.779052725691616E-5   -1.557151625514190E-5    1.171567355166308E-2    8.639966163407118E-3
 8.166198099049525E7     9.980684008342930E-1   -1.161556007347525E-1    1.939810426783819E-1   -8.719828621169033E-2    2.612933796067745E-5   -5.475746083384622E-5    1.171637078657866E-2    8.932615070731941E-3
 8.365587793896949E7     9.977733936163256E-1   -1.192593546411225E-1    1.930638829208443E-1   -8.910162020616869E-2   -1.433695472170135E-5   -3.944931998152696E-5    1.205651163052564E-2    9.005407433581735E-3
 8.564977488744372E7     9.978116044463200E-1   -1.221746636720042E-1    1.921600871664678E-1   -9.109664206304226E-2   -5.023992519994161E-5    2.557159105773012E-6    1.184000719493287E-2    9.303018392709262E-3
 8.764367183591796E7     9.976106664682033E-1   -1.250879225677228E-1    1.910187991873094E-1   -9.311155338475542E-2   -7.108478012448796E-5    7.689139810523159E-5    1.193263410424607E-2    9.540609440867751E-3
 8.963756878439221E7     9.977874294379311E-1   -1.276921992217099E-1    1.902248297166528E-1   -9.498039979650430E-2   -3.455746934935604E-5    7.052117985639372E-5    1.247021925822086E-2    9.666397262561193E-3
 9.163146573286644E7     9.973367801815849E-1   -1.307792388310264E-1    1.891829812585624E-1   -9.702151427009040E-2   -1.250549542803759E-5   -5.068195188867759E-5    1.227084264220581E-2    9.924132600587837E-3
 9.362536268134068E7     9.970423579684822E-1   -1.333285774361773E-1    1.880606651224526E-1   -9.877178741929471E-2   -9.254199660163727E-5    2.258593077405995E-5    1.239957398688815E-2    1.015231080699238E-2
 9.561925962981491E7     9.974091642718637E-1   -1.364734172146066E-1    1.871150651617219E-1   -1.008670070659963E-1   -8.539018906316825E-5    5.845372563609750E-6    1.260108965111482E-2    1.036187211960759E-2
 9.761315657828915E7     9.968949436489730E-1   -1.393872431066404E-1    1.860306937188592E-1   -1.027619100692962E-1   -8.482642244474660E-5    8.772313642537763E-6    1.270885785488507E-2    1.069947772424558E-2
 9.960705352676338E7     9.969723494545910E-1   -1.418538684559486E-1    1.851274564220622E-1   -1.045935274099508E-1   -9.545300358000082E-5    2.971891459980269E-5    1.277968027281845E-2    1.073568254677818E-2
 1.016009504752376E8     9.966515212407960E-1   -1.453341678044627E-1    1.839734419957998E-1   -1.065042148961735E-1    1.509808521788064E-6   -3.202180656552384E-7    1.281321226223176E-2    1.112630070522733E-2
 1.035948474237119E8     9.963758858504317E-1   -1.478649813514893E-1    1.828150135848659E-1   -1.082455121494982E-1   -1.166216903350753E-4   -2.747297664560029E-5    1.286233398363852E-2    1.117215515032102E-2
 1.055887443721861E8     9.962679783908025E-1   -1.507698701575220E-1    1.816849964819861E-1   -1.102069936334281E-1   -1.261146706074247E-4    5.673599708853404E-5    1.290837511972127E-2    1.148968379240411E-2
 1.075826413206603E8     9.960573313690977E-1   -1.535912315305598E-1    1.805101784453877E-1   -1.118122621537191E-1   -6.763333681343033E-5    4.306744633402399E-5    1.317851783604580E-2    1.161745092704885E-2
 1.095765382691346E8     9.957611837854040E-1   -1.564291758986622E-1    1.793933353143458E-1   -1.139061308444105E-1   -3.142979447986598E-5   -8.345225649589424E-5    1.327581085616187E-2    1.179022144894219E-2
 1.115704352176088E8     9.958009041803316E-1   -1.590609610204970E-1    1.782273860206778E-1   -1.156067387463964E-1   -1.096193742680507E-4   -2.448169582745272E-5    1.324316973132212E-2    1.202585379322328E-2
 1.135643321660831E8     9.954199471264522E-1   -1.622159747828338E-1    1.771266548026290E-1   -1.174002446904862E-1   -9.992820537652121E-5    5.087435682837978E-5    1.353748033522782E-2    1.232839790747482E-2
 1.155582291145573E8     9.954391316065497E-1   -1.648339431389448E-1    1.759137467124474E-1   -1.192531015484590E-1   -7.272046715873747E-5    2.366509250302688E-5    1.357877498090622E-2    1.249860830535471E-2
 1.175521260630315E8     9.950427459961213E-1   -1.676847234764721E-1    1.746043747382982E-1   -1.211193840033613E-1   -4.183660459010975E-5   -3.819235517691703E-5    1.379451420334518E-2    1.282618395274766E-2
 1.195460230115058E8     9.949730684806380E-1   -1.704251199267273E-1    1.733491458186482E-1   -1.228426195249578E-1   -8.124704166618838E-5    9.316218855357041E-6    1.384258987313882E-2    1.289938120918243E-2
 1.215399199599800E8     9.949801440646608E-1   -1.734187685231161E-1    1.721108550053281E-1   -1.247465707645670E-1   -5.036713262076352E-5   -6.394531866571397E-5    1.396251233023448E-2    1.312146187663408E-2
 1.235338169084542E8     9.946616142063887E-1   -1.761908278914676E-1    1.709335272099248E-1   -1.262753795358650E-1   -5.809471813407380E-5    5.507033042782813E-5    1.411195883086416E-2    1.326971394265131E-2
 1.255277138569285E8     9.943643747873935E-1   -1.791162897306785E-1    1.695983558143524E-1   -1.281322829646489E-1   -1.045011508735672E-4    8.134781788030762E-5    1.428140884152385E-2    1.353929395790705E-2
 1.275216108054027E8     9.941259532643515E-1   -1.820978959814658E-1    1.681043978070113E-1   -1.297893715416575E-1   -1.095388486120196E-4   -4.513274456242307E-5    1.445789291704015E-2    1.358955001244742E-2
 1.295155077538769E8     9.940026142831784E-1   -1.850887644240537E-1    1.669013797510940E-1   -1.316612792830661E-1   -1.012828082632706E-4    5.189169888584307E-5    1.466114008403226E-2    1.377679568021171E-2
 1.315094047023512E8     9.937838142781055E-1   -1.879321150386971E-1    1.654840127866435E-1   -1.334165918689092E-1   -1.139528884080470E-4    3.763541940526432E-5    1.454543476081402E-2    1.406705684083800E-2
 1.335033016508254E8     9.937657684110331E-1   -1.908237558866854E-1    1.641349097528220E-1   -1.351022793786429E-1   -2.279117755125746E-5    8.344711580407568E-5    1.463910224239013E-2    1.413557561352961E-2
 1.354971985992997E8     9.932338257975668E-1   -1.939019285418884E-1    1.627063306644168E-1   -1.367325555506990E-1   -2.328999192000125E-5    1.809646574461273E-5    1.490547231829390E-2    1.422676817888789E-2
 1.374910955477739E8     9.931107056729455E-1   -1.968940795699264E-1    1.613224766405229E-1   -1.384458494129865E-1   -8.858715373729734E-5    7.623487748899469E-5    1.495900675638129E-2    1.445664135614026E-2
 1.394849924962481E8     9.926512128585326E-1   -1.998407048931996E-1    1.598050590268635E-1   -1.401896428443959E-1   -4.089611259312393E-5    3.152370671623911E-5    1.510648574929944E-2    1.453276110055078E-2
 1.414788894447224E8     9.927465591467926E-1   -2.027731431124360E-1    1.585402818397947E-1   -1.418630679280038E-1   -2.616825907062841E-5    4.388285427952403E-5    1.510037518167675E-2    1.465575673621042E-2
 1.434727863931966E8     9.925660966148989E-1   -2.058761071478679E-1    1.569841958926125E-1   -1.434886875473626E-1   -8.402936705122094E-5    6.931784032106856E-5    1.509894469746781E-2    1.495438408158918E-2
 1.454666833416708E8     9.924465797285886E-1   -2.087764470883504E-1    1.553278716544045E-1   -1.450896243305061E-1    8.177378642913712E-5    8.694049327711114E-5    1.530515552196972E-2    1.516752847162706E-2
 1.474605802901451E8     9.917531822287861E-1   -2.120557166565170E-1    1.537869143516370E-1   -1.468160632312787E-1   -2.958367672161510E-5    3.305939435235842E-5    1.560918838864325E-2    1.542982893859589E-2
 1.494544772386193E8     9.915314545270180E-1   -2.149544561758835E-1    1.521788695593583E-1   -1.483883677800416E-1   -5.758597542381212E-5    3.806668280544246E-5    1.591375250909642E-2    1.544800851672847E-2
 1.514483741870936E8     9.912577034051876E-1   -2.179958262362318E-1    1.505823530850442E-1   -1.500989014525725E-1    8.057610867534580E-6   -2.975980975241927E-5    1.611102486228272E-2    1.585255730443598E-2
 1.534422711355678E8     9.910498065172242E-1   -2.209304108164875E-1    1.492642934152144E-1   -1.514887991996460E-1    4.993189121373916E-6    8.607044725282684E-5    1.618248850691897E-2    1.612554582080468E-2
 1.554361680840420E8     9.906220974704455E-1   -2.237953527599224E-1    1.474950511136507E-1   -1.531193897578213E-1    7.809248413986899E-5   -7.217581368812554E-5    1.633397358547889E-2    1.632369595129474E-2
 1.574300650325163E8     9.905282740276681E-1   -2.270980306152039E-1    1.457634515761020E-1   -1.547059844178347E-1    9.985008780543064E-5    1.134932768993405E-5    1.653522388745253E-2    1.654185052417029E-2
 1.594239619809905E8     9.902393447006669E-1   -2.298883770237578E-1    1.440817419986951E-1   -1.562149542279181E-1    1.525821786022251E-4   -4.783710248637482E-5    1.670983224839367E-2    1.672700507920682E-2
 1.614178589294647E8     9.899126388412522E-1   -2.327055322607081E-1    1.423035873751017E-1   -1.577539387075992E-1    1.765860069017915E-4    2.762457671265434E-5    1.707457625408957E-2    1.702287634453280E-2
 1.634117558779390E8     9.892759865705171E-1   -2.357836116458457E-1    1.405964953701871E-1   -1.591921205182147E-1    2.045577707970941E-4   -1.173419954774011E-4    1.734184814319856E-2    1.732308696527426E-2
 1.654056528264132E8     9.893231365765922E-1   -2.389783248310704E-1    1.387312491103910E-1   -1.608917506244926E-1    2.668895149203662E-4   -2.617511830351246E-4    1.785967979591980E-2    1.763665004765268E-2
 1.673995497748874E8     9.891358749351764E-1   -2.417331104397471E-1    1.367166320194116E-1   -1.620510993210731E-1    2.856192997202132E-4   -5.102129571555018E-4    1.839051339367272E-2    1.767016182063240E-2
 1.693934467233617E8     9.885741224945342E-1   -2.445460697418861E-1    1.347092620019583E-1   -1.633547768421925E-1    7.020712507638285E-5   -7.314807052288337E-4    1.913943740518789E-2    1.760110718290462E-2
 1.713873436718359E8     9.887693812246625E-1   -2.473549834618021E-1    1.329585498564793E-1   -1.641827697715914E-1   -2.061319196678145E-4   -8.373680120482491E-4    1.940834184000857E-2    1.711663250566276E-2
 1.733812406203102E8     9.884450438818833E-1   -2.505175010314708E-1    1.313256090851571E-1   -1.652599367539070E-1   -6.618769919020471E-4   -1.012093123769180E-3    1.923281722731592E-2    1.694794836857105E-2
 1.753751375687844E8     9.885471922228305E-1   -2.536603701081536E-1    1.300373924737677E-1   -1.661023030842819E-1   -7.411176680587696E-4   -5.505839580320266E-4    1.924083449109849E-2    1.667859353737069E-2
 1.773690345172586E8     9.881843940228976E-1   -2.570468968480006E-1    1.283253428570904E-1   -1.673879865287016E-1   -8.088437839826589E-4   -3.759887269935231E-4    1.924883492901543E-2    1.662564645723929E-2
 1.793629314657329E8     9.877132430070187E-1   -2.603533146552354E-1    1.268189896434027E-1   -1.688044014092921E-1   -7.515719245440116E-4   -1.472986921567200E-4    1.905995158894034E-2    1.690173795482716E-2
 1.813568284142071E8     9.872443949703371E-1   -2.633946913124987E-1    1.253272892042500E-1   -1.701835848791799E-1   -6.352294465465947E-4   -9.669500582765869E-5    1.914831938524347E-2    1.710256722141185E-2
 1.833507253626814E8     9.870888473585979E-1   -2.663489354866367E-1    1.235033609399310E-1   -1.715804816267381E-1   -5.755128538599005E-4    5.196901732065154E-5    1.929112530238833E-2    1.733327731526230E-2
