#  HZ   S   RI   R     50.00 
! Rohde & Schwarz Vector Network Analyzer 
! Rohde-Schwarz,ZNL20-2Port,1323001220101312,1.72.1.6-23.02.1.246
! Created: UTC 10/23/2024, 6:44:50 PM
! freq[Hz]                re:S11                  im:S11                  re:S21                  im:S21                  re:S12                  im:S12                  re:S22                  im:S22
 3.900000000000000E6     1.026340990993149      -7.883053803762410E-3    1.369820431658354E-1   -4.074461446562143E-3    1.404552822065659E-5    8.566479537389734E-6    2.221099632167452E-2    1.435445007245568E-3
 5.893896948474238E6     1.019179364393735      -9.786591114949809E-3    1.361287824402235E-1   -5.730469697107799E-3    2.699746410923099E-6   -1.280769111057821E-6    1.915749517229651E-2    2.636946812626355E-3
 7.887793896948474E6     1.013361761537996      -1.254787906156908E-2    1.350363142239622E-1   -7.211431917288476E-3   -7.055995030522402E-7    4.068813522381007E-6    1.711387536668064E-2    3.489922612721825E-3
 9.881690845422711E6     1.008715719829083      -1.563017553884329E-2    1.343015623666572E-1   -8.406015686797519E-3   -1.854679202826264E-6    1.367578264322037E-5    1.568795466253226E-2    4.117284731825458E-3
 1.187558779389695E7     1.006531969177109      -1.966633851775424E-2    1.341556965096971E-1   -9.745072980925947E-3   -6.828586029801086E-6    2.217182094135883E-5    1.462550108755590E-2    4.346514819133352E-3
 1.386948474237119E7     1.004004683973217      -2.322255096359457E-2    1.338413514503641E-1   -1.088963938238515E-2   -1.314959696435429E-6    2.442983946321191E-5    1.387321082346801E-2    4.629913225726212E-3
 1.586338169084542E7     1.001931250948654      -2.674666765864292E-2    1.338398715496788E-1   -1.205715420577629E-2   -1.290589095229950E-5    1.536076715330564E-5    1.328819787219521E-2    4.877635789960391E-3
 1.785727863931966E7     9.999977613560005E-1   -3.016915343310891E-2    1.337142031700272E-1   -1.317133159954503E-2   -7.796825749748328E-6    2.164655557675448E-5    1.277674436403061E-2    5.190701833946355E-3
 1.985117558779390E7     9.981178103800734E-1   -3.383179553675644E-2    1.336663634854325E-1   -1.432052400014525E-2   -1.282969034805871E-5    3.078121510512014E-5    1.222842392348696E-2    5.365035642003787E-3
 2.184507253626813E7     9.964780421603492E-1   -3.740529527257086E-2    1.338574877957198E-1   -1.544867366781083E-2   -1.766188656057731E-5    2.966778744188580E-5    1.179847802031612E-2    5.501865242427411E-3
 2.383896948474237E7     9.947856148523436E-1   -4.107796669608981E-2    1.339861872293549E-1   -1.666337346579306E-2   -1.831312318499909E-5    3.803436729644372E-5    1.134931310902396E-2    5.579116449679220E-3
 2.583286643321661E7     9.933482098280774E-1   -4.457773067238523E-2    1.340661085251117E-1   -1.787986396906090E-2   -2.087419808100035E-5    3.889240132122609E-5    1.092948316578477E-2    5.747202148074246E-3
 2.782676338169084E7     9.916515554136706E-1   -4.848651192553256E-2    1.340649803377202E-1   -1.918296550237433E-2   -2.484282319732903E-5    4.432350904973890E-5    1.061686665441233E-2    5.847190970843081E-3
 2.982066033016508E7     9.902156873308608E-1   -5.219222930679044E-2    1.340289366932360E-1   -2.048103764328191E-2   -3.068971269806706E-5    4.542237471333845E-5    1.019316990661710E-2    6.000588421945362E-3
 3.181455727863932E7     9.887906580964765E-1   -5.622444465254726E-2    1.340255049768157E-1   -2.183441977319014E-2   -3.671799590989278E-5    4.544672747225164E-5    9.882332604881977E-3    5.967214765174114E-3
 3.380845422711356E7     9.876316245638590E-1   -6.030699487290975E-2    1.341033331223387E-1   -2.323350375496049E-2   -3.710661799960527E-5    5.403200887099654E-5    9.619563242440227E-3    5.885077352910362E-3
 3.580235117558780E7     9.865299527472630E-1   -6.433597495135666E-2    1.340685753869708E-1   -2.465791591151476E-2   -4.277633610657765E-5    5.993003199361672E-5    9.373361476906256E-3    5.829941393157614E-3
 3.779624812406203E7     9.855481449466175E-1   -6.856668440076535E-2    1.339381580882470E-1   -2.614435379385253E-2   -4.971552657126461E-5    6.633741557205666E-5    9.096479345884758E-3    5.733409108577974E-3
 3.979014507253627E7     9.847762960751584E-1   -7.283718429917101E-2    1.337011101004955E-1   -2.759817887171397E-2   -5.055794913165400E-5    6.983070552399468E-5    8.912071236048329E-3    5.636974861553569E-3
 4.178404202101051E7     9.841652935399041E-1   -7.726891255989649E-2    1.334904574840919E-1   -2.910025407375938E-2   -6.053552484485198E-5    6.950455467567136E-5    8.754387920132332E-3    5.472887512534151E-3
 4.377793896948475E7     9.838270120924248E-1   -8.162652691878593E-2    1.331635753163140E-1   -3.054396772828689E-2   -6.176529935278795E-5    7.755563887512567E-5    8.643012317539923E-3    5.274677488107519E-3
 4.577183591795898E7     9.836809497734162E-1   -8.626738620848713E-2    1.327706326441799E-1   -3.204740700653443E-2   -5.909133364167430E-5    8.406602529068332E-5    8.520950254327805E-3    5.122982227008986E-3
 4.776573286643322E7     9.835608038528765E-1   -9.075736509521154E-2    1.323251948427934E-1   -3.340317640457630E-2   -6.677810455135815E-5    8.404573665720777E-5    8.524801481440089E-3    4.918487819537903E-3
 4.975962981490745E7     9.837072814973284E-1   -9.528373833672878E-2    1.319486545004517E-1   -3.469011306625077E-2   -7.628430456862418E-5    8.970496229407610E-5    8.570477217169843E-3    4.736450571021317E-3
 5.175352676338169E7     9.838508058977714E-1   -9.979350897860530E-2    1.313459782710394E-1   -3.603017044989405E-2   -7.892064486503916E-5    1.001788298694336E-4    8.607227776780024E-3    4.623398143186114E-3
 5.374742371185593E7     9.841445859829682E-1   -1.043924620281906E-1    1.309571011434917E-1   -3.711737424713688E-2   -8.458849423024250E-5    1.015019371713714E-4    8.779426587282289E-3    4.508132604473564E-3
 5.574132066033017E7     9.844359739921565E-1   -1.088965726393521E-1    1.303639384462148E-1   -3.838743534465233E-2   -9.133321286088861E-5    1.094546338432505E-4    8.952541512588796E-3    4.382341854651125E-3
 5.773521760880440E7     9.848749161813217E-1   -1.133815617340623E-1    1.298338114241789E-1   -3.948286304808778E-2   -9.269358178734068E-5    1.135263411219799E-4    9.272761137690632E-3    4.303962248369471E-3
 5.972911455727864E7     9.852213556510889E-1   -1.178008341290447E-1    1.294044655833188E-1   -4.052933915703118E-2   -9.031740419239965E-5    1.320044800588195E-4    9.401023465167033E-3    4.246194790770121E-3
 6.172301150575288E7     9.855028796088469E-1   -1.222039369606983E-1    1.289454802515378E-1   -4.152736224482832E-2   -1.116718598382486E-4    1.254925069462241E-4    9.690665151093666E-3    4.177305654310950E-3
 6.371690845422712E7     9.857845242982550E-1   -1.264733187310795E-1    1.284649796686972E-1   -4.253018343054595E-2   -1.149992684063395E-4    1.326669834633458E-4    9.934069089528406E-3    4.171061260043952E-3
 6.571080540270136E7     9.860326769506500E-1   -1.303017193124292E-1    1.278899096404693E-1   -4.367280722581368E-2   -1.169773251498853E-4    1.438072684452032E-4    1.037344998447387E-2    4.603409702502356E-3
 6.770470235117559E7     9.860500053765806E-1   -1.343888775746366E-1    1.273923260467816E-1   -4.463441080911131E-2   -1.275608234333392E-4    1.456433665305278E-4    1.067180682869493E-2    4.586705433551587E-3
 6.969859929964983E7     9.862247667168135E-1   -1.384620657576616E-1    1.268683134033187E-1   -4.582295638558911E-2   -1.262028398629013E-4    1.578931954552568E-4    1.090215210694195E-2    4.720945172464147E-3
 7.169249624812406E7     9.860164114795782E-1   -1.425101335856164E-1    1.262335157345000E-1   -4.689175166888824E-2   -1.369322380974228E-4    1.687508457494425E-4    1.119065516393146E-2    4.758346591413076E-3
 7.368639319659831E7     9.858715981368261E-1   -1.462767871456982E-1    1.259054719414573E-1   -4.796505615912569E-2   -1.431535180883542E-4    1.783026293744020E-4    1.148762688071651E-2    4.879338817942936E-3
 7.568029014507253E7     9.857409994191483E-1   -1.500196097274714E-1    1.257193210491723E-1   -4.928133493988463E-2   -1.450364030037921E-4    1.859574280934057E-4    1.178936946696999E-2    5.077187376330144E-3
 7.767418709354678E7     9.855010244347548E-1   -1.538444858217209E-1    1.253217294391253E-1   -5.032697118812701E-2   -1.514144281257913E-4    1.901572683482477E-4    1.203027723441122E-2    5.200766429383750E-3
 7.966808404202102E7     9.850264114399316E-1   -1.576190080327947E-1    1.246124399612150E-1   -5.159526552842919E-2   -1.641990226462879E-4    2.005890758744564E-4    1.236855250529473E-2    5.413740278318351E-3
 8.166198099049525E7     9.847870182162984E-1   -1.613478079054844E-1    1.245890585202773E-1   -5.296260322370457E-2   -1.676628306168087E-4    2.089150298717775E-4    1.263699570462230E-2    5.586944237562674E-3
 8.365587793896949E7     9.844106001994989E-1   -1.651251726477723E-1    1.241918659227486E-1   -5.388365593430487E-2   -1.722712016891844E-4    2.190530011935368E-4    1.286261585101591E-2    5.810871820906641E-3
 8.564977488744372E7     9.841065800953688E-1   -1.686782879728814E-1    1.237225811102549E-1   -5.526183035282867E-2   -1.740084515081705E-4    2.348918675662359E-4    1.314537329358921E-2    6.096933880864128E-3
 8.764367183591796E7     9.837524742023506E-1   -1.722040343648442E-1    1.236308502491659E-1   -5.631343503502936E-2   -1.812590226917791E-4    2.423308162298710E-4    1.340720987952349E-2    6.344114302022845E-3
 8.963756878439221E7     9.834984799810169E-1   -1.757038749311103E-1    1.228973038108649E-1   -5.774955899898205E-2   -1.867294799554069E-4    2.499605101638346E-4    1.360292477574519E-2    6.647192543247939E-3
 9.163146573286644E7     9.826020226028179E-1   -1.790492064277844E-1    1.229245226104280E-1   -5.846888403203524E-2   -2.061827529835189E-4    2.802262681409224E-4    1.353665484439746E-2    7.058495403504194E-3
 9.362536268134068E7     9.820423317428705E-1   -1.821887961951029E-1    1.222858508717296E-1   -5.990152971936432E-2   -1.927261011503730E-4    2.760382472581340E-4    1.372427686761108E-2    7.354129579330309E-3
 9.561925962981491E7     9.813324579979804E-1   -1.852621463306411E-1    1.221848846930647E-1   -6.071536245885628E-2   -1.913476545279002E-4    2.875554910108686E-4    1.387996776684859E-2    7.723879741795768E-3
 9.761315657828915E7     9.808312968429707E-1   -1.882683370250093E-1    1.218060998062614E-1   -6.213466958417779E-2   -2.027818897574297E-4    2.974485933272385E-4    1.398337422591718E-2    7.996700953939414E-3
 9.960705352676338E7     9.799664972006450E-1   -1.911139952340169E-1    1.218322743965561E-1   -6.282231635118746E-2   -2.022244508254378E-4    3.145104362519768E-4    1.412348915870293E-2    8.400182726395944E-3
 1.016009504752376E8     9.791175269151569E-1   -1.939578957185258E-1    1.214127448758470E-1   -6.409041911827620E-2   -2.090540869213181E-4    3.259466227015240E-4    1.423847468741125E-2    8.748905848601080E-3
 1.035948474237119E8     9.781354167107701E-1   -1.968501924805459E-1    1.210116117680707E-1   -6.539792442316196E-2   -2.144285246525028E-4    3.388446003242187E-4    1.435167960748702E-2    9.081937982221948E-3
 1.055887443721861E8     9.770314120031149E-1   -1.995718839559083E-1    1.208458510590535E-1   -6.618644145276993E-2   -2.059399365221460E-4    3.530291160145363E-4    1.444303779650533E-2    9.380000057842753E-3
 1.075826413206603E8     9.759263980211186E-1   -2.023225102103529E-1    1.205665204458129E-1   -6.771408418654519E-2   -2.088307054200514E-4    3.638398516357196E-4    1.452855382120004E-2    9.800958038310156E-3
 1.095765382691346E8     9.746044252286057E-1   -2.051428458443927E-1    1.200809901148874E-1   -6.890707928808795E-2   -2.087838032870287E-4    3.763153724858844E-4    1.453091703589923E-2    1.012081512767000E-2
 1.115704352176088E8     9.733383877125331E-1   -2.080158021891879E-1    1.195946272317758E-1   -7.000533080354876E-2   -2.027331107674996E-4    3.915149342874538E-4    1.458472483182870E-2    1.046467183291082E-2
 1.135643321660831E8     9.719677444739709E-1   -2.108897366697588E-1    1.190115670535593E-1   -7.168864291514766E-2   -2.096521748454173E-4    4.098132867033840E-4    1.457302430430588E-2    1.083280255277739E-2
 1.155582291145573E8     9.705531889784418E-1   -2.138816958167981E-1    1.185733793401702E-1   -7.286105803984730E-2   -2.030901521686731E-4    4.230366250455453E-4    1.451303602993777E-2    1.115272657507308E-2
 1.175521260630315E8     9.689728595922336E-1   -2.172292623412080E-1    1.177627357017034E-1   -7.403721179085533E-2   -1.985199504797802E-4    4.427337011174471E-4    1.443340430261352E-2    1.129888597969551E-2
 1.195460230115058E8     9.676288717358782E-1   -2.204804157785977E-1    1.167204505388794E-1   -7.565246966214842E-2   -1.860323758938450E-4    4.611822810698070E-4    1.438756176586338E-2    1.163205365081305E-2
 1.215399199599800E8     9.662305354500684E-1   -2.238357574872352E-1    1.159068500523028E-1   -7.688544802451239E-2   -1.778102455819640E-4    4.744097951625258E-4    1.436022461890322E-2    1.183596863399498E-2
 1.235338169084542E8     9.648986724473088E-1   -2.272543913981345E-1    1.151913110147493E-1   -7.815360584890660E-2   -1.728253817578024E-4    4.891366765599666E-4    1.429855917289396E-2    1.214542293534805E-2
 1.255277138569285E8     9.636784200580718E-1   -2.309408402348746E-1    1.143969892306154E-1   -7.945265985519931E-2   -1.624645943277101E-4    5.200831961776583E-4    1.428590412846025E-2    1.240928901603845E-2
 1.275216108054027E8     9.625615867102041E-1   -2.347438052667139E-1    1.134865650907361E-1   -8.082563331955164E-2   -1.473569514500547E-4    5.344922131230014E-4    1.420308629692664E-2    1.270360775474208E-2
 1.295155077538769E8     9.614713637390827E-1   -2.388320306411678E-1    1.124253737324546E-1   -8.228871227949740E-2   -1.307449952525724E-4    5.513134644511530E-4    1.416995886507950E-2    1.290547333671469E-2
 1.315094047023512E8     9.603526605636932E-1   -2.430070040338395E-1    1.111640902494886E-1   -8.372073324640092E-2   -1.043685074306402E-4    5.637660299599137E-4    1.410022432630523E-2    1.311868001279980E-2
 1.335033016508254E8     9.593340825220301E-1   -2.472371017434718E-1    1.101421100749753E-1   -8.488297097804365E-2   -7.864629801207477E-5    5.932432480792366E-4    1.404467901791338E-2    1.336419444604878E-2
 1.354971985992997E8     9.584534293541950E-1   -2.515912466775744E-1    1.091094566266166E-1   -8.601771840500930E-2   -4.757142161180445E-5    6.034800297522853E-4    1.395783784547995E-2    1.352236550840954E-2
 1.374910955477739E8     9.575923198248378E-1   -2.560623100742065E-1    1.081157717722612E-1   -8.712629943112851E-2   -9.089512988733049E-6    6.252272311203511E-4    1.393233877535963E-2    1.371136042359973E-2
 1.394849924962481E8     9.567325245344951E-1   -2.606797668625598E-1    1.070244855093740E-1   -8.830912921687538E-2    3.237361369779946E-5    6.426242119325225E-4    1.394090062061167E-2    1.386312020192445E-2
 1.414788894447224E8     9.559408201286852E-1   -2.654090920691247E-1    1.056981185343565E-1   -8.958280750786274E-2    7.434300779367772E-5    6.486635156994657E-4    1.392795995578641E-2    1.406838894466542E-2
 1.434727863931966E8     9.552133333510818E-1   -2.701249784381751E-1    1.045434086290059E-1   -9.066827413736654E-2    1.352605269108175E-4    6.582830937001281E-4    1.392639133516283E-2    1.417399039317663E-2
 1.454666833416708E8     9.543614808071000E-1   -2.748495593412654E-1    1.031807180026248E-1   -9.189429170580268E-2    1.982182398438536E-4    6.743680956793539E-4    1.387288625803180E-2    1.431068375919390E-2
 1.474605802901451E8     9.535892737628080E-1   -2.796208744207367E-1    1.019232073115628E-1   -9.292414297220676E-2    2.807418761961214E-4    6.853475188168714E-4    1.394164783521875E-2    1.439804940963118E-2
 1.494544772386193E8     9.529776231264014E-1   -2.842957413527817E-1    1.008986567185438E-1   -9.420123452600150E-2    3.780054082581177E-4    6.852706490757546E-4    1.400203057654025E-2    1.456323654061146E-2
 1.514483741870936E8     9.522420250071675E-1   -2.888528068845373E-1    9.960298460577277E-2   -9.545971242249389E-2    5.073713701442285E-4    6.738530843470274E-4    1.402871952232519E-2    1.477207742552272E-2
 1.534422711355678E8     9.515224609918648E-1   -2.932015258556017E-1    9.852649559072975E-2   -9.650009124058452E-2    6.597676434249226E-4    6.517499017643084E-4    1.407729459510521E-2    1.502090911584364E-2
 1.554361680840420E8     9.506924845351000E-1   -2.975748261716846E-1    9.761608572292424E-2   -9.772390971394798E-2    8.465041565906774E-4    5.848672307535689E-4    1.418279620177632E-2    1.531422153588498E-2
 1.574300650325163E8     9.498890173617495E-1   -3.018493868149786E-1    9.632502504889298E-2   -9.893682731455881E-2    1.086459642218769E-3    4.848778567326258E-4    1.441335894995054E-2    1.583060511155969E-2
 1.594239619809905E8     9.487902324190630E-1   -3.056051360289611E-1    9.503799214606647E-2   -9.979797393283132E-2    1.404753730190833E-3    3.032483071174887E-4    1.500648353426008E-2    1.670451782268837E-2
 1.614178589294647E8     9.477136867222250E-1   -3.095141088138055E-1    9.406563840003739E-2   -1.013450687628873E-1    1.781874148858434E-3   -7.536697468131867E-5    1.565579109791859E-2    1.753894040565992E-2
 1.634117558779390E8     9.466142658966903E-1   -3.132561100101158E-1    9.275733681100747E-2   -1.029743528087449E-1    2.164578493688965E-3   -7.774652330524217E-4    1.690757751688249E-2    1.853538864803468E-2
 1.654056528264132E8     9.455665459942811E-1   -3.168107598718037E-1    9.072231237288444E-2   -1.044166879328683E-1    2.168562032364874E-3   -1.952948799175729E-3    1.908435449420288E-2    1.918536451842362E-2
 1.673995497748874E8     9.448806678360401E-1   -3.197301606185327E-1    8.870521706143603E-2   -1.058253747553131E-1    1.336623390106907E-3   -3.230398357991665E-3    2.179772382246523E-2    1.845050274686424E-2
 1.693934467233617E8     9.447776222865503E-1   -3.230172531725065E-1    8.659115686912185E-2   -1.066471058811540E-1   -3.101182006785997E-4   -3.729803275743266E-3    2.365923016234872E-2    1.608910667151818E-2
 1.713873436718359E8     9.448508656560786E-1   -3.265874265707031E-1    8.451174786935660E-2   -1.066668800356973E-1   -1.763590337225072E-3   -3.248672683921177E-3    2.390366957290048E-2    1.363830771184808E-2
 1.733812406203102E8     9.446185825157807E-1   -3.303557420577645E-1    8.313272117786684E-2   -1.067321786811692E-1   -2.597174821808192E-3   -2.305824630661775E-3    2.307297734527328E-2    1.198939328197402E-2
 1.753751375687844E8     9.442079325929327E-1   -3.343703803832394E-1    8.246618598720680E-2   -1.071835142032891E-1   -2.871145286540673E-3   -1.367520819992637E-3    2.203279424899022E-2    1.125141290024155E-2
 1.773690345172586E8     9.436664997157359E-1   -3.383355631792138E-1    8.168546210084267E-2   -1.080312843564602E-1   -2.818527119350659E-3   -6.351839493517257E-4    2.117364607597327E-2    1.116877505718018E-2
 1.793629314657329E8     9.427873841079388E-1   -3.417391878699210E-1    8.070267550134846E-2   -1.088846998293950E-1   -2.634813814980082E-3   -1.165132373520959E-4    2.069107088002092E-2    1.139758744006197E-2
 1.813568284142071E8     9.419216419630576E-1   -3.451958082273063E-1    7.984906020631552E-2   -1.093692516197620E-1   -2.426677146982174E-3    2.044513811473149E-4    2.045691098355359E-2    1.165285150016306E-2
 1.833507253626814E8     9.409936710818213E-1   -3.484961796264472E-1    7.884621079692740E-2   -1.098914926647713E-1   -2.236287265933680E-3    4.403191530169274E-4    2.039480549138417E-2    1.203310857405540E-2
