#  HZ   S   RI   R     50.00 
! Rohde & Schwarz Vector Network Analyzer 
! Rohde-Schwarz,ZNL20-2Port,1323001220101312,1.72.1.6-23.02.1.246
! Created: UTC 10/23/2024, 6:41:24 PM
! freq[Hz]                re:S11                  im:S11                  re:S21                  im:S21                  re:S12                  im:S12                  re:S22                  im:S22
 3.900000000000000E6     1.026358397444813      -7.905119965595193E-3    1.369804825727041E-1   -4.086758972649481E-3   -8.781029845176221E-6    1.799167191875051E-5    2.222168499284465E-2    1.435437698060371E-3
 5.893896948474238E6     1.019235345388650      -9.749683023222083E-3    1.361411742961740E-1   -5.741342704102741E-3    1.270271207544510E-6    8.540506695039668E-6    1.917456908018688E-2    2.643968961892741E-3
 7.887793896948474E6     1.013444210008222      -1.253312108540257E-2    1.350468747310468E-1   -7.205930158448920E-3   -2.077236065611737E-6    1.480499704499356E-5    1.715239868955711E-2    3.515575391517301E-3
 9.881690845422711E6     1.008792736111922      -1.567063716063449E-2    1.343118764943294E-1   -8.408368861303871E-3   -5.705932523527754E-6    1.394136035934110E-5    1.573101530150817E-2    4.152060730781004E-3
 1.187558779389695E7     1.006580845576416      -1.962422504854533E-2    1.341546307749591E-1   -9.741801031945999E-3   -5.336534105706078E-7    1.632782348224853E-5    1.466521223770471E-2    4.374630558516738E-3
 1.386948474237119E7     1.004018744780928      -2.314106835837190E-2    1.338288683470733E-1   -1.087129574580859E-2   -9.965974081682519E-7    2.117485771723629E-5    1.392538463241661E-2    4.679771856976914E-3
 1.586338169084542E7     1.001987296617571      -2.672813993851230E-2    1.338563596151014E-1   -1.205069507927534E-2   -1.226508637800047E-5    1.584677324683259E-5    1.332276210043531E-2    4.927721049734243E-3
 1.785727863931966E7     1.000029540995788      -3.014002730862145E-2    1.337151969653820E-1   -1.316771249459004E-2   -1.192481791288859E-5    2.407875051025673E-5    1.281020793581136E-2    5.229784731229408E-3
 1.985117558779390E7     9.981062749711896E-1   -3.384560381990641E-2    1.336627278025709E-1   -1.432695145842180E-2   -1.349028133546313E-5    2.338667076228962E-5    1.224914457462065E-2    5.408750495251559E-3
 2.184507253626813E7     9.964952560050063E-1   -3.734330414733884E-2    1.338469735833101E-1   -1.545859979219613E-2   -1.957679101885016E-5    3.359628594817910E-5    1.182095429026466E-2    5.537359694515172E-3
 2.383896948474237E7     9.947698741403147E-1   -4.102896625282337E-2    1.340024377635130E-1   -1.665968865962844E-2   -1.476008041054797E-5    3.474067558737455E-5    1.135562261422159E-2    5.617610449774595E-3
 2.583286643321661E7     9.933365443374026E-1   -4.457318128849386E-2    1.340890766567579E-1   -1.788967533611040E-2   -2.723237833144382E-5    4.138343581268893E-5    1.092182811302835E-2    5.783752988538541E-3
 2.782676338169084E7     9.916909433065240E-1   -4.841699823413811E-2    1.340832066250064E-1   -1.920449631916214E-2   -2.833050732583802E-5    4.123742917831320E-5    1.059987257361616E-2    5.878250905592746E-3
 2.982066033016508E7     9.901858786010643E-1   -5.218431225342592E-2    1.340372646835764E-1   -2.049419897449167E-2   -2.952952235220406E-5    4.952745516073161E-5    1.019329199113966E-2    6.030715131676511E-3
 3.181455727863932E7     9.888025542607866E-1   -5.612864146204666E-2    1.340448429288017E-1   -2.185685218257708E-2   -3.370572285709953E-5    4.501893793065852E-5    9.878289214140976E-3    5.982598790774586E-3
 3.380845422711356E7     9.876332567388800E-1   -6.029286895378687E-2    1.341128962938174E-1   -2.323916225765107E-2   -3.989351267883259E-5    5.409123793917725E-5    9.595498423380680E-3    5.910991626871859E-3
 3.580235117558780E7     9.865144940174106E-1   -6.431769526222607E-2    1.340829816141922E-1   -2.466900644221856E-2   -3.989678988512105E-5    6.208396970347151E-5    9.352835355329820E-3    5.860701885350512E-3
 3.779624812406203E7     9.855143113821078E-1   -6.855184454889318E-2    1.339382347673736E-1   -2.615628745477112E-2   -4.939402767002531E-5    5.990802059357783E-5    9.061443718319335E-3    5.783090522264949E-3
 3.979014507253627E7     9.847211548304678E-1   -7.283245628162073E-2    1.337011471406764E-1   -2.761750263157176E-2   -4.499298326187240E-5    7.237592123713827E-5    8.886413919800357E-3    5.677063389469768E-3
 4.178404202101051E7     9.841030329219292E-1   -7.724162274917092E-2    1.334893238903850E-1   -2.910839232431773E-2   -5.053393401897977E-5    7.380016050610930E-5    8.716258166221147E-3    5.506768216915579E-3
 4.377793896948475E7     9.838051192563322E-1   -8.162988949112399E-2    1.331710581278888E-1   -3.056769053934960E-2   -6.142473595006712E-5    7.315953408661101E-5    8.625183262150766E-3    5.297815443271690E-3
 4.577183591795898E7     9.836152345806424E-1   -8.621631969218446E-2    1.327829442926474E-1   -3.207176102346371E-2   -6.709437459430820E-5    8.131163820747680E-5    8.513277191199124E-3    5.145041650326854E-3
 4.776573286643322E7     9.835544427304909E-1   -9.073165557384930E-2    1.323384694289901E-1   -3.341861066695997E-2   -6.635297905796239E-5    8.561581662854679E-5    8.493969758635901E-3    4.931322270715898E-3
 4.975962981490745E7     9.836217994474772E-1   -9.531253655515552E-2    1.319431959088154E-1   -3.471558170530283E-2   -7.834261529910991E-5    8.944373922698498E-5    8.514581862878453E-3    4.754247916882484E-3
 5.175352676338169E7     9.838142993879063E-1   -9.986179836608856E-2    1.313519231885504E-1   -3.604996429098287E-2   -8.098792195483739E-5    9.780518858657342E-5    8.568789770475847E-3    4.623352588393415E-3
 5.374742371185593E7     9.841147647090880E-1   -1.044019501519622E-1    1.309618544393355E-1   -3.714895799165238E-2   -8.678922574053478E-5    1.036234615141528E-4    8.762215610548803E-3    4.505030382522817E-3
 5.574132066033017E7     9.843921492723976E-1   -1.088385341706714E-1    1.303804944537598E-1   -3.840694131495968E-2   -9.685072082328669E-5    1.094408544616868E-4    8.926192977270844E-3    4.370870772985997E-3
 5.773521760880440E7     9.848397760506538E-1   -1.133681538632346E-1    1.298445800639241E-1   -3.950050598946331E-2   -1.002236190755661E-4    1.153350583648164E-4    9.238767836157305E-3    4.289205174869064E-3
 5.972911455727864E7     9.851636126304781E-1   -1.177394939605090E-1    1.294040455192096E-1   -4.055725179488721E-2   -1.042124045105635E-4    1.274945136688361E-4    9.368179283991291E-3    4.209787271183481E-3
 6.172301150575288E7     9.854609747552138E-1   -1.222272954066289E-1    1.289462960462289E-1   -4.155915163204245E-2   -1.041415116316288E-4    1.313846987451114E-4    9.652986720294049E-3    4.170751497273958E-3
 6.371690845422712E7     9.858049091769875E-1   -1.264512317536250E-1    1.284567258459215E-1   -4.256956099279676E-2   -1.160004661270583E-4    1.365284338219624E-4    9.903166383804658E-3    4.177113743774340E-3
 6.571080540270136E7     9.860088317369292E-1   -1.302895517825309E-1    1.278868631939896E-1   -4.369790045793530E-2   -1.176399006975057E-4    1.421929343540048E-4    1.036814243342864E-2    4.587231940512469E-3
 6.770470235117559E7     9.860138162984571E-1   -1.344015796040809E-1    1.273787919454038E-1   -4.466456850409662E-2   -1.252424066297706E-4    1.491915693278434E-4    1.064696038075111E-2    4.585609760765302E-3
 6.969859929964983E7     9.861987237935416E-1   -1.384955361107681E-1    1.268588912084853E-1   -4.583674305709542E-2   -1.286190807552847E-4    1.596951449760911E-4    1.087954822996742E-2    4.701870434746743E-3
 7.169249624812406E7     9.859915913707056E-1   -1.425248367368825E-1    1.262221590555979E-1   -4.690903197798443E-2   -1.387196393342926E-4    1.691127905944684E-4    1.118688001671848E-2    4.738642124943048E-3
 7.368639319659831E7     9.858574391578436E-1   -1.462795779331066E-1    1.259059957959881E-1   -4.797850637912675E-2   -1.423704426727670E-4    1.764797769249933E-4    1.148192956091248E-2    4.860438906805781E-3
 7.568029014507253E7     9.857310836265459E-1   -1.500071124874807E-1    1.257080518165807E-1   -4.930384558843797E-2   -1.524546746605736E-4    1.800539163221293E-4    1.179397845905609E-2    5.059470581220256E-3
 7.767418709354678E7     9.855019598345844E-1   -1.538278226212850E-1    1.253042752996366E-1   -5.035109779702564E-2   -1.556314269238842E-4    1.913784979988412E-4    1.204157011255599E-2    5.180687775802968E-3
 7.966808404202102E7     9.850068784730436E-1   -1.576235472118252E-1    1.245847081117595E-1   -5.161147029506046E-2   -1.612750694184179E-4    1.982024622079007E-4    1.238403707111718E-2    5.396144087982931E-3
 8.166198099049525E7     9.847641048740392E-1   -1.613069887570732E-1    1.245639388322650E-1   -5.298912067170483E-2   -1.623415401810792E-4    2.137928883532192E-4    1.263696440859381E-2    5.571893764597127E-3
 8.365587793896949E7     9.843996578178205E-1   -1.650937820164812E-1    1.241552132162596E-1   -5.390205900764351E-2   -1.737382200947894E-4    2.150146275533631E-4    1.287667658733379E-2    5.799865963519780E-3
 8.564977488744372E7     9.841034911735784E-1   -1.686521024899761E-1    1.237078235135837E-1   -5.527703389955135E-2   -1.731228702153174E-4    2.311913993315484E-4    1.316444885538727E-2    6.079799269854880E-3
 8.764367183591796E7     9.837037855373080E-1   -1.721593589326630E-1    1.236038326247317E-1   -5.633060605723462E-2   -1.807471337171612E-4    2.407609844836265E-4    1.344021351624290E-2    6.317809654092206E-3
 8.963756878439221E7     9.834739294841371E-1   -1.756649851299334E-1    1.228684291217862E-1   -5.776338953311137E-2   -1.851897136636603E-4    2.522482845816823E-4    1.363113314584136E-2    6.625591286538612E-3
 9.163146573286644E7     9.825955403289103E-1   -1.789940649893428E-1    1.229107384785358E-1   -5.848598120330731E-2   -1.940288741534574E-4    2.657177649794245E-4    1.355199294113697E-2    7.031289430582552E-3
 9.362536268134068E7     9.820852684833727E-1   -1.821386341939601E-1    1.222717148634299E-1   -5.992817952568653E-2   -1.976180008558094E-4    2.784565860324444E-4    1.374886233461043E-2    7.355827199350921E-3
 9.561925962981491E7     9.813707182681618E-1   -1.852426828619418E-1    1.221767133944045E-1   -6.074723526769601E-2   -2.041289480653034E-4    2.821300553249262E-4    1.392955645204758E-2    7.709290488196797E-3
 9.761315657828915E7     9.808475891810007E-1   -1.882086530437208E-1    1.217842744006702E-1   -6.215317305514518E-2   -2.049101204292797E-4    2.954921698876093E-4    1.401630690625647E-2    7.995531947628960E-3
 9.960705352676338E7     9.800027722839861E-1   -1.910758030809154E-1    1.218142874477492E-1   -6.284739562939297E-2   -2.047397706801367E-4    3.118298367789193E-4    1.417747346573102E-2    8.404334119905387E-3
 1.016009504752376E8     9.791421649742242E-1   -1.938867361280372E-1    1.214005153316362E-1   -6.412220589352111E-2   -2.040234590818575E-4    3.252319911814900E-4    1.428118440949967E-2    8.749493796584080E-3
 1.035948474237119E8     9.781689564489605E-1   -1.967786188175440E-1    1.210032898691077E-1   -6.543240812768658E-2   -2.051475228572811E-4    3.380300645462143E-4    1.439500428844845E-2    9.084603265126811E-3
 1.055887443721861E8     9.770712919084777E-1   -1.994970008342173E-1    1.208298215657284E-1   -6.621916009252020E-2   -2.110672135196036E-4    3.487752759465102E-4    1.447423448811964E-2    9.389532813507014E-3
 1.075826413206603E8     9.759659605246490E-1   -2.022941034661346E-1    1.205393658498157E-1   -6.775644187474833E-2   -2.131671928239241E-4    3.638291520144388E-4    1.455514135457129E-2    9.787534284394489E-3
 1.095765382691346E8     9.746083588490014E-1   -2.050962659664263E-1    1.200606725455734E-1   -6.893335018232159E-2   -2.121173964110786E-4    3.838611308547094E-4    1.456963595701207E-2    1.011332073482655E-2
 1.115704352176088E8     9.733738238686256E-1   -2.079471732621184E-1    1.195735811320676E-1   -7.004871682507949E-2   -2.110357764385710E-4    3.963896692760503E-4    1.461417950652705E-2    1.047962758495327E-2
 1.135643321660831E8     9.720063915207011E-1   -2.108037577131742E-1    1.189827704681917E-1   -7.171985756789399E-2   -2.074714570064181E-4    4.134012070058549E-4    1.460699562323180E-2    1.085381863354645E-2
 1.155582291145573E8     9.705849709743331E-1   -2.137835786746935E-1    1.185552753581118E-1   -7.289579960625021E-2   -2.063894086242644E-4    4.293335515309392E-4    1.454738867118406E-2    1.117666313025068E-2
 1.175521260630315E8     9.689918498554514E-1   -2.171493515421440E-1    1.177490830296266E-1   -7.407923724675686E-2   -2.014337906432481E-4    4.412741984555963E-4    1.446322928941356E-2    1.132656313166788E-2
 1.195460230115058E8     9.676445480923316E-1   -2.204155682181121E-1    1.167014253194781E-1   -7.569044346952929E-2   -1.919556178383093E-4    4.612230214538196E-4    1.440327464898090E-2    1.164963155117006E-2
 1.215399199599800E8     9.662601489389718E-1   -2.237585600755448E-1    1.159015918255892E-1   -7.692717219542837E-2   -1.892589747978613E-4    4.763562017878604E-4    1.437441337270138E-2    1.186280697059011E-2
 1.235338169084542E8     9.649282501202554E-1   -2.272017503739347E-1    1.151813392796405E-1   -7.819400809157466E-2   -1.716580104550473E-4    4.965209514871197E-4    1.430532186747340E-2    1.217661872512472E-2
 1.255277138569285E8     9.636731610920223E-1   -2.308738867341377E-1    1.143739718621326E-1   -7.949279955420122E-2   -1.646907353943126E-4    5.124981452121422E-4    1.428085183754697E-2    1.244229269773572E-2
 1.275216108054027E8     9.625965135261246E-1   -2.347046167042209E-1    1.134689621471296E-1   -8.086610861153268E-2   -1.451258375792578E-4    5.338845027910292E-4    1.420041575728777E-2    1.274653912704989E-2
 1.295155077538769E8     9.615223351426270E-1   -2.387870901185719E-1    1.123942259555163E-1   -8.234172872176242E-2   -1.324920648444531E-4    5.530808313056963E-4    1.414676066903618E-2    1.293153178049439E-2
 1.315094047023512E8     9.603952388725752E-1   -2.429493809576703E-1    1.111259279136215E-1   -8.377421620256961E-2   -1.148916284438484E-4    5.725048040396468E-4    1.408291435990445E-2    1.316317387451978E-2
 1.335033016508254E8     9.593411616512503E-1   -2.472361948482918E-1    1.100923541936505E-1   -8.491509601184563E-2   -8.603325010204000E-5    5.929198779997579E-4    1.402417916257045E-2    1.339855401740585E-2
 1.354971985992997E8     9.584201363660377E-1   -2.515308204837189E-1    1.090745362014419E-1   -8.601789100084371E-2   -6.114576562438024E-5    6.106470665568331E-4    1.394298627403694E-2    1.355913568423989E-2
 1.374910955477739E8     9.575898728956924E-1   -2.559827649400186E-1    1.081009574191985E-1   -8.714838939623146E-2   -1.779648266809653E-5    6.311296159478795E-4    1.391150045454474E-2    1.374318497702468E-2
 1.394849924962481E8     9.567350926454256E-1   -2.605791843509546E-1    1.070042859760695E-1   -8.834057176450917E-2    1.900655578421464E-5    6.441333114344688E-4    1.390622838154973E-2    1.387569056821292E-2
 1.414788894447224E8     9.559522226918915E-1   -2.653103296667923E-1    1.056656551740008E-1   -8.961232910234326E-2    6.417964092767401E-5    6.604484228466421E-4    1.387188084861134E-2    1.407957506180358E-2
 1.434727863931966E8     9.552768722413673E-1   -2.700329659122377E-1    1.045184184334363E-1   -9.070829764662951E-2    1.235928002601750E-4    6.750199608914602E-4    1.390410528503829E-2    1.417186760277385E-2
 1.454666833416708E8     9.543818170519525E-1   -2.747892588553027E-1    1.031532944562185E-1   -9.192440304931200E-2    1.800098533130024E-4    6.842908275367269E-4    1.384143472635627E-2    1.428871553208304E-2
 1.474605802901451E8     9.535983460480566E-1   -2.795624859793144E-1    1.018942594649920E-1   -9.295681625343256E-2    2.615093120320749E-4    6.936286674877049E-4    1.388807633326584E-2    1.437170475074696E-2
 1.494544772386193E8     9.530120848690627E-1   -2.842595487208922E-1    1.008639127257066E-1   -9.421783939920218E-2    3.496709420835981E-4    7.056145783807079E-4    1.395380920188266E-2    1.452353994396668E-2
 1.514483741870936E8     9.522768239378839E-1   -2.888387879471919E-1    9.957388835014508E-2   -9.547911243377917E-2    4.688164394637092E-4    6.926519274835361E-4    1.394986985670985E-2    1.472177911936473E-2
 1.534422711355678E8     9.515680992270019E-1   -2.931443661066699E-1    9.848933227148288E-2   -9.651034339509745E-2    6.161987529637081E-4    6.819455874552846E-4    1.400070001913254E-2    1.493223084597720E-2
 1.554361680840420E8     9.507351607395442E-1   -2.975318554631727E-1    9.758874248440477E-2   -9.771882476737749E-2    7.986532779952076E-4    6.316185328633737E-4    1.410266347872697E-2    1.520960866222629E-2
 1.574300650325163E8     9.499103380276617E-1   -3.018401576124942E-1    9.630496820199666E-2   -9.891205597548246E-2    1.018426729416403E-3    5.516516687145008E-4    1.429603646817644E-2    1.567850844373375E-2
 1.594239619809905E8     9.488601077150137E-1   -3.055328131858273E-1    9.501668230664663E-2   -9.975966966139854E-2    1.322755394687961E-3    4.022095099265296E-4    1.483926165239149E-2    1.649832721457985E-2
 1.614178589294647E8     9.477925064092173E-1   -3.094828562023062E-1    9.406965930233656E-2   -1.012666554631171E-1    1.683149849842709E-3    9.307123514605084E-5    1.537862715191765E-2    1.725925188477962E-2
 1.634117558779390E8     9.467064182165690E-1   -3.133139175942596E-1    9.285673702057481E-2   -1.028553477097514E-1    2.085472812185019E-3   -4.692669521168531E-4    1.640035092478440E-2    1.821469689929742E-2
 1.654056528264132E8     9.455816126131519E-1   -3.169410071599976E-1    9.098196758536241E-2   -1.042866019069296E-1    2.297067424870728E-3   -1.483335415963809E-3    1.823149965656996E-2    1.909438180734742E-2
 1.673995497748874E8     9.447310239595259E-1   -3.199122464679168E-1    8.913673818140114E-2   -1.058979980924577E-1    1.817720868034864E-3   -2.806991532180056E-3    2.083401986220672E-2    1.896039040164976E-2
 1.693934467233617E8     9.444910282063758E-1   -3.230888616384363E-1    8.694132483248099E-2   -1.069876039795155E-1    4.817760847989970E-4   -3.682954019040546E-3    2.310589325637490E-2    1.726494980810106E-2
 1.713873436718359E8     9.445329037105875E-1   -3.264218322465182E-1    8.458085794258831E-2   -1.072579440260508E-1   -1.162088592000845E-3   -3.617071891169932E-3    2.411427407277152E-2    1.472852190038368E-2
 1.733812406203102E8     9.443997526871156E-1   -3.301500671745866E-1    8.296325396675895E-2   -1.072101747127206E-1   -2.255044959079432E-3   -2.827044259138074E-3    2.363557053111258E-2    1.272186715781819E-2
 1.753751375687844E8     9.441431864339650E-1   -3.341148233929072E-1    8.221729621839569E-2   -1.075138388489449E-1   -2.802761100907008E-3   -1.851728250917169E-3    2.267299097119190E-2    1.156669273514191E-2
 1.773690345172586E8     9.436138920490967E-1   -3.380612489574283E-1    8.141933039847800E-2   -1.082489049378358E-1   -2.863600653641529E-3   -9.985793056204624E-4    2.167977044709430E-2    1.125315984218022E-2
 1.793629314657329E8     9.428059743363846E-1   -3.415398638990387E-1    8.047819719392608E-2   -1.090338119478841E-1   -2.721558296689517E-3   -3.938090877239487E-4    2.110348192007958E-2    1.138968568209802E-2
 1.813568284142071E8     9.419484199345345E-1   -3.450171707824726E-1    7.964700962755386E-2   -1.094855209190197E-1   -2.547226796188008E-3    1.554503894577730E-5    2.076171092367281E-2    1.156320458354090E-2
 1.833507253626814E8     9.410465686124029E-1   -3.483109579663070E-1    7.865926093306468E-2   -1.099743333182197E-1   -2.348751815098148E-3    2.883204935178997E-4    2.064233917796267E-2    1.192506044573694E-2
