#  HZ   S   RI   R     50.00 
! Rohde & Schwarz Vector Network Analyzer 
! Rohde-Schwarz,ZNL20-2Port,1323001220101312,1.72.1.6-23.02.1.246
! Created: UTC 10/23/2024, 9:31:46 PM
! freq[Hz]                re:S11                  im:S11                  re:S21                  im:S21                  re:S12                  im:S12                  re:S22                  im:S22
 3.900000000000000E6     1.004087538639261      -4.892761584156794E-3    2.045818819319985E-1   -3.622684636147988E-3   -4.714712707152244E-6   -1.458296018463443E-5    1.221184712775272E-2    1.537657022678091E-4
 5.893896948474238E6     1.004364337124884      -7.437601483556554E-3    2.044287957935642E-1   -5.832134258760151E-3   -1.499505848820697E-7   -6.637134734784797E-6    1.220018415359018E-2    5.979959837040671E-4
 7.887793896948474E6     1.003827252208537      -9.946410594759271E-3    2.041657524464215E-1   -7.842735961096548E-3   -3.893550766233608E-5   -2.071835439432107E-5    1.208960211638858E-2    1.009961228269093E-3
 9.881690845422711E6     1.003097491220628      -1.246595597537166E-2    2.038362144783302E-1   -9.913638081498316E-3   -1.051454144059929E-5   -1.816025442554938E-6    1.180517731555724E-2    1.513743766230903E-3
 1.187558779389695E7     1.002598528097447      -1.570585542229870E-2    2.038152941606743E-1   -1.215835504767827E-2   -5.572664085053114E-6   -6.402059013850894E-7    1.155585866871598E-2    1.732157436832326E-3
 1.386948474237119E7     1.002147057790534      -1.860569731495918E-2    2.036274772973859E-1   -1.422069737507798E-2   -2.068976196853275E-5   -5.721669338583504E-6    1.154073455750668E-2    1.993960794945025E-3
 1.586338169084542E7     1.001836896701435      -2.143961197674558E-2    2.034448630390958E-1   -1.625981268989904E-2   -3.318328952013561E-5    6.024131339592655E-7    1.143208176011102E-2    2.196521875903855E-3
 1.785727863931966E7     1.001356977427125      -2.432097808844198E-2    2.032286768401652E-1   -1.836050296370641E-2   -1.469496375234849E-5   -5.788209028326286E-6    1.134935092541141E-2    2.466719991182141E-3
 1.985117558779390E7     1.000977820108240      -2.706963563936121E-2    2.029910354654731E-1   -2.044974774602168E-2   -2.543175535162160E-5    1.502981435253951E-6    1.128787972616489E-2    2.654023136467108E-3
 2.184507253626813E7     1.000603318639657      -2.988260482730384E-2    2.027265387270579E-1   -2.248637541393880E-2   -2.166855896799401E-5    1.146736450059005E-5    1.128365088126485E-2    2.996864498123382E-3
 2.383896948474237E7     1.000279058928793      -3.266979930771361E-2    2.025220596173330E-1   -2.459773345873524E-2   -2.948816412232765E-5    3.317282525239956E-6    1.122430654606099E-2    3.166883008845212E-3
 2.583286643321661E7     9.999512713451446E-1   -3.545149074379789E-2    2.022736414564983E-1   -2.667907455981345E-2   -2.950260883146796E-5   -1.111218041876213E-5    1.122396439073112E-2    3.461256058719362E-3
 2.782676338169084E7     9.996403692540454E-1   -3.819890219857301E-2    2.019565635447950E-1   -2.868346572830600E-2   -2.708720228081344E-5    1.052984108092375E-5    1.115859867499694E-2    3.719050694394976E-3
 2.982066033016508E7     9.993048207046794E-1   -4.113922273657929E-2    2.016865206289454E-1   -3.080639113202169E-2   -2.899277622185342E-5    7.317117741106745E-6    1.113726729685091E-2    3.932727509594077E-3
 3.181455727863932E7     9.990344968047533E-1   -4.398033729198656E-2    2.013438238566529E-1   -3.287743165603083E-2   -3.954482972057349E-5    1.404204065401994E-5    1.113113239515706E-2    4.113783876123934E-3
 3.380845422711356E7     9.987726052474600E-1   -4.681707838480837E-2    2.009378057996569E-1   -3.495410698373109E-2   -2.665132451723278E-5    7.588959457335080E-6    1.118978402324462E-2    4.287125039287483E-3
 3.580235117558780E7     9.985419573535315E-1   -4.972110858174320E-2    2.005246101241862E-1   -3.697307646034510E-2   -3.615253219570039E-5    1.538629715517813E-5    1.115232976782763E-2    4.490615342566923E-3
 3.779624812406203E7     9.983385390958762E-1   -5.271502525624450E-2    2.001056194704320E-1   -3.906772677657909E-2   -3.007177346410907E-5    1.401115895345956E-5    1.121056563280008E-2    4.635141690428554E-3
 3.979014507253627E7     9.981108690097363E-1   -5.569666877704583E-2    1.996765398509914E-1   -4.107529203011485E-2   -2.486952152836621E-5    1.390215832141663E-5    1.119895172220894E-2    4.799653700224085E-3
 4.178404202101051E7     9.980542508033804E-1   -5.872411442769127E-2    1.992582198746227E-1   -4.316067897056668E-2   -5.056065050329736E-5    1.783444397791311E-5    1.125967999365254E-2    4.903111097973849E-3
 4.377793896948475E7     9.978895911394838E-1   -6.172289472215063E-2    1.988483642760041E-1   -4.523559741561856E-2   -2.780405009729825E-5    2.975585664273224E-5    1.125939027305031E-2    5.014128149427988E-3
 4.577183591795898E7     9.978784853642165E-1   -6.475063892579228E-2    1.983508789412311E-1   -4.728316329968187E-2   -3.358524556341879E-5    2.041872171974023E-5    1.129238768661070E-2    5.150823404155935E-3
 4.776573286643322E7     9.977818475793822E-1   -6.782215269080932E-2    1.978296833766429E-1   -4.934529214527929E-2   -3.052768192306949E-5    1.893363621128978E-5    1.138104293236296E-2    5.204278997320061E-3
 4.975962981490745E7     9.978812490084381E-1   -7.083865189053537E-2    1.972970025134392E-1   -5.140124985181124E-2   -2.291251502445607E-5    3.009663348787082E-5    1.144708321953327E-2    5.319860337300115E-3
 5.175352676338169E7     9.979154231533863E-1   -7.382990429005240E-2    1.966879901115455E-1   -5.343967990449683E-2   -3.898334404833919E-5    3.285530960899803E-5    1.152014895567610E-2    5.445564147998207E-3
 5.374742371185593E7     9.979567411503232E-1   -7.690174932096827E-2    1.960985545737239E-1   -5.543813368049468E-2   -3.370869862629029E-5    3.217057294864563E-5    1.164975694593980E-2    5.575636842984530E-3
 5.574132066033017E7     9.980852347222731E-1   -8.000063543996573E-2    1.953955552997280E-1   -5.747082332290814E-2   -2.191107417098376E-5    2.604375225972163E-5    1.171163800624601E-2    5.662248463382642E-3
 5.773521760880440E7     9.981553685984788E-1   -8.295666461101064E-2    1.946697934487665E-1   -5.948024983111629E-2   -2.446055186276345E-5    4.320124521191181E-5    1.182297820417482E-2    5.757494240819022E-3
 5.972911455727864E7     9.982764384024854E-1   -8.602889515279179E-2    1.939778299124103E-1   -6.142227692927849E-2   -2.528303577028539E-5    3.278145553683916E-5    1.191562265845580E-2    5.925157259585556E-3
 6.172301150575288E7     9.983676502255542E-1   -8.916437024338704E-2    1.932170128685827E-1   -6.341271338224312E-2   -1.947844571742893E-5    3.105887875889801E-5    1.202160369982114E-2    5.956295844369616E-3
 6.371690845422712E7     9.984798076569882E-1   -9.213150185347110E-2    1.924149356752251E-1   -6.532594842183974E-2   -3.146535405854643E-5    3.706163512746969E-5    1.211529461032970E-2    5.984616758334185E-3
 6.571080540270136E7     9.987061684149681E-1   -9.474382325376610E-2    1.915792829876270E-1   -6.713302813011464E-2   -3.202244867095826E-5    2.666763325895723E-5    1.241956900520766E-2    6.324572138643065E-3
 6.770470235117559E7     9.988098153059670E-1   -9.777699866780569E-2    1.908172723635975E-1   -6.901394009358734E-2   -2.330493477287469E-5    2.543585851579930E-5    1.246863486846349E-2    6.452937598197111E-3
 6.969859929964983E7     9.988460644176569E-1   -1.007112754345062E-1    1.900667649492797E-1   -7.083889320328433E-2   -2.359928164852506E-5    3.355917421722904E-5    1.250068584277097E-2    6.571582144993563E-3
 7.169249624812406E7     9.988911560295946E-1   -1.035583330202485E-1    1.893641734258934E-1   -7.264909639773522E-2   -2.806497074340851E-5    3.701507209156997E-5    1.254296599758427E-2    6.747258022365787E-3
 7.368639319659831E7     9.989590353052648E-1   -1.064231429303102E-1    1.887141849234830E-1   -7.449871585111356E-2   -2.702179265746940E-5    3.002432662728768E-5    1.264955129184782E-2    6.876446414898967E-3
 7.568029014507253E7     9.990428106504640E-1   -1.092871552476228E-1    1.880070346731366E-1   -7.640271734839500E-2   -2.477751449526825E-5    3.960241255325571E-5    1.269984737413665E-2    7.029671287115818E-3
 7.767418709354678E7     9.991261036827919E-1   -1.120149506249499E-1    1.873989625844558E-1   -7.830817020840464E-2   -2.891720817449053E-5    4.053158322382324E-5    1.277821260539179E-2    7.225068250615797E-3
 7.966808404202102E7     9.990312433609073E-1   -1.149203490503647E-1    1.866805317458152E-1   -8.024590401596193E-2   -3.301993733839821E-5    3.974540064493345E-5    1.281462821908826E-2    7.439376235007227E-3
 8.166198099049525E7     9.990307290272599E-1   -1.177544907192173E-1    1.860040274997278E-1   -8.223237395199394E-2   -2.866694892439956E-5    4.214119343546504E-5    1.292457914312343E-2    7.598204450257453E-3
 8.365587793896949E7     9.990074609803256E-1   -1.207227022468284E-1    1.852849974639941E-1   -8.419470043719374E-2   -2.059996116992466E-5    4.975695008220802E-5    1.300954880940472E-2    7.759421016669326E-3
 8.564977488744372E7     9.988587226978686E-1   -1.234162258186187E-1    1.845107324878239E-1   -8.610237156531032E-2   -2.431087482879766E-5    4.433526640396982E-5    1.312860829714581E-2    7.938034523870416E-3
 8.764367183591796E7     9.987796654669463E-1   -1.263361608511248E-1    1.836223541595808E-1   -8.807176037188204E-2   -2.564702713162026E-5    4.878621793641604E-5    1.323879893835812E-2    8.147034311277789E-3
 8.963756878439221E7     9.986530710059831E-1   -1.291371680353911E-1    1.828104152576997E-1   -8.995332399279703E-2   -2.024851186571815E-5    4.977547396839172E-5    1.332347003206540E-2    8.361290207361791E-3
 9.163146573286644E7     9.983088060182239E-1   -1.318933402801418E-1    1.818804095473313E-1   -9.182203814170199E-2   -1.427129465102337E-5    5.651702165392653E-5    1.332467631120889E-2    8.634071163677011E-3
 9.362536268134068E7     9.981800741955216E-1   -1.345507807031476E-1    1.809786524864026E-1   -9.362950476773066E-2   -2.251313742685246E-5    5.197755568453657E-5    1.341405175400749E-2    8.843376219220909E-3
 9.561925962981491E7     9.979412313399180E-1   -1.372870789034925E-1    1.799752247778920E-1   -9.540736469053658E-2   -1.378409838781792E-5    6.115806510748872E-5    1.354663658032400E-2    9.066589213734485E-3
 9.761315657828915E7     9.977619910588355E-1   -1.399780537648564E-1    1.789663808062362E-1   -9.714290386924816E-2   -8.397432401017581E-6    6.127473988544819E-5    1.369157965926839E-2    9.314841271356310E-3
 9.960705352676338E7     9.975246661350471E-1   -1.428118466531553E-1    1.780041094935466E-1   -9.886369260491412E-2   -1.170954188604258E-5    7.525099164540712E-5    1.375522742742835E-2    9.475423164516274E-3
 1.016009504752376E8     9.971771689265519E-1   -1.455365391907046E-1    1.769854474223227E-1   -1.005272120463938E-1   -4.003819230710306E-6    7.222674765777340E-5    1.388568925171946E-2    9.696884170593256E-3
 1.035948474237119E8     9.968134581069864E-1   -1.482230846192840E-1    1.759511212455658E-1   -1.022123289817363E-1   -6.516601529551132E-6    7.488796066854046E-5    1.400405218030676E-2    9.932722974088880E-3
 1.055887443721861E8     9.966411015176542E-1   -1.509458420323335E-1    1.749286149970456E-1   -1.038237143227513E-1    1.007832662416987E-6    5.538907605449744E-5    1.415143034436370E-2    1.014957754592019E-2
 1.075826413206603E8     9.962156529055326E-1   -1.536064368960766E-1    1.738552713953903E-1   -1.053969742028170E-1    6.710606281184043E-6    8.272928016808303E-5    1.429074092198855E-2    1.034649086678411E-2
 1.095765382691346E8     9.958147734275945E-1   -1.563378067860233E-1    1.728205533466961E-1   -1.069650744990773E-1    1.115628720482703E-5    8.552608395404534E-5    1.437128639118874E-2    1.052956306730117E-2
 1.115704352176088E8     9.954071521045894E-1   -1.591255828568239E-1    1.717478861844574E-1   -1.085602525159407E-1    2.864817647730711E-5    8.889326792448229E-5    1.448822662850785E-2    1.075008441783645E-2
 1.135643321660831E8     9.950744989134601E-1   -1.617846893880807E-1    1.706771075458432E-1   -1.101090945887852E-1    6.766855030249986E-5    7.598964328675550E-5    1.455561950672559E-2    1.092628971222716E-2
 1.155582291145573E8     9.946434213069203E-1   -1.645195929480973E-1    1.696025867455657E-1   -1.116826809884865E-1    3.534328028747315E-5    9.427940674091117E-5    1.467004684163605E-2    1.117499694214279E-2
 1.175521260630315E8     9.942629046415423E-1   -1.673742693679195E-1    1.685352420877402E-1   -1.132327246512309E-1    3.887895954396196E-5    9.887697174670287E-5    1.472744180206383E-2    1.131816303766340E-2
 1.195460230115058E8     9.939245737882577E-1   -1.700797481475085E-1    1.674370107884115E-1   -1.147933956356809E-1    5.784131760371573E-5    1.174948613777397E-4    1.491455078512377E-2    1.158833445859708E-2
 1.215399199599800E8     9.935404971718412E-1   -1.729656802104198E-1    1.663552312142867E-1   -1.163385405320291E-1    6.876694257361985E-5    1.040699187565321E-4    1.503334604413115E-2    1.179507173197214E-2
 1.235338169084542E8     9.931971738701654E-1   -1.757360622915869E-1    1.652689753711561E-1   -1.178477390559770E-1    9.182922483531892E-5    1.125895953744381E-4    1.514475812172433E-2    1.189571825109372E-2
 1.255277138569285E8     9.928952525393869E-1   -1.785702355815288E-1    1.641912270624514E-1   -1.194416615118793E-1    1.003507627813146E-4    1.169875487730895E-4    1.521574866662813E-2    1.217174866143479E-2
 1.275216108054027E8     9.925313103484577E-1   -1.814370774135978E-1    1.630464625132138E-1   -1.210231375869165E-1    1.170007113563862E-4    1.204182190925622E-4    1.530430629955429E-2    1.241726993260728E-2
 1.295155077538769E8     9.922297618994618E-1   -1.843117175203270E-1    1.619234012730889E-1   -1.225871997321357E-1    1.526917662196801E-4    1.355495919864771E-4    1.544635776225114E-2    1.259058120633323E-2
 1.315094047023512E8     9.919702246543738E-1   -1.873226100019356E-1    1.607844704302423E-1   -1.242062429099327E-1    1.717173847718131E-4    1.300377140800118E-4    1.549351530758203E-2    1.288784012265512E-2
 1.335033016508254E8     9.916933750941571E-1   -1.902132051241571E-1    1.596723753551906E-1   -1.257436097583465E-1    1.937530777008817E-4    1.403692692444075E-4    1.561200193911329E-2    1.311002959219618E-2
 1.354971985992997E8     9.914646181572507E-1   -1.932979472354157E-1    1.584799422239929E-1   -1.273260082027922E-1    2.272035988597248E-4    1.356460214535399E-4    1.564584291263937E-2    1.335130498184966E-2
 1.374910955477739E8     9.912455417467145E-1   -1.963741288970280E-1    1.572922171558006E-1   -1.289146934517848E-1    2.586127992971015E-4    1.525634758969998E-4    1.584532167281660E-2    1.357704892756474E-2
 1.394849924962481E8     9.909925568959347E-1   -1.993740941070192E-1    1.561219045686597E-1   -1.304335602170129E-1    3.176616894863423E-4    1.590821228257188E-4    1.584047394608115E-2    1.384497033423459E-2
 1.414788894447224E8     9.907788483311404E-1   -2.025070304777912E-1    1.548880722582481E-1   -1.320322002696135E-1    3.811690178505859E-4    1.499967206667289E-4    1.584083117077397E-2    1.406368989570942E-2
 1.434727863931966E8     9.905401254243638E-1   -2.056599558054586E-1    1.536157817283187E-1   -1.336339377914484E-1    4.364762172926200E-4    1.569545070459609E-4    1.574617833521660E-2    1.441433362822101E-2
 1.454666833416708E8     9.903198082764741E-1   -2.087708953730064E-1    1.523696051071177E-1   -1.351898621624421E-1    5.212563332670350E-4    1.635262219157387E-4    1.575565275672153E-2    1.490504172674591E-2
 1.474605802901451E8     9.901808605042295E-1   -2.118924816812011E-1    1.510551425677090E-1   -1.367996646867380E-1    6.155787525159964E-4    1.498997044661379E-4    1.583449303969873E-2    1.549237443209406E-2
 1.494544772386193E8     9.899943606354878E-1   -2.150500210444433E-1    1.497262016112151E-1   -1.384506465263796E-1    7.461048184292093E-4    1.353156622333312E-4    1.587126506751224E-2    1.607557673239244E-2
 1.514483741870936E8     9.898533568031941E-1   -2.180181527275326E-1    1.483667448279411E-1   -1.401163436948342E-1    9.118552082349659E-4    1.148317076416811E-4    1.594934973031741E-2    1.681682355757375E-2
 1.534422711355678E8     9.896687153144068E-1   -2.210233358564725E-1    1.468850356151873E-1   -1.419258542374682E-1    1.137734064923326E-3    8.191615916338353E-5    1.596214703884307E-2    1.779530687184322E-2
 1.554361680840420E8     9.893474787210261E-1   -2.238830667810667E-1    1.452912063558247E-1   -1.437466230736483E-1    1.443847693780087E-3   -2.592160598805419E-5    1.611850892610571E-2    1.918955592566739E-2
 1.574300650325163E8     9.891725485467066E-1   -2.267235308905304E-1    1.434105834953525E-1   -1.457975433137434E-1    1.889537994030008E-3   -2.199085194649939E-4    1.660223962042804E-2    2.112067149117432E-2
 1.594239619809905E8     9.889373471249464E-1   -2.292876167343079E-1    1.408701856213943E-1   -1.479327844094581E-1    2.572835564496327E-3   -7.298963164226617E-4    1.792287738734605E-2    2.429109983489023E-2
 1.614178589294647E8     9.887284456941373E-1   -2.315662295238330E-1    1.368584754950553E-1   -1.499749357000766E-1    3.408426199454278E-3   -2.113932605577688E-3    2.209956982714910E-2    2.887292880445628E-2
 1.634117558779390E8     9.897157003067203E-1   -2.334421315864801E-1    1.307146932149819E-1   -1.481668566355292E-1    2.620713308598577E-3   -5.297965282531066E-3    3.457831697346562E-2    2.948751710651419E-2
 1.654056528264132E8     9.912315173723572E-1   -2.376665514651968E-1    1.314985197794353E-1   -1.421980596993043E-1   -1.730389857425202E-3   -5.519059491158373E-3    4.010673245514492E-2    1.437487006196652E-2
 1.673995497748874E8     9.907182281230211E-1   -2.418981614325277E-1    1.351585957278567E-1   -1.430139019711244E-1   -2.921896177709866E-3   -2.969426849234498E-3    3.234263892141226E-2    7.561554495013687E-3
 1.693934467233617E8     9.899884757115867E-1   -2.452677370079734E-1    1.357954281309559E-1   -1.457531599213384E-1   -2.563768994275792E-3   -1.651999237500415E-3    2.745033300072403E-2    7.523817549165038E-3
 1.713873436718359E8     9.894291625571190E-1   -2.483869486365930E-1    1.351736677625585E-1   -1.481182632438010E-1   -2.172633212213826E-3   -1.041866453546199E-3    2.501739444756818E-2    8.445983179595861E-3
 1.733812406203102E8     9.888516553120561E-1   -2.514434020439338E-1    1.341848520981103E-1   -1.500597049532031E-1   -1.887524633782944E-3   -7.140730440893187E-4    2.370255088409572E-2    9.231476592485912E-3
 1.753751375687844E8     9.883286517908534E-1   -2.543662838025316E-1    1.329515306221569E-1   -1.518453499377396E-1   -1.668514798873698E-3   -5.086952829243846E-4    2.293341250318303E-2    9.950945170486425E-3
 1.773690345172586E8     9.877741540550863E-1   -2.574615847980912E-1    1.316034765225958E-1   -1.534359129012017E-1   -1.503823485836599E-3   -3.701885023342460E-4    2.244528463787199E-2    1.051822189785272E-2
 1.793629314657329E8     9.872332737430001E-1   -2.603688134341584E-1    1.302038560662647E-1   -1.549781274005240E-1   -1.381212733142061E-3   -2.930753497072047E-4    2.211348294203328E-2    1.103000815045339E-2
 1.813568284142071E8     9.866668844626238E-1   -2.633465115260234E-1    1.287891960172237E-1   -1.563843346168201E-1   -1.283628136208797E-3   -2.282810442604818E-4    2.206010314152328E-2    1.151455651321178E-2
 1.833507253626814E8     9.862206524401246E-1   -2.662886011972460E-1    1.273576629573957E-1   -1.577145731769126E-1   -1.197366945569671E-3   -1.645857210366604E-4    2.194075326059261E-2    1.187203554791664E-2
