#  HZ   S   RI   R     50.00 
! Rohde & Schwarz Vector Network Analyzer 
! Rohde-Schwarz,ZNL20-2Port,1323001220101312,1.72.1.6-23.02.1.246
! Created: UTC 10/23/2024, 6:33:34 PM
! freq[Hz]                re:S11                  im:S11                  re:S21                  im:S21                  re:S12                  im:S12                  re:S22                  im:S22
 3.900000000000000E6     1.026072530053679      -8.007149776416388E-3    1.338550626041802E-1   -4.092885904120328E-3   -3.557871570109698E-6    5.771051096911974E-6    2.211135864526733E-2    1.319314182008726E-3
 5.893896948474238E6     1.018974565511829      -9.783049839424261E-3    1.330647912431557E-1   -5.731885984058212E-3    2.643629029120221E-6    2.068688181629367E-5    1.906475302339483E-2    2.511156271691262E-3
 7.887793896948474E6     1.013298447683059      -1.254157702785756E-2    1.320711485528248E-1   -7.074123717051731E-3   -3.668946452094134E-6    8.579233919525386E-6    1.694182236528497E-2    3.443181709022987E-3
 9.881690845422711E6     1.008742389921895      -1.565024962610665E-2    1.314460009058799E-1   -8.229589668656096E-3   -4.015930159155687E-6    2.084713375604797E-5    1.552819335564757E-2    4.093210868925561E-3
 1.187558779389695E7     1.006892774820126      -1.968025137458260E-2    1.314907311376246E-1   -9.526177938065102E-3   -9.825182445651943E-6    1.067353700770824E-5    1.443788390714169E-2    4.374973436130180E-3
 1.386948474237119E7     1.004375930381766      -2.333326482060441E-2    1.313940324337133E-1   -1.063450858350825E-2   -1.025024757709860E-5    1.653590524047481E-5    1.375370272470712E-2    4.754844670826568E-3
 1.586338169084542E7     1.002276159402264      -2.682724913680927E-2    1.315629973484406E-1   -1.178509488865998E-2   -7.951342115403556E-6    2.099493601891462E-5    1.313737668271031E-2    4.914796740403584E-3
 1.785727863931966E7     1.000385173362339      -3.057474968875951E-2    1.315884857703676E-1   -1.299120603978214E-2   -1.017039078536481E-5    2.258200839719587E-5    1.258565504217544E-2    5.193987536186371E-3
 1.985117558779390E7     9.985438905475539E-1   -3.413164273805559E-2    1.316791512848003E-1   -1.413022257495887E-2   -1.153934434839705E-5    1.785096985296678E-5    1.211221758066339E-2    5.388503692916969E-3
 2.184507253626813E7     9.969849966154040E-1   -3.785632897121858E-2    1.319363502658760E-1   -1.533526007394724E-2   -1.676288886221296E-5    3.100467368185685E-5    1.170060179862138E-2    5.492665594502676E-3
 2.383896948474237E7     9.953861970485213E-1   -4.155142541418864E-2    1.321405395763989E-1   -1.652865903920496E-2   -1.739510531931342E-5    3.073685700625150E-5    1.125544139622553E-2    5.615056339026427E-3
 2.583286643321661E7     9.937987884563849E-1   -4.522803270172414E-2    1.321810140153848E-1   -1.773453577911758E-2   -1.981031893542766E-5    3.231907914668628E-5    1.085340798709123E-2    5.773124244521225E-3
 2.782676338169084E7     9.921533395819405E-1   -4.907601441897241E-2    1.322347745099171E-1   -1.899559776281888E-2   -2.562820955369099E-5    3.376804970088180E-5    1.045363416828590E-2    5.922006392007929E-3
 2.982066033016508E7     9.906233308526153E-1   -5.291032825887225E-2    1.321791127473272E-1   -2.028219914542326E-2   -3.282085064871686E-5    3.963782287911362E-5    1.013073743671550E-2    6.005584427301915E-3
 3.181455727863932E7     9.892902783535378E-1   -5.687162603845392E-2    1.322447190606322E-1   -2.158066885302517E-2   -3.024396216794681E-5    4.118385755021962E-5    9.783188347552109E-3    6.043041146113690E-3
 3.380845422711356E7     9.880793257551700E-1   -6.110468472123837E-2    1.322837463104709E-1   -2.299214247962714E-2   -3.071319238649691E-5    4.745979685101286E-5    9.569911485965307E-3    5.967915327080946E-3
 3.580235117558780E7     9.869209816516606E-1   -6.526233130351222E-2    1.322255119864083E-1   -2.441275219426119E-2   -4.275504581624314E-5    4.409233435964267E-5    9.288006322989675E-3    5.838597604093192E-3
 3.779624812406203E7     9.858976967590293E-1   -6.937751371567315E-2    1.321215641762454E-1   -2.586123176855030E-2   -3.816715239587996E-5    5.065518637793164E-5    9.032819847501327E-3    5.811583270368499E-3
 3.979014507253627E7     9.850764715945753E-1   -7.371447319790433E-2    1.318774381628592E-1   -2.735350242660398E-2   -4.729382632160875E-5    5.944691111943366E-5    8.905954102549537E-3    5.701397002185044E-3
 4.178404202101051E7     9.844491455786386E-1   -7.810818936886878E-2    1.316548905590505E-1   -2.886693471270908E-2   -5.237042266478448E-5    6.231042717584455E-5    8.701479023753076E-3    5.526194703561590E-3
 4.377793896948475E7     9.840143433019013E-1   -8.263475312240250E-2    1.313335498273098E-1   -3.032879876208772E-2   -5.803562632612110E-5    5.994918998590303E-5    8.622152268120497E-3    5.346626106228537E-3
 4.577183591795898E7     9.838169093529601E-1   -8.704635143868787E-2    1.309600687741220E-1   -3.176172808846110E-2   -6.145431797081920E-5    6.914592549124336E-5    8.517239300360030E-3    5.184297465532062E-3
 4.776573286643322E7     9.837585799614238E-1   -9.165413014227915E-2    1.305312209683305E-1   -3.311694590729514E-2   -7.033655329757490E-5    6.759696236489429E-5    8.528457439646850E-3    4.965661970535624E-3
 4.975962981490745E7     9.838586667850776E-1   -9.611816694400475E-2    1.300636014480158E-1   -3.442461126357657E-2   -7.207219100929520E-5    8.022537270178744E-5    8.510828068490574E-3    4.758236103517723E-3
 5.175352676338169E7     9.839624971335600E-1   -1.007164787012459E-1    1.295890594481545E-1   -3.568061578977657E-2   -7.621457312903094E-5    7.952551467712471E-5    8.622221730378276E-3    4.684848085399454E-3
 5.374742371185593E7     9.842307262960692E-1   -1.052137754594286E-1    1.290972822769961E-1   -3.687118257706441E-2   -8.010234133662354E-5    8.800489105042800E-5    8.779169136830106E-3    4.590337510714406E-3
 5.574132066033017E7     9.845979755594652E-1   -1.096298524764759E-1    1.286787870906476E-1   -3.797207791299889E-2   -8.724492512728975E-5    9.104481010684606E-5    8.997217556492899E-3    4.519343104673743E-3
 5.773521760880440E7     9.847789707563221E-1   -1.141603587278021E-1    1.280352338747016E-1   -3.911529906077000E-2   -9.031218728177116E-5    1.039795139858275E-4    9.196177744606510E-3    4.371898673095623E-3
 5.972911455727864E7     9.851503707421572E-1   -1.184800683088311E-1    1.275509353620972E-1   -4.019485519757701E-2   -8.642116263665232E-5    9.996078642557703E-5    9.438644222648939E-3    4.418873699657659E-3
 6.172301150575288E7     9.854625604811198E-1   -1.228656229609695E-1    1.270968407430357E-1   -4.124329688581843E-2   -1.029386890214294E-4    1.071607153448523E-4    9.743813647248878E-3    4.286388192363589E-3
 6.371690845422712E7     9.857488612529886E-1   -1.270753313193640E-1    1.267032937492651E-1   -4.219534112375328E-2   -1.083019301943384E-4    1.180130236539966E-4    1.005573696742682E-2    4.280315868534801E-3
 6.571080540270136E7     9.860777666828758E-1   -1.308559089415691E-1    1.261193798067441E-1   -4.334014460774357E-2   -1.100030947407582E-4    1.199376081012935E-4    1.047225972698038E-2    4.727433272484244E-3
 6.770470235117559E7     9.860480425946794E-1   -1.349053288138091E-1    1.256690436085078E-1   -4.429371962280931E-2   -1.154900498589692E-4    1.296498826458881E-4    1.074031469835321E-2    4.771401774196502E-3
 6.969859929964983E7     9.861499769676366E-1   -1.389423559637966E-1    1.251829401166576E-1   -4.550723826899840E-2   -1.241784835869319E-4    1.387595457351925E-4    1.102519547660973E-2    4.793783906942134E-3
 7.169249624812406E7     9.860238881934804E-1   -1.429217636035288E-1    1.246477240956624E-1   -4.655499076836180E-2   -1.278240030668068E-4    1.434862478088688E-4    1.132407375620549E-2    4.935959031617157E-3
 7.368639319659831E7     9.858382007127701E-1   -1.467201677956201E-1    1.244753430193851E-1   -4.761724815206037E-2   -1.369342551351851E-4    1.499617416846165E-4    1.162388721836038E-2    5.112213704846785E-3
 7.568029014507253E7     9.857281139804833E-1   -1.503926053862978E-1    1.243442404302098E-1   -4.896996727311437E-2   -1.415582292206552E-4    1.574142403025836E-4    1.190850561493892E-2    5.292066775015580E-3
 7.767418709354678E7     9.854207375644700E-1   -1.542093082110630E-1    1.238770822200870E-1   -5.005757043059797E-2   -1.500836903091420E-4    1.624362291045351E-4    1.214176906146898E-2    5.422214348049969E-3
 7.966808404202102E7     9.851886785161017E-1   -1.578349910602474E-1    1.232928404553186E-1   -5.127727385144459E-2   -1.545845189065441E-4    1.729653641335358E-4    1.245403292738858E-2    5.649179054711389E-3
 8.166198099049525E7     9.849257225765977E-1   -1.615661751508965E-1    1.233138887821335E-1   -5.268234874592108E-2   -1.646290439436112E-4    1.863063730751820E-4    1.274756267457964E-2    5.837404913308842E-3
 8.365587793896949E7     9.844656707673087E-1   -1.652385686099453E-1    1.228890420420848E-1   -5.366760002562528E-2   -1.629419348169158E-4    1.852805354476951E-4    1.300436281207287E-2    6.068192243913683E-3
 8.564977488744372E7     9.841562750953956E-1   -1.687365708662984E-1    1.225448427445188E-1   -5.499155881360644E-2   -1.659361276985534E-4    1.989187865197259E-4    1.330791382411527E-2    6.348462012137976E-3
 8.764367183591796E7     9.839679523924193E-1   -1.722807463507569E-1    1.224803609795747E-1   -5.610990868108450E-2   -1.744214543438381E-4    2.065780435775640E-4    1.353206725912640E-2    6.671404846559426E-3
 8.963756878439221E7     9.835946177956636E-1   -1.757040444113250E-1    1.217495886518749E-1   -5.750936228026105E-2   -1.823398895571843E-4    2.161759241052156E-4    1.379168162453700E-2    6.927918207395821E-3
 9.163146573286644E7     9.827512648193873E-1   -1.789309066257152E-1    1.218932098682537E-1   -5.825951321283884E-2   -1.832329580116325E-4    2.226843974015263E-4    1.371551483573811E-2    7.324682220349147E-3
 9.362536268134068E7     9.822821774017161E-1   -1.821833155150807E-1    1.211653277980388E-1   -5.971551614665205E-2   -1.900127125403018E-4    2.375865654971036E-4    1.388362490909194E-2    7.694792145590091E-3
 9.561925962981491E7     9.816797560853588E-1   -1.851787401807383E-1    1.212446723922924E-1   -6.051866859612641E-2   -1.942715111714513E-4    2.492999124620886E-4    1.404521682207492E-2    8.029958697868185E-3
 9.761315657828915E7     9.808984958507244E-1   -1.881417703592793E-1    1.207214418681760E-1   -6.193021592006568E-2   -1.928731983921078E-4    2.514678016690498E-4    1.416711635814890E-2    8.376312876251225E-3
 9.960705352676338E7     9.801740530839651E-1   -1.909917988325067E-1    1.208264264619958E-1   -6.267483757855789E-2   -1.998707744860457E-4    2.680981501576871E-4    1.429165988662396E-2    8.737520395496783E-3
 1.016009504752376E8     9.792630132525151E-1   -1.938719273034080E-1    1.204092403538893E-1   -6.396097524374479E-2   -2.083114743836211E-4    2.793008357414158E-4    1.438962714834340E-2    9.126467383504692E-3
 1.035948474237119E8     9.783001315686455E-1   -1.965494771668989E-1    1.200451024028690E-1   -6.516328183226081E-2   -2.125946568021169E-4    2.885264666404566E-4    1.449486208560171E-2    9.455785237534256E-3
 1.055887443721861E8     9.771441624813237E-1   -1.993165629562339E-1    1.199507866319646E-1   -6.604543837867684E-2   -2.076253937832563E-4    3.015485660155989E-4    1.456582597528014E-2    9.841806057780065E-3
 1.075826413206603E8     9.760286942831667E-1   -2.020411344869694E-1    1.195450348149974E-1   -6.762628346783706E-2   -2.137308219493015E-4    3.196409883983747E-4    1.466065496628194E-2    1.022722399869929E-2
 1.095765382691346E8     9.747615523944292E-1   -2.047803405495746E-1    1.192402782741074E-1   -6.864140403655956E-2   -2.070245817892021E-4    3.271224365472758E-4    1.462069578965539E-2    1.057026996799598E-2
 1.115704352176088E8     9.734070849959525E-1   -2.076433290201481E-1    1.186911377388225E-1   -6.993999697048031E-2   -2.118036083458637E-4    3.369321577822479E-4    1.470865193900243E-2    1.091041731401078E-2
 1.135643321660831E8     9.720512472754276E-1   -2.104942422071521E-1    1.181146540964773E-1   -7.152021205826566E-2   -2.117261934774159E-4    3.479116350191325E-4    1.468473645629759E-2    1.125817624285211E-2
 1.155582291145573E8     9.706542027099274E-1   -2.133912415027147E-1    1.177903531616935E-1   -7.260679239803372E-2   -2.109607988050088E-4    3.641155777466327E-4    1.464791526984542E-2    1.161567315307132E-2
 1.175521260630315E8     9.690959181244252E-1   -2.167208863856853E-1    1.169184724731257E-1   -7.394592257307167E-2   -2.115504319041869E-4    3.821102798239926E-4    1.450733185201928E-2    1.171243525401478E-2
 1.195460230115058E8     9.676773214579090E-1   -2.199211529065586E-1    1.158589239095363E-1   -7.554728069396338E-2   -2.049673001624996E-4    3.911203635996303E-4    1.449209454493688E-2    1.206970482722231E-2
 1.215399199599800E8     9.663540286437836E-1   -2.232701897929333E-1    1.151179499272998E-1   -7.670828007661595E-2   -2.015787749478167E-4    4.097440911272980E-4    1.446743939034406E-2    1.237564062475870E-2
 1.235338169084542E8     9.650417745730485E-1   -2.267227033792535E-1    1.143803904454306E-1   -7.802267736147951E-2   -2.000671620385268E-4    4.212822559858607E-4    1.437376393887411E-2    1.266914141777807E-2
 1.255277138569285E8     9.638689798190055E-1   -2.303924476805148E-1    1.135616556942989E-1   -7.929676665164515E-2   -1.883761137779710E-4    4.432965000067745E-4    1.435484594400538E-2    1.289454390338850E-2
 1.275216108054027E8     9.627312771474026E-1   -2.342251641725351E-1    1.126470988496166E-1   -8.066838957864421E-2   -1.851544524826080E-4    4.546532192646584E-4    1.427692068640228E-2    1.316400372136553E-2
 1.295155077538769E8     9.616215239559813E-1   -2.382667307050534E-1    1.115375728918060E-1   -8.221088792679690E-2   -1.676954844116236E-4    4.778288224783781E-4    1.424964847689880E-2    1.333297902446102E-2
 1.315094047023512E8     9.605291376325288E-1   -2.424484917266040E-1    1.102322932309391E-1   -8.363314164553869E-2   -1.577033623237822E-4    4.939878511903246E-4    1.415133051611048E-2    1.358954179433862E-2
 1.335033016508254E8     9.593724742897198E-1   -2.465780723971803E-1    1.091896938802705E-1   -8.472939127614822E-2   -1.424336542226522E-4    5.113910057679023E-4    1.410378730621299E-2    1.377967773969273E-2
 1.354971985992997E8     9.584699030841981E-1   -2.510189477595043E-1    1.082321648525874E-1   -8.586936954389678E-2   -1.169396980339890E-4    5.296067545812390E-4    1.406685216187529E-2    1.397157127205417E-2
 1.374910955477739E8     9.577681005948930E-1   -2.554464422726786E-1    1.071680621202709E-1   -8.699004934074217E-2   -9.276725214348409E-5    5.414328277514295E-4    1.401931818024698E-2    1.411191116914540E-2
 1.394849924962481E8     9.570559488505916E-1   -2.600491537929080E-1    1.060510962392918E-1   -8.819051740530007E-2   -6.325604096842796E-5    5.608476376166140E-4    1.401562592765965E-2    1.422409579595578E-2
 1.414788894447224E8     9.562343757915991E-1   -2.647290727319335E-1    1.046515808500268E-1   -8.946903012680149E-2   -2.623726266516018E-5    5.764906254226833E-4    1.398951581659382E-2    1.433222518903769E-2
 1.434727863931966E8     9.554254984103268E-1   -2.694674956341247E-1    1.035344770593988E-1   -9.051114298248868E-2    1.415805207363679E-5    5.873326627733931E-4    1.399637809230505E-2    1.440797343816873E-2
 1.454666833416708E8     9.547424115803272E-1   -2.742126988453015E-1    1.021900488718858E-1   -9.175816993520927E-2    5.071281613850779E-5    6.030179610221787E-4    1.398468405829513E-2    1.446389403951138E-2
 1.474605802901451E8     9.539537612628813E-1   -2.789447197808605E-1    1.008900126285904E-1   -9.276772282521649E-2    1.114910214891540E-4    6.142992543845153E-4    1.403861625990931E-2    1.453942559383206E-2
 1.494544772386193E8     9.532759811396285E-1   -2.837080117714596E-1    9.982774207603858E-2   -9.397702135105733E-2    1.892862769503567E-4    6.235866409097886E-4    1.402834358999786E-2    1.461897451070104E-2
 1.514483741870936E8     9.526607721063449E-1   -2.882876404430237E-1    9.861437404100884E-2   -9.528153090845337E-2    2.697375022399338E-4    6.388547443659012E-4    1.403407599258672E-2    1.477915618039330E-2
 1.534422711355678E8     9.519341364321449E-1   -2.926613189137293E-1    9.749069771732682E-2   -9.626101989798852E-2    3.847660316864714E-4    6.290928552601287E-4    1.408431944549463E-2    1.497027433826475E-2
 1.554361680840420E8     9.512264371007102E-1   -2.970259472949597E-1    9.655225243091106E-2   -9.752585263768535E-2    5.289629878930682E-4    6.000467646577890E-4    1.419523589984450E-2    1.520436219049020E-2
 1.574300650325163E8     9.504535108733765E-1   -3.012689812534528E-1    9.527728583052177E-2   -9.868444996272339E-2    7.027045377960029E-4    5.518583863112589E-4    1.439142356775020E-2    1.553941214363886E-2
 1.594239619809905E8     9.494546852308098E-1   -3.051639737505162E-1    9.379898545145543E-2   -9.956398145087679E-2    9.469314901727425E-4    4.544438908355502E-4    1.494973039755387E-2    1.613041768006189E-2
 1.614178589294647E8     9.484760091680202E-1   -3.090161758130610E-1    9.281427221272449E-2   -1.009912102379518E-1    1.243028539632916E-3    2.536052342025279E-4    1.536360678503123E-2    1.666465507553926E-2
 1.634117558779390E8     9.474882369006162E-1   -3.130171405494436E-1    9.172546241793941E-2   -1.024819225864385E-1    1.628153950053002E-3   -1.305401913461196E-4    1.608455622306773E-2    1.743405590153961E-2
 1.654056528264132E8     9.463960699835988E-1   -3.166446100829464E-1    9.012339418848508E-2   -1.037376346185502E-1    1.936505540815141E-3   -9.468097855797541E-4    1.749817168627437E-2    1.822045885144029E-2
 1.673995497748874E8     9.454897630518503E-1   -3.198438878362598E-1    8.850545128043803E-2   -1.054340500982799E-1    1.670967530126707E-3   -2.215253939783496E-3    1.975542302037002E-2    1.833716797080015E-2
 1.693934467233617E8     9.450724110197598E-1   -3.228290538662904E-1    8.635102792634829E-2   -1.067816359052879E-1    3.728548009242311E-4   -3.155070168309892E-3    2.196895292635221E-2    1.679177792210202E-2
 1.713873436718359E8     9.451862538722839E-1   -3.261590552657650E-1    8.399708594550044E-2   -1.071074939676290E-1   -1.158649562758074E-3   -3.008686293226310E-3    2.254456268729203E-2    1.450095282620784E-2
 1.733812406203102E8     9.451327232110465E-1   -3.299473012561997E-1    8.237470935970655E-2   -1.070398825098451E-1   -2.110531861676178E-3   -2.189434469411536E-3    2.193791055806047E-2    1.292612542852969E-2
 1.753751375687844E8     9.447899836534362E-1   -3.338933367350835E-1    8.167222888987839E-2   -1.073569789598643E-1   -2.463290982548721E-3   -1.271827297875335E-3    2.101148300895440E-2    1.222236907003517E-2
 1.773690345172586E8     9.442152103796496E-1   -3.377032832362259E-1    8.087518753153024E-2   -1.082089391136788E-1   -2.407814692152242E-3   -6.164701832472639E-4    2.040241705134675E-2    1.223639264394045E-2
 1.793629314657329E8     9.434584374351997E-1   -3.411511790290695E-1    7.992539133576419E-2   -1.090696758927758E-1   -2.260259976701400E-3   -1.663894169421272E-4    2.003353874791072E-2    1.244557897383672E-2
 1.813568284142071E8     9.426846146256868E-1   -3.446133730835058E-1    7.904425456757584E-2   -1.094690504076415E-1   -2.092730960882423E-3    1.514133938311640E-4    1.987961952899636E-2    1.277434661274619E-2
 1.833507253626814E8     9.417538632413093E-1   -3.479030077573589E-1    7.797792161628754E-2   -1.100593216163620E-1   -1.940578081060163E-3    3.513974442642661E-4    1.988305106364159E-2    1.306599108379350E-2
