#  HZ   S   RI   R     50.00 
! Rohde & Schwarz Vector Network Analyzer 
! Rohde-Schwarz,ZNL20-2Port,1323001220101312,1.72.1.6-23.02.1.246
! Created: UTC 10/23/2024, 6:20:54 PM
! freq[Hz]                re:S11                  im:S11                  re:S21                  im:S21                  re:S12                  im:S12                  re:S22                  im:S22
 3.900000000000000E6     1.009973727460017      -6.957631632567759E-3    1.554996577769228E-1   -3.329057292949313E-3    5.794385638286643E-6    5.835920968542638E-6    1.423871126521335E-2    2.655361740230186E-4
 5.893896948474238E6     1.008884079098362      -9.989438262987732E-3    1.552427755292227E-1   -4.937543663856106E-3   -1.405805286722319E-5    1.389579607679284E-5    1.376117526535792E-2    9.357004563033205E-4
 7.887793896948474E6     1.007010724817516      -1.308864653589487E-2    1.541336599714709E-1   -6.493196291504848E-3   -6.266969710506947E-6    7.429974207991714E-6    1.320954143414468E-2    1.519607937312018E-3
 9.881690845422711E6     1.005073244684330      -1.643664563786155E-2    1.533519036402735E-1   -7.956715904582211E-3   -6.241643940584391E-7    7.353196573888967E-6    1.271859191189061E-2    2.077705884231681E-3
 1.187558779389695E7     1.004007794953265      -2.051759691548434E-2    1.530762031429859E-1   -9.429337255390054E-3    2.992980044573777E-6    1.326494940738890E-5    1.235243114727952E-2    2.278732162239460E-3
 1.386948474237119E7     1.002897154831099      -2.411528576272112E-2    1.525772176514840E-1   -1.079019817232072E-2    1.245751050272690E-6    1.005010012154780E-5    1.213238097541907E-2    2.521372111812225E-3
 1.586338169084542E7     1.001807814879822      -2.776052910374461E-2    1.526086698201336E-1   -1.219340493000034E-2   -5.668523219162392E-6    1.099113416937838E-5    1.194075426156035E-2    2.753832827470399E-3
 1.785727863931966E7     1.000777424579146      -3.138365477215441E-2    1.524824445781085E-1   -1.357389419616338E-2   -1.522889252015617E-5    1.004460260274825E-5    1.175695600470289E-2    3.050872972615516E-3
 1.985117558779390E7     9.998193125149969E-1   -3.509179977200782E-2    1.524684034367736E-1   -1.499106738352747E-2   -1.580568669466422E-5    1.710117470767810E-5    1.158693620810425E-2    3.195514382316100E-3
 2.184507253626813E7     9.989538306995610E-1   -3.858238428872448E-2    1.528818709943430E-1   -1.646120420679448E-2   -7.260937926956842E-6    2.094911039351585E-5    1.141445361212377E-2    3.441768514081176E-3
 2.383896948474237E7     9.980746594260953E-1   -4.210316479279477E-2    1.531302262850616E-1   -1.797185198574717E-2   -2.174076407355002E-5    3.793693394665652E-5    1.127474878899042E-2    3.633775533087686E-3
 2.583286643321661E7     9.972023858137937E-1   -4.566442617943587E-2    1.533475761305969E-1   -1.956054448182336E-2   -1.496433345649273E-5    3.337509627685586E-5    1.117804492243665E-2    3.839876074395964E-3
 2.782676338169084E7     9.964362831779477E-1   -4.914155433379946E-2    1.533891854212289E-1   -2.112525185633418E-2   -1.232252766646513E-5    3.425564561475769E-5    1.104450930211229E-2    4.092431595645166E-3
 2.982066033016508E7     9.956141754285349E-1   -5.282859687093080E-2    1.532976331081222E-1   -2.272323026616262E-2   -2.244720723215045E-5    3.489996222834525E-5    1.089723949855271E-2    4.309951007847763E-3
 3.181455727863932E7     9.949085906208445E-1   -5.646186621287293E-2    1.534265233059713E-1   -2.438325102813413E-2   -2.862671956307417E-5    3.061141217171911E-5    1.083399178031813E-2    4.437813367190246E-3
 3.380845422711356E7     9.942431202632320E-1   -6.010790742174318E-2    1.535748484592461E-1   -2.599956732430606E-2   -2.847206294902819E-5    4.050113899253810E-5    1.075788821056757E-2    4.621436620232035E-3
 3.580235117558780E7     9.937441004279095E-1   -6.366726510493778E-2    1.536299182818863E-1   -2.763940378372674E-2   -3.886379610872036E-5    3.367668681920164E-5    1.065781382227628E-2    4.782953915065388E-3
 3.779624812406203E7     9.931845094268862E-1   -6.742235460554209E-2    1.535556010539923E-1   -2.928600056472769E-2   -3.352020262364744E-5    3.578041750945591E-5    1.058114245770137E-2    4.907925545131848E-3
 3.979014507253627E7     9.927176148427813E-1   -7.119999623626022E-2    1.533553512404738E-1   -3.088932410190532E-2   -3.656574962310685E-5    4.134435343317544E-5    1.054878753692803E-2    5.009305538603351E-3
 4.178404202101051E7     9.922796885918250E-1   -7.498226050810333E-2    1.531826248243496E-1   -3.255683088203298E-2   -3.820478630131184E-5    4.924126066035506E-5    1.044671513083350E-2    5.126692148174768E-3
 4.377793896948475E7     9.920402862285571E-1   -7.873223131342949E-2    1.529010361036009E-1   -3.419050065132093E-2   -5.173310603085519E-5    5.781512779366506E-5    1.046126980337467E-2    5.173485825001183E-3
 4.577183591795898E7     9.918539046590231E-1   -8.267526560874008E-2    1.525290960617632E-1   -3.577494947888286E-2   -5.827787645459726E-5    5.246748635138517E-5    1.046699592534820E-2    5.259787740532517E-3
 4.776573286643322E7     9.916489812003083E-1   -8.654725668461058E-2    1.520761587508079E-1   -3.731786271666634E-2   -5.157438955470640E-5    6.147766440771477E-5    1.036529142281500E-2    5.337567273465973E-3
 4.975962981490745E7     9.916030887482317E-1   -9.057469493375024E-2    1.516008942107121E-1   -3.891962847685526E-2   -5.552121989558510E-5    5.598625457742024E-5    1.042480360408096E-2    5.363142946933001E-3
 5.175352676338169E7     9.915647741683272E-1   -9.438986128960537E-2    1.510793953384295E-1   -4.039914680056651E-2   -6.542139294084185E-5    7.582189356856527E-5    1.049127006168308E-2    5.494411777953880E-3
 5.374742371185593E7     9.914459788314747E-1   -9.841927677561930E-2    1.503405314939996E-1   -4.190876127479939E-2   -6.955326064470981E-5    7.473676272229808E-5    1.045044206657961E-2    5.654034471612384E-3
 5.574132066033017E7     9.915391410569225E-1   -1.023461815007371E-1    1.498745939159287E-1   -4.329662005839824E-2   -7.218389918329348E-5    7.444837509501019E-5    1.062656431034516E-2    5.726208864474175E-3
 5.773521760880440E7     9.913879251060291E-1   -1.062010101518478E-1    1.489719820953984E-1   -4.484366859568448E-2   -7.855236512673657E-5    7.742896981765628E-5    1.065411421250162E-2    5.855186893871757E-3
 5.972911455727864E7     9.916048505584641E-1   -1.101517722417211E-1    1.481935333723278E-1   -4.628833824911920E-2   -8.536507984846509E-5    8.892725496816869E-5    1.076502727465655E-2    6.059812058775391E-3
 6.172301150575288E7     9.917191595473355E-1   -1.142242393951153E-1    1.474616513576243E-1   -4.757447103529080E-2   -9.289493420516406E-5    8.669238708051349E-5    1.085791227389657E-2    6.086859954811567E-3
 6.371690845422712E7     9.917154218521389E-1   -1.182412244027402E-1    1.467177003261400E-1   -4.890243633564077E-2   -9.516591804715223E-5    9.657898199389861E-5    1.095035864509360E-2    6.178374471764263E-3
 6.571080540270136E7     9.915476310151971E-1   -1.216398805397959E-1    1.458602723077286E-1   -4.971850828783084E-2   -9.865201527247735E-5    9.961594501884436E-5    1.132410353945157E-2    6.687799124719822E-3
 6.770470235117559E7     9.914296372491532E-1   -1.255016658490890E-1    1.449079450314453E-1   -5.100548847979522E-2   -1.067428965887019E-4    1.000748938295241E-4    1.148573243472823E-2    6.800738263577972E-3
 6.969859929964983E7     9.913257740930397E-1   -1.293600812741505E-1    1.441641842939019E-1   -5.223686246117936E-2   -1.120324131361779E-4    1.209846518450778E-4    1.157246172104962E-2    6.958432900589334E-3
 7.169249624812406E7     9.911681221670791E-1   -1.331575105397016E-1    1.432598359494960E-1   -5.346278800628080E-2   -1.110592707706681E-4    1.134345556202289E-4    1.166340036845400E-2    7.118090570822720E-3
 7.368639319659831E7     9.910712337434847E-1   -1.368881174144032E-1    1.430034412333745E-1   -5.475903974684675E-2   -1.192902786378185E-4    1.257989532155832E-4    1.180373420836674E-2    7.325463476217549E-3
 7.568029014507253E7     9.908869896213642E-1   -1.403908443932988E-1    1.425524713162437E-1   -5.627337151323389E-2   -5.457672377623160E-5    6.932588703555760E-5    1.199048602035944E-2    7.517653915371135E-3
 7.767418709354678E7     9.907038258813392E-1   -1.440473957140440E-1    1.414839342079299E-1   -5.747947957598792E-2   -1.362551221554174E-4    1.272228576666055E-4    1.201409245904192E-2    7.673266448813766E-3
 7.966808404202102E7     9.904332056700870E-1   -1.475882627455049E-1    1.405583476828115E-1   -5.878584383930160E-2   -1.317825838361695E-4    1.422714811534819E-4    1.217501863694337E-2    7.824093188811930E-3
 8.166198099049525E7     9.901840015003146E-1   -1.512457776919191E-1    1.405598817350055E-1   -6.045564536598622E-2   -1.308489986975998E-4    1.425937096461832E-4    1.228546150803490E-2    7.972188778773920E-3
 8.365587793896949E7     9.898458532381205E-1   -1.548349240824067E-1    1.395811351640590E-1   -6.153846558038435E-2   -1.372174148439304E-4    1.432255643271333E-4    1.242973239134173E-2    8.185400636233683E-3
 8.564977488744372E7     9.895013793576978E-1   -1.584436691101177E-1    1.390368077683377E-1   -6.324728246878551E-2   -1.413739793368922E-4    1.576540840551078E-4    1.253920012224515E-2    8.389315398204459E-3
 8.764367183591796E7     9.890905896376040E-1   -1.618375181932684E-1    1.388592699085888E-1   -6.446415120263106E-2   -1.522225400338034E-4    1.685305083974787E-4    1.263870165933319E-2    8.577525877392900E-3
 8.963756878439221E7     9.886574880821380E-1   -1.652653648269004E-1    1.379044967654366E-1   -6.590533951210492E-2   -1.570124459665260E-4    1.669972584841326E-4    1.278439809500653E-2    8.824179328415496E-3
 9.163146573286644E7     9.878952996014282E-1   -1.685067366478801E-1    1.382125286266012E-1   -6.706838299954446E-2   -1.606430424182912E-4    1.783546564899936E-4    1.278648718745051E-2    9.080195791205198E-3
 9.362536268134068E7     9.873983563001469E-1   -1.718447318691468E-1    1.367928270710269E-1   -6.876853619512041E-2   -1.632662682505097E-4    1.911287790078045E-4    1.291068229545067E-2    9.301699770912974E-3
 9.561925962981491E7     9.868306779040867E-1   -1.749639509660874E-1    1.372450095720579E-1   -6.984283468025840E-2   -1.650772188467161E-4    1.939252977386828E-4    1.301078800064825E-2    9.513186469843192E-3
 9.761315657828915E7     9.861954080811105E-1   -1.781677885747787E-1    1.364097329310907E-1   -7.135470806273823E-2   -1.751816729278842E-4    2.057041976102999E-4    1.316177032363170E-2    9.701925992961193E-3
 9.960705352676338E7     9.855277469181307E-1   -1.813313612451525E-1    1.365572763982787E-1   -7.245104440569608E-2   -1.668785220623833E-4    2.104004757393042E-4    1.324947538527188E-2    9.956063330925014E-3
 1.016009504752376E8     9.848586787272080E-1   -1.844294904995922E-1    1.358819695491887E-1   -7.422361638269878E-2   -1.728989734559643E-4    2.129994019877453E-4    1.340183722210944E-2    1.019001989319758E-2
 1.035948474237119E8     9.841053689106218E-1   -1.875085798988801E-1    1.355114402682855E-1   -7.539665740223019E-2   -1.807005240761617E-4    2.288394922154907E-4    1.350502568563250E-2    1.042029034669931E-2
 1.055887443721861E8     9.832606774530657E-1   -1.905037757037543E-1    1.356374867034668E-1   -7.674653289670101E-2   -1.684682880686366E-4    2.415059236304702E-4    1.355732981491561E-2    1.063363458704965E-2
 1.075826413206603E8     9.825383288695114E-1   -1.935291485144137E-1    1.349754862343059E-1   -7.834091376438768E-2   -1.815048183349734E-4    2.531138870998457E-4    1.369196787724395E-2    1.088074684900349E-2
 1.095765382691346E8     9.817917534515700E-1   -1.965075448930571E-1    1.348453429008281E-1   -7.961857884984407E-2   -1.789416827501337E-4    2.544737392831839E-4    1.382299452780521E-2    1.116580846920693E-2
 1.115704352176088E8     9.809018454219385E-1   -1.996126614319557E-1    1.342492274047425E-1   -8.138733613565700E-2   -1.834646744551690E-4    2.634370193817237E-4    1.391894018584829E-2    1.141210262649547E-2
 1.135643321660831E8     9.801208631310522E-1   -2.027042168482704E-1    1.336680137964577E-1   -8.287079077650507E-2   -1.886217709451382E-4    2.765346978679479E-4    1.401427763010439E-2    1.164940719549052E-2
 1.155582291145573E8     9.792677437166786E-1   -2.056757431213341E-1    1.337402975281784E-1   -8.398116112029083E-2   -1.859474831864241E-4    2.865438997429644E-4    1.409809919016184E-2    1.189246178013533E-2
 1.175521260630315E8     9.783627334445519E-1   -2.090351617447698E-1    1.330957040523537E-1   -8.567160394488262E-2   -1.897662970749141E-4    2.977061854511051E-4    1.411039847641878E-2    1.207443144712325E-2
 1.195460230115058E8     9.775991801753042E-1   -2.123078426023434E-1    1.320842007189137E-1   -8.747717496198426E-2   -1.977076183624512E-4    3.086213224114286E-4    1.422855221009021E-2    1.231918378231991E-2
 1.215399199599800E8     9.769018058284253E-1   -2.156196896508076E-1    1.314623748218364E-1   -8.883621610308219E-2   -1.776897398929735E-4    3.207947508840166E-4    1.429761516110058E-2    1.256334164981206E-2
 1.235338169084542E8     9.760969056060029E-1   -2.190218645670379E-1    1.307268215473207E-1   -9.027890180045930E-2   -1.728980037313592E-4    3.403561456584704E-4    1.435216199555635E-2    1.280890357206189E-2
 1.255277138569285E8     9.753151168642666E-1   -2.224067651065417E-1    1.299167299095002E-1   -9.167547633555005E-2   -1.644356393247975E-4    3.458070258404284E-4    1.443655875237910E-2    1.304717907846148E-2
 1.275216108054027E8     9.746648834260662E-1   -2.259847282454881E-1    1.291855300982250E-1   -9.309763701283300E-2   -1.556555898298028E-4    3.503962231946712E-4    1.450049295577420E-2    1.327825695789133E-2
 1.295155077538769E8     9.741505515712252E-1   -2.296434190159214E-1    1.280307625688180E-1   -9.492641909305265E-2   -1.477677027291624E-4    3.679718041740158E-4    1.462354040381467E-2    1.355091635392397E-2
 1.315094047023512E8     9.735390436802951E-1   -2.334986451546394E-1    1.265870091481361E-1   -9.653495698751983E-2   -1.335388691680554E-4    3.846182381821263E-4    1.467949667650766E-2    1.377544143305096E-2
 1.335033016508254E8     9.729185735826217E-1   -2.374207993447038E-1    1.251805052022305E-1   -9.809063547616975E-2   -1.234882773631632E-4    3.979691742955921E-4    1.475392248028942E-2    1.402842834434624E-2
 1.354971985992997E8     9.722751153431413E-1   -2.414166187036713E-1    1.242790056947023E-1   -9.935331120635151E-2   -1.091870072544196E-4    4.133249985419734E-4    1.484918124830140E-2    1.432607299692162E-2
 1.374910955477739E8     9.718272318749233E-1   -2.454782562808980E-1    1.227093974959984E-1   -1.009131607804603E-1   -9.875295800187349E-5    4.248193388919652E-4    1.489473241280661E-2    1.452949512297380E-2
 1.394849924962481E8     9.711975128513094E-1   -2.497558127166664E-1    1.210438775210890E-1   -1.022984420682509E-1   -6.898220595841152E-5    4.400626635512956E-4    1.496858321951455E-2    1.475843208796200E-2
 1.414788894447224E8     9.707668781340943E-1   -2.540403580857214E-1    1.193883879240527E-1   -1.037560062229100E-1   -3.333759266887779E-5    4.494126275918255E-4    1.495822310144990E-2    1.497177224458199E-2
 1.434727863931966E8     9.702575236103850E-1   -2.584838139639982E-1    1.177600216173563E-1   -1.049353550164052E-1   -5.320027453829889E-6    4.586282637645457E-4    1.506163837566502E-2    1.520055408010977E-2
 1.454666833416708E8     9.696525720034999E-1   -2.627604961670665E-1    1.167783870655360E-1   -1.062067001748266E-1    4.047718205525252E-5    4.742422870578420E-4    1.510532717752061E-2    1.539221542922960E-2
 1.474605802901451E8     9.691267343558885E-1   -2.672811879434823E-1    1.148160368174865E-1   -1.075197152601998E-1    8.458040577276086E-5    4.787317470045161E-4    1.525301565283033E-2    1.561284863820816E-2
 1.494544772386193E8     9.685102091456903E-1   -2.717204845374683E-1    1.134481857613022E-1   -1.087157284101368E-1    1.456633335607166E-4    4.968069131858708E-4    1.524467741432472E-2    1.585482302486003E-2
 1.514483741870936E8     9.678114846103084E-1   -2.760375049439929E-1    1.122259987994235E-1   -1.101940262970753E-1    2.124581956509624E-4    4.910986392564108E-4    1.534259479627339E-2    1.610052851987064E-2
 1.534422711355678E8     9.670636263256090E-1   -2.802908633009974E-1    1.104316539686105E-1   -1.112719978701182E-1    3.047149662696756E-4    4.922111602006999E-4    1.539433504604589E-2    1.642401647951604E-2
 1.554361680840420E8     9.661724477667168E-1   -2.845192271448908E-1    1.092509756554767E-1   -1.125007278408833E-1    4.303073415892625E-4    4.794470763747955E-4    1.560871421113960E-2    1.681926618540223E-2
 1.574300650325163E8     9.653324505280543E-1   -2.886512980064592E-1    1.077635965938015E-1   -1.138664661755118E-1    5.675672108389297E-4    4.476694247438429E-4    1.566500268870929E-2    1.721543138772542E-2
 1.594239619809905E8     9.644089507701293E-1   -2.925078459450978E-1    1.059366145639437E-1   -1.146554470676558E-1    7.609855235704662E-4    3.904199289168626E-4    1.600694659949775E-2    1.773986994395498E-2
 1.614178589294647E8     9.634975323537495E-1   -2.963940880685128E-1    1.047185589111500E-1   -1.161739037074245E-1    1.003301348946920E-3    2.563376904256622E-4    1.633168059012161E-2    1.832875796428193E-2
 1.634117558779390E8     9.627261340210400E-1   -3.003472962145820E-1    1.034439126295892E-1   -1.180181281276017E-1    1.324701089411785E-3    8.316339141707962E-6    1.678092053192821E-2    1.899383340327239E-2
 1.654056528264132E8     9.616317530343117E-1   -3.039220549948392E-1    1.018175800384905E-1   -1.193391368223303E-1    1.672655802334689E-3   -5.328665164452147E-4    1.770127498893829E-2    1.974392596760394E-2
 1.673995497748874E8     9.608111550499472E-1   -3.071804703227106E-1    1.002755201255276E-1   -1.208858850019403E-1    1.792842024572905E-3   -1.490518533070755E-3    1.932165653479771E-2    2.025560865296826E-2
 1.693934467233617E8     9.602353701377648E-1   -3.102378749606741E-1    9.827286438070082E-2   -1.226818329085622E-1    1.105422234020821E-3   -2.652043833600524E-3    2.136579813592621E-2    1.958301240892082E-2
 1.713873436718359E8     9.600325295242861E-1   -3.134742343582326E-1    9.581848502609432E-2   -1.232005881379536E-1   -3.385800327725977E-4   -3.215724406673836E-3    2.265467548773217E-2    1.766267483441941E-2
 1.733812406203102E8     9.598681208333225E-1   -3.172915640242228E-1    9.423036252549614E-2   -1.227968468157918E-1   -1.620773787637962E-3   -2.562466090836176E-3    2.213276417008360E-2    1.577700319575455E-2
 1.753751375687844E8     9.594128170862432E-1   -3.213645169883435E-1    9.380867590645721E-2   -1.234645268688420E-1   -2.127527767365941E-3   -1.654842293873561E-3    2.106159846643147E-2    1.496936416930785E-2
 1.773690345172586E8     9.585672531159156E-1   -3.252595237262029E-1    9.290662004666252E-2   -1.247634935300289E-1   -2.147974933854744E-3   -9.626541183634895E-4    2.018785018410878E-2    1.491043174982637E-2
 1.793629314657329E8     9.574768939848173E-1   -3.291951244608872E-1    9.134679997395344E-2   -1.257730920104710E-1   -2.030990062860492E-3   -5.134323224151599E-4    1.971780074264120E-2    1.518277842002279E-2
 1.813568284142071E8     9.563663122473067E-1   -3.327506600300874E-1    9.037882654457244E-2   -1.263665490022234E-1   -1.917424143647106E-3   -2.172752590131171E-4    1.946955672517041E-2    1.544780109050585E-2
 1.833507253626814E8     9.551429673818580E-1   -3.362177668554597E-1    8.933595929282143E-2   -1.276018736511723E-1   -1.801200795433949E-3    1.347506125542200E-5    1.929084506653347E-2    1.571689522894570E-2
