#  HZ   S   RI   R     50.00 
! Rohde & Schwarz Vector Network Analyzer 
! Rohde-Schwarz,ZNL20-2Port,1323001220101312,1.72.1.6-23.02.1.246
! Created: UTC 10/23/2024, 9:25:59 PM
! freq[Hz]                re:S11                  im:S11                  re:S21                  im:S21                  re:S12                  im:S12                  re:S22                  im:S22
 3.900000000000000E6     1.001698108945738      -4.630412878707704E-3    1.983597086009155E-1   -2.895358410352741E-3    5.397484180310295E-6    4.408403835756142E-6    1.404693680082499E-2    5.664595450576687E-4
 5.893896948474238E6     1.002046235671464      -6.314606886410236E-3    1.985460981030935E-1   -5.132540480668829E-3    8.507227962825950E-6   -4.167441957954181E-6    1.421660997157498E-2    8.648726421645066E-4
 7.887793896948474E6     1.001822521012210      -9.018000767328135E-3    1.983297115311525E-1   -7.280161707162559E-3   -1.302010708963960E-5    8.087559807270940E-6    1.408905001079289E-2    1.455394215270723E-3
 9.881690845422711E6     1.001602636692439      -1.194231260880407E-2    1.980409688281659E-1   -9.447521451836135E-3    7.113362600376872E-7   -1.230534110807595E-6    1.381782311399265E-2    1.990460409665288E-3
 1.187558779389695E7     1.002294557954871      -1.619107847344420E-2    1.972781866436904E-1   -1.161849207764956E-2   -1.983811341177795E-5   -9.631629969842024E-6    1.332300209012320E-2    2.382840326766947E-3
 1.386948474237119E7     1.002009959973861      -1.927252773027257E-2    1.970362348916567E-1   -1.362037732256927E-2   -1.498282996182675E-5    9.784943429765992E-6    1.319164989098099E-2    2.680969589402117E-3
 1.586338169084542E7     1.001724267641266      -2.226931820702085E-2    1.967883786815994E-1   -1.554095621731997E-2   -1.524226013732718E-5    6.134152813294162E-7    1.304991403269670E-2    2.898396392430777E-3
 1.785727863931966E7     1.001139249553947      -2.505188587970002E-2    1.964981928782077E-1   -1.749241262978457E-2   -1.699695171047571E-5    1.402735484465083E-5    1.279939366965831E-2    3.301997115441556E-3
 1.985117558779390E7     1.000953993496441      -2.788309628135921E-2    1.963480799986022E-1   -1.941162896627408E-2   -5.664532287393065E-6    1.434211804319804E-5    1.267160668630303E-2    3.572590362827933E-3
 2.184507253626813E7     1.000646819921727      -3.068625089439126E-2    1.961036678633618E-1   -2.138490681636436E-2   -1.904163021851262E-5    1.594384904521135E-5    1.257447389936509E-2    3.869272184987019E-3
 2.383896948474237E7     1.000294554618277      -3.347422185608411E-2    1.958610346607359E-1   -2.334375027307421E-2   -2.239095366616211E-5    1.730572255796271E-5    1.244688902729966E-2    4.134003984338261E-3
 2.583286643321661E7     1.000056482174043      -3.619289968992334E-2    1.955639592879580E-1   -2.529064535192900E-2   -2.095724231557050E-5    2.395416500093279E-5    1.228145824720992E-2    4.376258567205324E-3
 2.782676338169084E7     9.999344512394531E-1   -3.909311365370914E-2    1.954131023925609E-1   -2.725827060548043E-2   -2.465707504204376E-5    2.690916041720536E-5    1.219931519335478E-2    4.612750166509721E-3
 2.982066033016508E7     9.996360063184089E-1   -4.187997088854747E-2    1.950954279736106E-1   -2.923194835477268E-2   -2.196100191767646E-5    3.207227091970326E-5    1.208126810323755E-2    4.830326872394364E-3
 3.181455727863932E7     9.993746837167243E-1   -4.478309322807402E-2    1.947738000821859E-1   -3.113198784789670E-2   -2.655199269117832E-5    3.704888353627251E-5    1.195383605496813E-2    5.018089954644544E-3
 3.380845422711356E7     9.992073330317544E-1   -4.759150056703887E-2    1.944343279553875E-1   -3.306482346293161E-2   -2.930657991682009E-5    3.433022894518273E-5    1.184979411385289E-2    5.108189660338773E-3
 3.580235117558780E7     9.990353462167079E-1   -5.053224515745287E-2    1.941226751708321E-1   -3.501883651168325E-2   -2.180628591826698E-5    2.022211640034289E-5    1.181128640055831E-2    5.248524801354235E-3
 3.779624812406203E7     9.988826553376416E-1   -5.340314174690951E-2    1.937996140899079E-1   -3.694822465038808E-2   -1.518788951908120E-5    3.205977590140251E-5    1.180594869874164E-2    5.310211407888583E-3
 3.979014507253627E7     9.987769201131906E-1   -5.628632533872426E-2    1.933962420275792E-1   -3.890748982836519E-2   -5.112743965296554E-5    3.126325375297834E-5    1.180463896882282E-2    5.365612642931472E-3
 4.178404202101051E7     9.986869292240346E-1   -5.934811868621832E-2    1.929715631038836E-1   -4.086778183003787E-2   -3.489861797619155E-5    3.660378264271429E-5    1.174870544000691E-2    5.466278239034782E-3
 4.377793896948475E7     9.986136084503376E-1   -6.237583409800320E-2    1.925584423411104E-1   -4.280444137551260E-2   -4.281639488891003E-5    4.701121668792848E-5    1.177251969976270E-2    5.486512663960452E-3
 4.577183591795898E7     9.987059733673361E-1   -6.545983701325785E-2    1.921079000396442E-1   -4.471919349153885E-2   -3.267055077895116E-5    4.323866786178676E-5    1.181949578570136E-2    5.508644712728498E-3
 4.776573286643322E7     9.986183236939290E-1   -6.839395637820407E-2    1.916744864141870E-1   -4.666015619996242E-2   -2.190489763181525E-5    5.298258402373472E-5    1.187687806414105E-2    5.471601549714970E-3
 4.975962981490745E7     9.985755720001257E-1   -7.144054027115140E-2    1.912071698824871E-1   -4.862020675228811E-2   -1.868294793573854E-5    5.410111718081077E-5    1.198194798927818E-2    5.496153541851082E-3
 5.175352676338169E7     9.986088714542267E-1   -7.442278593945401E-2    1.906657716294283E-1   -5.065629108055048E-2   -3.553996903674727E-5    4.517639383485447E-5    1.207393905800895E-2    5.542048782268906E-3
 5.374742371185593E7     9.986738285922019E-1   -7.742729889040370E-2    1.901373587012154E-1   -5.259548758015094E-2   -1.984293788541105E-5    4.360157722226387E-5    1.227206361535797E-2    5.577338435699086E-3
 5.574132066033017E7     9.987495456340592E-1   -8.054762322180735E-2    1.895280355754126E-1   -5.457889792849735E-2   -2.665273701383991E-5    5.018114744159353E-5    1.237852353612653E-2    5.597846728538663E-3
 5.773521760880440E7     9.986865975812821E-1   -8.349869192450124E-2    1.889350950388321E-1   -5.651632445309846E-2   -3.057905076455031E-5    7.125312249187626E-5    1.254206299417557E-2    5.641216784807000E-3
 5.972911455727864E7     9.989025180247801E-1   -8.650034450261768E-2    1.883051058040555E-1   -5.847816589585283E-2   -2.609541745230494E-5    5.147647300253699E-5    1.274942693681232E-2    5.729262056994861E-3
 6.172301150575288E7     9.988888383743204E-1   -8.951738210281276E-2    1.876148768386590E-1   -6.041899148555970E-2   -4.468533464758043E-5    6.462290623127780E-5    1.289316017582704E-2    5.758652904903414E-3
 6.371690845422712E7     9.989798775284902E-1   -9.258867735872642E-2    1.868752858365192E-1   -6.238434085471716E-2   -2.755923697281446E-5    6.189087483153082E-5    1.311802712879298E-2    5.765329306620571E-3
 6.571080540270136E7     9.991703705613979E-1   -9.536420811015268E-2    1.861331269189572E-1   -6.421636114236774E-2   -2.867376046839744E-5    7.689961592915696E-5    1.340322818048366E-2    6.033981125809748E-3
 6.770470235117559E7     9.991422587270511E-1   -9.845220831460763E-2    1.853641923323688E-1   -6.615264599120070E-2   -1.819647236014766E-5    5.541848656546912E-5    1.363010855162942E-2    6.132629041858504E-3
 6.969859929964983E7     9.991496676264747E-1   -1.013698863956845E-1    1.845934148559398E-1   -6.804544295466321E-2   -3.784496822166465E-5    8.303405609535603E-5    1.379127530819481E-2    6.220729973136884E-3
 7.169249624812406E7     9.992224849918442E-1   -1.042009955571592E-1    1.838320257126874E-1   -6.992061995455737E-2   -3.482887720348572E-5    5.945810292380652E-5    1.392894163856013E-2    6.375057710850261E-3
 7.368639319659831E7     9.991472624666343E-1   -1.070351059170705E-1    1.830195531583959E-1   -7.182382492113946E-2   -3.485480383883687E-5    6.778932756087148E-5    1.411593810441870E-2    6.598757647949155E-3
 7.568029014507253E7     9.991916182222267E-1   -1.098905941268924E-1    1.822043806617341E-1   -7.370820291147555E-2   -2.275000928732465E-5    6.967505129253776E-5    1.434249702874319E-2    6.828299244336951E-3
 7.767418709354678E7     9.991428087718616E-1   -1.126512012127425E-1    1.813899512515605E-1   -7.558057387927208E-2   -3.923980840660589E-5    6.345807296872746E-5    1.450684187598495E-2    7.031275687657690E-3
 7.966808404202102E7     9.992349575695660E-1   -1.154553022639523E-1    1.806194191254606E-1   -7.741361631940559E-2   -2.283643737277010E-5    7.986412924506653E-5    1.469852737557864E-2    7.233460572935821E-3
 8.166198099049525E7     9.990720815850436E-1   -1.183366775996247E-1    1.797342502324030E-1   -7.927117913061912E-2   -2.415541653740070E-5    7.866960270823845E-5    1.487957702968109E-2    7.563809897462516E-3
 8.365587793896949E7     9.990013994858336E-1   -1.211741171443140E-1    1.789027978597726E-1   -8.110796245331187E-2   -3.399612089288341E-5    8.256809924637025E-5    1.502394052982372E-2    7.807757184383209E-3
 8.564977488744372E7     9.987820788891374E-1   -1.239450364351511E-1    1.780164203830161E-1   -8.286785902702200E-2   -2.473868621540709E-5    7.135035257734406E-5    1.524106676588885E-2    8.157482276061818E-3
 8.764367183591796E7     9.987410947974347E-1   -1.268380546442236E-1    1.771930926769077E-1   -8.465617473464453E-2   -3.108594477650513E-5    9.153539151440522E-5    1.532734475211352E-2    8.479342752374126E-3
 8.963756878439221E7     9.985760873649128E-1   -1.296498892092654E-1    1.763071975842631E-1   -8.639608831922690E-2   -3.644642229425201E-5    8.275151210017208E-5    1.546090704314876E-2    8.762681969508867E-3
 9.163146573286644E7     9.982194338588394E-1   -1.323600080660663E-1    1.754043807010434E-1   -8.801486518214703E-2   -2.536033040859422E-5    9.644603276624976E-5    1.557915683033067E-2    9.152884463383209E-3
 9.362536268134068E7     9.979815352367778E-1   -1.351385288963863E-1    1.745450046826407E-1   -8.967796120971343E-2   -4.135697970409658E-5    1.011471647473040E-4    1.566851064341312E-2    9.490778926081531E-3
 9.561925962981491E7     9.978926916000123E-1   -1.378324342406431E-1    1.737221145997851E-1   -9.133325677659962E-2   -2.660115881985887E-5    8.821310407583134E-5    1.578448460207588E-2    9.772056606252985E-3
 9.761315657828915E7     9.974955160260636E-1   -1.404960255953502E-1    1.727970526124534E-1   -9.294239427151137E-2   -3.632121115959714E-5    8.894308636699745E-5    1.586204749848614E-2    1.014329419965815E-2
 9.960705352676338E7     9.971684253267750E-1   -1.433703020459891E-1    1.719533226052174E-1   -9.456398095111718E-2   -2.911115374627069E-5    9.217882763959851E-5    1.584342696956968E-2    1.049501527672966E-2
 1.016009504752376E8     9.969312883441288E-1   -1.460328863896910E-1    1.710859590149344E-1   -9.617162442355830E-2   -1.766614487357955E-5    9.117829299152152E-5    1.594963192247021E-2    1.085750488225009E-2
 1.035948474237119E8     9.965408709368770E-1   -1.487395500692812E-1    1.702027257502229E-1   -9.776364062867376E-2   -2.770193319975754E-5    9.799621457257524E-5    1.598578885179575E-2    1.119659849347349E-2
 1.055887443721861E8     9.961534680408271E-1   -1.515859967837231E-1    1.692975742824923E-1   -9.940022452401928E-2   -1.947522999879646E-5    1.078669356615316E-4    1.599445696239059E-2    1.150812341055934E-2
 1.075826413206603E8     9.958417209503975E-1   -1.542871297783834E-1    1.684094887343473E-1   -1.009694989560649E-1   -3.683531301785541E-5    8.893656887621831E-5    1.606925113421133E-2    1.176751082392241E-2
 1.095765382691346E8     9.955200408171460E-1   -1.571963718956755E-1    1.674393002046169E-1   -1.026381869433867E-1   -3.401740219495627E-5    9.921905609333913E-5    1.606590323762890E-2    1.205900556828210E-2
 1.115704352176088E8     9.952499846349947E-1   -1.599388525674609E-1    1.664537324028345E-1   -1.042255603840560E-1   -3.087231440615858E-5    9.851885156659780E-5    1.608876854582510E-2    1.229970928723105E-2
 1.135643321660831E8     9.948708730519084E-1   -1.626731920379874E-1    1.654918372247611E-1   -1.058332623408410E-1   -2.649233778462078E-5    1.058724845038315E-4    1.604765978348056E-2    1.257992019825752E-2
 1.155582291145573E8     9.944802274653222E-1   -1.655375539884895E-1    1.644528715636408E-1   -1.074432299049009E-1   -2.867169686661879E-5    9.690736912015782E-5    1.606888702385683E-2    1.279725432531788E-2
 1.175521260630315E8     9.941103128763944E-1   -1.683934503407318E-1    1.634051349049332E-1   -1.090583474476297E-1   -1.205176199293901E-5    9.960540988238851E-5    1.600563337508406E-2    1.299241433614727E-2
 1.195460230115058E8     9.938221882043724E-1   -1.712510616187718E-1    1.623192086748371E-1   -1.106048255816447E-1   -2.137187454875788E-5    1.156116662688094E-4    1.601002173580067E-2    1.316171097635640E-2
 1.215399199599800E8     9.934057877938618E-1   -1.741646034958940E-1    1.612344635439182E-1   -1.122019791226211E-1   -1.577164916116179E-5    1.118259438723988E-4    1.600420188830779E-2    1.336313688432208E-2
 1.235338169084542E8     9.931793793705580E-1   -1.771287121246366E-1    1.601370552392701E-1   -1.138272974877396E-1   -2.141802501802195E-5    1.106563198614720E-4    1.606137650224830E-2    1.350226313926035E-2
 1.255277138569285E8     9.928683698794329E-1   -1.800734673245360E-1    1.589904772839612E-1   -1.153860621820237E-1    4.962689111656026E-6    1.096338682817234E-4    1.601085917466678E-2    1.360988699312882E-2
 1.275216108054027E8     9.925156724578935E-1   -1.830588352675282E-1    1.577998367332339E-1   -1.169366645907144E-1   -4.317481460788058E-6    1.225600669292805E-4    1.608773926059005E-2    1.372085674039387E-2
 1.295155077538769E8     9.922711558885503E-1   -1.860996874654365E-1    1.566582976012846E-1   -1.185218665061013E-1    2.607816585016838E-5    1.233203994604618E-4    1.603324276164596E-2    1.381830074713232E-2
 1.315094047023512E8     9.920785505228514E-1   -1.891223138954292E-1    1.554881042895688E-1   -1.200722076558660E-1    3.545329793831425E-5    1.162171495076342E-4    1.608698056562921E-2    1.386393675047744E-2
 1.335033016508254E8     9.918333121366076E-1   -1.921922898830881E-1    1.542823517795387E-1   -1.216111226423026E-1    3.086760335806629E-5    1.199433402459571E-4    1.609401568113571E-2    1.396060248659957E-2
 1.354971985992997E8     9.915820360941757E-1   -1.952622783430496E-1    1.530790870473991E-1   -1.231338793990909E-1    5.150930771368497E-5    1.189042440394051E-4    1.618799989493804E-2    1.397979981239005E-2
 1.374910955477739E8     9.913906978954027E-1   -1.983476498063360E-1    1.518803172910601E-1   -1.247144806781353E-1    5.594282544865803E-5    1.091380002110066E-4    1.627775040489829E-2    1.399263204082176E-2
 1.394849924962481E8     9.911560657571555E-1   -2.014520625846784E-1    1.505573777969894E-1   -1.262054798872187E-1    7.099786257421645E-5    9.276676627466422E-5    1.634057633098697E-2    1.406079370027954E-2
 1.414788894447224E8     9.909015384673323E-1   -2.046376116227252E-1    1.493298428616602E-1   -1.277401332889856E-1    8.963385346245650E-5    9.423052821586823E-5    1.637463909193410E-2    1.402275941817483E-2
 1.434727863931966E8     9.907730361950471E-1   -2.078893191552295E-1    1.480125502797127E-1   -1.293349698675371E-1    1.006520906844614E-4    7.890865044838643E-5    1.644958102549500E-2    1.413846251296421E-2
 1.454666833416708E8     9.904590761321925E-1   -2.110191420390294E-1    1.466318683950544E-1   -1.308035439538326E-1    1.305846250517904E-4    5.788928993154051E-5    1.661621518640642E-2    1.425960524622081E-2
 1.474605802901451E8     9.902579990362212E-1   -2.141763110410892E-1    1.453021818967669E-1   -1.322838435020454E-1    1.409068054134802E-4    3.121413080412192E-5    1.692042737558011E-2    1.424752391502316E-2
 1.494544772386193E8     9.899698764862488E-1   -2.173261214079901E-1    1.439408644436325E-1   -1.337359435764555E-1    1.918575441632982E-4   -1.006392459088146E-5    1.716961672243959E-2    1.423437194033453E-2
 1.514483741870936E8     9.898680705934541E-1   -2.205596938075129E-1    1.425523176640700E-1   -1.352722621004687E-1    2.156141567802346E-4   -6.953920252190974E-5    1.742413264802939E-2    1.427534414038000E-2
 1.534422711355678E8     9.897126157331735E-1   -2.233946286076805E-1    1.410839606141689E-1   -1.366866767337861E-1    2.487873500995846E-4   -1.453163788143859E-4    1.766268375300470E-2    1.427393866599974E-2
 1.554361680840420E8     9.895621815953606E-1   -2.263124143400355E-1    1.396032798297401E-1   -1.381128285550605E-1    2.558975885896300E-4   -2.667489358913823E-4    1.791405444654279E-2    1.439202793521326E-2
 1.574300650325163E8     9.893064178515689E-1   -2.291195711025902E-1    1.380684110231203E-1   -1.394300872950698E-1    2.259186265649399E-4   -4.356705098673345E-4    1.829990011373586E-2    1.445185237911994E-2
 1.594239619809905E8     9.891460660415443E-1   -2.319093146341183E-1    1.364376047934748E-1   -1.406757197548337E-1    7.624777731807510E-5   -5.877845775175165E-4    1.877964085532897E-2    1.437410697818933E-2
 1.614178589294647E8     9.892341957768280E-1   -2.348734155012741E-1    1.349213670377242E-1   -1.417817873406007E-1   -1.613130822204635E-4   -6.481234354473058E-4    1.916101221596366E-2    1.416621506704454E-2
 1.634117558779390E8     9.891072043402621E-1   -2.377681584919928E-1    1.335662267722111E-1   -1.428701361653075E-1   -3.895137968103218E-4   -5.704252533993623E-4    1.933295179024172E-2    1.402278040388111E-2
 1.654056528264132E8     9.889017852768710E-1   -2.407317368295296E-1    1.322369918673689E-1   -1.440022684902866E-1   -4.987594065309903E-4   -4.184442320007207E-4    1.943149496223375E-2    1.390484923307797E-2
 1.673995497748874E8     9.885759063982718E-1   -2.437778919357012E-1    1.308616936917812E-1   -1.451958583535194E-1   -5.628761195578625E-4   -2.869258131658797E-4    1.961236367816571E-2    1.399593401510923E-2
 1.693934467233617E8     9.882194017878496E-1   -2.467106177045476E-1    1.295247588327026E-1   -1.463792333346363E-1   -5.735441252837059E-4   -1.751183947037494E-4    1.965653536132643E-2    1.415876779343474E-2
 1.713873436718359E8     9.878620815113167E-1   -2.495266103788711E-1    1.281209966346498E-1   -1.475993254213334E-1   -5.541407919082595E-4   -1.169478452396090E-4    1.986452758657672E-2    1.425758327046495E-2
 1.733812406203102E8     9.875271811602629E-1   -2.524554285945706E-1    1.267923855521161E-1   -1.488237564418519E-1   -5.334601460515279E-4   -2.065623662927599E-5    2.000318232607379E-2    1.444330661455481E-2
 1.753751375687844E8     9.871960475323848E-1   -2.553559901477242E-1    1.253954533669323E-1   -1.499700018025142E-1   -5.416013904622277E-4    1.255675024748137E-5    2.021256966356430E-2    1.466052751042109E-2
 1.773690345172586E8     9.867307478832159E-1   -2.582898164703540E-1    1.240214805659518E-1   -1.511056652010480E-1   -5.088079202777376E-4    6.962049411617182E-5    2.043101194074493E-2    1.489563144156570E-2
 1.793629314657329E8     9.862297579950943E-1   -2.610488008909033E-1    1.226361392932915E-1   -1.521739771173586E-1   -4.822600581871776E-4    1.028524865857309E-4    2.068566069388564E-2    1.511427414249293E-2
 1.813568284142071E8     9.858523132916300E-1   -2.639291526385223E-1    1.212927051188660E-1   -1.532863093242808E-1   -4.531787098314277E-4    1.086721209656740E-4    2.093605318386194E-2    1.537378424048548E-2
 1.833507253626814E8     9.852305526051472E-1   -2.667591686623201E-1    1.199779727900806E-1   -1.543809638112868E-1   -4.405440596118887E-4    1.293777804585914E-4    2.117452599184895E-2    1.558032411069515E-2
