#  HZ   S   RI   R     50.00 
! Rohde & Schwarz Vector Network Analyzer 
! Rohde-Schwarz,ZNL20-2Port,1323001220101312,1.72.1.6-23.02.1.246
! Created: UTC 10/2/2024, 9:07:14 PM
! freq[Hz]                re:S11                  im:S11                  re:S21                  im:S21                  re:S12                  im:S12                  re:S22                  im:S22
 1.000000000000000E4     2.330650707356331E-2   -8.486065601642695E-2    1.002821510263871       6.060181349061936E-2    9.961392810922534E-1    6.627780882229063E-2    7.704749230597038E-3   -8.146497008474388E-2
 1.014629154715493E4     2.137964545920765E-2   -8.170118901627671E-2    1.002890599371876       5.937636338716941E-2    9.959073634422136E-1    6.529623298559839E-2    5.672383754227572E-3   -7.833489388103360E-2
 1.029472321598677E4     1.928545688350808E-2   -7.889171501486528E-2    1.002838731272400       5.815070674513843E-2    9.956994168361177E-1    6.441196785364764E-2    3.655185818900342E-3   -7.532487256872614E-2
 1.044532631466662E4     1.719533190396852E-2   -7.593998288699683E-2    1.002623750853020       5.723307212121509E-2    9.954917875912493E-1    6.359938042153508E-2    1.697547590735815E-3   -7.248975800246343E-2
 1.059813260937769E4     1.504110318609440E-2   -7.312034594882330E-2    1.002308220867182       5.645977770636326E-2    9.951915106804369E-1    6.292915793253209E-2   -3.147379115407689E-4   -6.970373368822494E-2
 1.075317433101560E4     1.289137144556807E-2   -7.044132083908203E-2    1.001956358431178       5.581030864681619E-2    9.949169041877272E-1    6.236031686078029E-2   -2.128682900992454E-3   -6.710940256636957E-2
 1.091048418198669E4     1.084914748875587E-2   -6.776943910977651E-2    1.001566732128341       5.547308032815774E-2    9.945568739709416E-1    6.196273893007332E-2   -4.054034590208214E-3   -6.454037250259778E-2
 1.107009534310592E4     8.860665804642356E-3   -6.499014376206963E-2    1.001158364116840       5.485979105183343E-2    9.942234084640911E-1    6.145410484817720E-2   -5.967788142373087E-3   -6.189228877673283E-2
 1.123204148059547E4     7.009761531691611E-3   -6.203658742294305E-2    1.000858564636203       5.397437977227308E-2    9.940626542374907E-1    6.077494884023779E-2   -7.739263973088946E-3   -5.907296947384869E-2
 1.139635675318595E4     5.254877594109406E-3   -5.925072242809581E-2    1.000582698870467       5.327352838678302E-2    9.937411114701847E-1    6.012479893496547E-2   -9.597584395708313E-3   -5.641757374214865E-2
 1.156307581932126E4     3.379712744535870E-3   -5.657420242905253E-2    1.000168787722197       5.259761065253125E-2    9.934113272310697E-1    5.965234530832916E-2   -1.136350401389272E-2   -5.375877917351840E-2
 1.173223384446908E4     1.567175312901833E-3   -5.386993141717067E-2    9.997849888163356E-1    5.219938232756730E-2    9.931046847419132E-1    5.930206525738897E-2   -1.308880090149982E-2   -5.130545884687054E-2
 1.190386650853819E4    -1.787188200989137E-4   -5.128329524664665E-2    9.992973114599909E-1    5.195190222412890E-2    9.927487173774620E-1    5.907006941965587E-2   -1.476959678902794E-2   -4.891328935795539E-2
 1.207801001340417E4    -1.957470203107450E-3   -4.860093871902404E-2    9.989141236731292E-1    5.147741616606394E-2    9.924506431599575E-1    5.859530575578142E-2   -1.644927070806612E-2   -4.639860780364954E-2
 1.225470109054552E4    -3.554042925030407E-3   -4.585945682574710E-2    9.986406962324385E-1    5.075564193924528E-2    9.921149399527266E-1    5.791014625887515E-2   -1.803456581066862E-2   -4.365775939794567E-2
 1.243397700879126E4    -5.209791980847429E-3   -4.306314794828559E-2    9.982001168416716E-1    5.021822825367851E-2    9.918492088383597E-1    5.745054454988748E-2   -1.957006110019591E-2   -4.102757321106928E-2
 1.261587558218175E4    -6.811906485047918E-3   -4.039428214051125E-2    9.977359701851367E-1    4.980156831185458E-2    9.914717026550386E-1    5.689065439962138E-2   -2.108862016802784E-2   -3.855382960794004E-2
 1.280043517794489E4    -8.475948219444251E-3   -3.784990295848714E-2    9.972800328319577E-1    4.948478375633902E-2    9.911257817254917E-1    5.655522745533467E-2   -2.263617918264904E-2   -3.610793090928743E-2
 1.298769472458868E4    -1.007389259269870E-2   -3.536891175351911E-2    9.968962836437525E-1    4.933849131923967E-2    9.908219045624802E-1    5.627126328244492E-2   -2.408391123808803E-2   -3.382466303079976E-2
 1.317769372011231E4    -1.153082228658098E-2   -3.269366971464144E-2    9.966015791324920E-1    4.855338319672485E-2    9.904970640924553E-1    5.573860806291953E-2   -2.551898899769656E-2   -3.117845050578449E-2
 1.337047224033721E4    -1.296555876658549E-2   -2.996812414865652E-2    9.962432679621520E-1    4.794615933947631E-2    9.901290973358909E-1    5.522424285669179E-2   -2.700095399768694E-2   -2.866040688059260E-2
 1.356607094736030E4    -1.448517445540792E-2   -2.734871300703481E-2    9.958130190439803E-1    4.747263513939404E-2    9.898019522498021E-1    5.481100042009514E-2   -2.833798684307789E-2   -2.629705196638096E-2
 1.376453109813061E4    -1.586684158682723E-2   -2.492939882604164E-2    9.955121843519564E-1    4.698521582325588E-2    9.895080642066116E-1    5.448025841983463E-2   -2.968157434968044E-2   -2.392517662404009E-2
 1.396589455315138E4    -1.735747364981495E-2   -2.250224117491545E-2    9.951126239371041E-1    4.671081495164256E-2    9.891736557554582E-1    5.425243665002405E-2   -3.102442603506272E-2   -2.168718513111720E-2
 1.417020378530968E4    -1.865411019173006E-2   -1.991069270007884E-2    9.947729576032810E-1    4.615438001508891E-2    9.888082289018334E-1    5.369985129246359E-2   -3.226477711919045E-2   -1.923523566300805E-2
 1.437750188883507E4    -1.992890933008819E-2   -1.739856818581254E-2    9.944444203311763E-1    4.558804216063260E-2    9.884304981664286E-1    5.309597503876640E-2   -3.351141275274397E-2   -1.682048633834135E-2
 1.458783258838913E4    -2.130871541774702E-2   -1.490361758034361E-2    9.939422078156048E-1    4.519832904323215E-2    9.879377053991683E-1    5.262314537531938E-2   -3.463557172185512E-2   -1.445827184162984E-2
 1.480124024828838E4    -2.253935240937925E-2   -1.256309102356395E-2    9.937304458673861E-1    4.488010932655180E-2    9.877014953236671E-1    5.234550922865570E-2   -3.578513348077962E-2   -1.215624118995887E-2
 1.501776988186177E4    -2.383008505567392E-2   -1.029402147583541E-2    9.933523974422582E-1    4.456648088961528E-2    9.873335536166320E-1    5.202862316519093E-2   -3.694482743067149E-2   -9.941194255207730E-3
 1.523746716094522E4    -2.498171819087918E-2   -7.706094367095129E-3    9.930081054243830E-1    4.404339142205972E-2    9.871615996007840E-1    5.149930771826954E-2   -3.806820537890846E-2   -7.596888517423239E-3
 1.546037842551493E4    -2.611005646276589E-2   -5.258675120856787E-3    9.926736072520981E-1    4.357462357520579E-2    9.869218724622498E-1    5.110401013474283E-2   -3.919990719607214E-2   -5.224308975185249E-3
 1.568655069346186E4    -2.725645230188489E-2   -2.880365446341376E-3    9.924059153057883E-1    4.318059908206077E-2    9.867463209703392E-1    5.067916971929253E-2   -4.029322861664580E-2   -3.053499512563784E-3
 1.591603167050896E4    -2.838738632983755E-2   -6.063575038512958E-4    9.921158718553227E-1    4.294900210493484E-2    9.865574912189750E-1    5.048653012116724E-2   -4.142013009419358E-2   -8.706215953996899E-4
 1.614886976027352E4    -2.950069682769616E-2    1.736442183900150E-3    9.917252410575079E-1    4.251689200121402E-2    9.861875007867799E-1    5.005353804376182E-2   -4.248489304816801E-2    1.363387538089483E-3
 1.638511407447690E4    -3.067190460791197E-2    4.009467397326771E-3    9.913664005998514E-1    4.199186249271064E-2    9.859514653175937E-1    4.950986336648733E-2   -4.343981403051845E-2    3.542292317545437E-3
 1.662481444330346E4    -3.175847253183138E-2    6.218683463219993E-3    9.910226676432187E-1    4.158056460289694E-2    9.855660098004098E-1    4.911278885142904E-2   -4.445338908572406E-2    5.754001293633071E-3
 1.686802142591090E4    -3.294310178212073E-2    8.354655024403135E-3    9.906183423668152E-1    4.127392217102999E-2    9.852703181158891E-1    4.876756562941707E-2   -4.543966711423426E-2    7.805516535089402E-3
 1.711478632109480E4    -3.398968356858977E-2    1.054783940307730E-2    9.902758602834806E-1    4.089268926687385E-2    9.850015243258621E-1    4.840070922784125E-2   -4.631589296210060E-2    9.872770272150111E-3
 1.736516117810873E4    -3.492234882840310E-2    1.284196060418796E-2    9.899075056084619E-1    4.050919331470776E-2    9.846567972984344E-1    4.803757569184484E-2   -4.723285890155696E-2    1.193930451518083E-2
 1.761919880764275E4    -3.587679389389170E-2    1.498901509544373E-2    9.895917121845942E-1    4.008369338811278E-2    9.843290663887986E-1    4.767526624037177E-2   -4.812055976366290E-2    1.392573072639700E-2
 1.787695279296278E4    -3.679985569354093E-2    1.703916453034296E-2    9.892548619847507E-1    3.978248880953010E-2    9.840131815391194E-1    4.747859003117853E-2   -4.897895586811786E-2    1.587708781621294E-2
 1.813847750121259E4    -3.769893692290371E-2    1.925023410850840E-2    9.889018924941125E-1    3.947928162861383E-2    9.836891933443316E-1    4.714433424176154E-2   -4.986969888069924E-2    1.789680469194263E-2
 1.840382809488136E4    -3.854978178965537E-2    2.144961831536141E-2    9.887724704582563E-1    3.905606647178339E-2    9.835888023194458E-1    4.673402285340167E-2   -5.071997231770805E-2    2.000955480785038E-2
 1.867306054343870E4    -3.933295128442938E-2    2.355802568892215E-2    9.886620304472418E-1    3.868621861121459E-2    9.833246355386092E-1    4.639747882911477E-2   -5.162594016049962E-2    2.206412317440817E-2
 1.894623163514043E4    -4.024251741633814E-2    2.561454437512140E-2    9.884102258941453E-1    3.841677952765191E-2    9.829846258673238E-1    4.607933730920703E-2   -5.244455621128211E-2    2.401376273755754E-2
 1.922339898900651E4    -4.105188376873652E-2    2.768435995272350E-2    9.881264599656037E-1    3.796233198374409E-2    9.828643103732283E-1    4.573434490937908E-2   -5.325250131688217E-2    2.598193437698551E-2
 1.950462106697433E4    -4.192420720994989E-2    2.967916007974750E-2    9.877432788449223E-1    3.748763464624286E-2    9.825876823703316E-1    4.543985759679572E-2   -5.397992590716626E-2    2.791686546150693E-2
 1.978995718623015E4    -4.270616856335073E-2    3.165707953169111E-2    9.874521057927176E-1    3.718270426159166E-2    9.822297433452205E-1    4.513210885311960E-2   -5.476946154334227E-2    2.974300759604553E-2
 2.007946753172049E4    -4.353092546939207E-2    3.361094035614748E-2    9.870469134775522E-1    3.690309627022768E-2    9.819201901760304E-1    4.485974168435158E-2   -5.548636576968854E-2    3.154095808127333E-2
 2.037321316884679E4    -4.425268600847262E-2    3.555489050697375E-2    9.867093243295499E-1    3.645214524792277E-2    9.816289699084932E-1    4.446393354309916E-2   -5.616245541487892E-2    3.346254431186724E-2
 2.067125605634556E4    -4.499274104063859E-2    3.748645259985611E-2    9.863786575004372E-1    3.610417445150378E-2    9.814123389860520E-1    4.415941455839051E-2   -5.676604430288285E-2    3.533184802458400E-2
 2.097365905935741E4    -4.576413351709778E-2    3.931641257001758E-2    9.860245656908361E-1    3.582634418650429E-2    9.810761655165959E-1    4.386965565648488E-2   -5.745191986032409E-2    3.707485393771606E-2
 2.128048596268678E4    -4.642428165529439E-2    4.129334531620646E-2    9.857756590849452E-1    3.543250158004067E-2    9.808689029268878E-1    4.359215518879248E-2   -5.803476931695293E-2    3.893444498673052E-2
 2.159180148425580E4    -4.714152074573598E-2    4.321416691559965E-2    9.855034248692678E-1    3.502538862927606E-2    9.806406921532674E-1    4.331227436624632E-2   -5.864420063626567E-2    4.070025683478190E-2
 2.190767128875518E4    -4.779947378561347E-2    4.505197113429110E-2    9.852880889308241E-1    3.472488659038814E-2    9.803498212354336E-1    4.308753261099214E-2   -5.934555539638131E-2    4.237840791035463E-2
 2.222816200149459E4    -4.842576056718177E-2    4.685653924485927E-2    9.850261487347034E-1    3.438745286887551E-2    9.801060442288344E-1    4.277799255241303E-2   -5.990058689474891E-2    4.416200520214636E-2
 2.255334122245549E4    -4.905549047691041E-2    4.865408892070530E-2    9.847545573311299E-1    3.405736249272900E-2    9.798145090975128E-1    4.244399480381487E-2   -6.048926325435314E-2    4.591755414484752E-2
 2.288327754055009E4    -4.968977659335984E-2    5.036849846618563E-2    9.844640430844910E-1    3.385115866324857E-2    9.795068321538126E-1    4.216383935176085E-2   -6.110237194489410E-2    4.757385385776625E-2
 2.321804054808841E4    -5.025878453250961E-2    5.209398945167326E-2    9.842268559126076E-1    3.350872016640021E-2    9.793216211394803E-1    4.186198478272714E-2   -6.160271900857441E-2    4.927569637938167E-2
 2.355770085545698E4    -5.091108095407157E-2    5.384021896658467E-2    9.838801248726412E-1    3.312586987690794E-2    9.791045326339175E-1    4.155423346387033E-2   -6.213724817928768E-2    5.092105457166571E-2
 2.390233010601275E4    -5.144585946083283E-2    5.548379881637105E-2    9.836467077738889E-1    3.285098555504509E-2    9.788312916225576E-1    4.126443613298407E-2   -6.274173190524383E-2    5.250337875183186E-2
 2.425200099119439E4    -5.199061978381626E-2    5.724668355158899E-2    9.833331441033135E-1    3.246845845977128E-2    9.786104671949500E-1    4.091096834616637E-2   -6.318823671715244E-2    5.410532328025747E-2
 2.460678726585491E4    -5.254631891897332E-2    5.896963025459129E-2    9.829813371256905E-1    3.210762411511416E-2    9.782922774878670E-1    4.062865696120206E-2   -6.364324869106731E-2    5.570596430917726E-2
 2.496676376381832E4    -5.308990863967423E-2    6.063748501997035E-2    9.826149593751163E-1    3.179705125732853E-2    9.779583902794395E-1    4.034791733705922E-2   -6.413004988723682E-2    5.723665213533741E-2
 2.533200641366437E4    -5.365270766163209E-2    6.230390463529573E-2    9.824455696754105E-1    3.149327614571082E-2    9.777496574264869E-1    4.008019458832800E-2   -6.460146466627475E-2    5.875940935797663E-2
 2.570259225474378E4    -5.423491357608002E-2    6.394780357337229E-2    9.822708031814481E-1    3.128439317093409E-2    9.775572916933473E-1    3.978900372377503E-2   -6.505633481571321E-2    6.031560165531447E-2
 2.607859945342765E4    -5.476357485436141E-2    6.550043487180218E-2    9.820612535049237E-1    3.103505536110818E-2    9.772856365339129E-1    3.958801771387859E-2   -6.555193866482587E-2    6.181239537768038E-2
 2.646010731959520E4    -5.520799586481780E-2    6.706451384719100E-2    9.816801435474678E-1    3.066771818540454E-2    9.770002513083776E-1    3.925955258928805E-2   -6.593170398762652E-2    6.333594421697655E-2
 2.684719632336216E4    -5.567138456459999E-2    6.854960977476829E-2    9.812730742207518E-1    3.035926697067975E-2    9.767532545317541E-1    3.899857100836446E-2   -6.628160314844453E-2    6.477373440637457E-2
 2.723994811205383E4    -5.611200415244254E-2    7.005020161284789E-2    9.809539982069424E-1    3.004965034420664E-2    9.765255019627831E-1    3.881662985341473E-2   -6.675165421334205E-2    6.622809087483994E-2
 2.763844552742707E4    -5.650908978056040E-2    7.156444512309335E-2    9.806923361256900E-1    2.979425321131321E-2    9.762578171636482E-1    3.839371901684323E-2   -6.723044639372171E-2    6.758046653425172E-2
 2.804277262314357E4    -5.698492016517054E-2    7.307199859564933E-2    9.803945951670562E-1    2.959624291538811E-2    9.760324834476578E-1    3.818620877346846E-2   -6.769024661517896E-2    6.895129934351135E-2
 2.845301468249892E4    -5.745398386197763E-2    7.457475868864646E-2    9.802074554103284E-1    2.930876475948722E-2    9.758250845770745E-1    3.790399311157133E-2   -6.802433171727795E-2    7.042035131898125E-2
 2.886925823641139E4    -5.793409353660865E-2    7.601335885388852E-2    9.800227354587523E-1    2.904113351759130E-2    9.755901276909910E-1    3.760491838361574E-2   -6.835664226172704E-2    7.181004894232136E-2
 2.929159108167336E4    -5.832032271912585E-2    7.747399599272194E-2    9.797632957887102E-1    2.875349967062601E-2    9.753462828636743E-1    3.737847481268381E-2   -6.870910089109790E-2    7.319809482342743E-2
 2.972010229947017E4    -5.866326537202368E-2    7.885812189395253E-2    9.794046477648750E-1    2.846662349454728E-2    9.750006319239533E-1    3.714679964122290E-2   -6.911002433455425E-2    7.451161532374831E-2
 3.015488227416939E4    -5.910648929530864E-2    8.025761881236189E-2    9.791244087727282E-1    2.820646032756401E-2    9.747880428673249E-1    3.694312225185235E-2   -6.947660587024694E-2    7.582369326436486E-2
 3.059602271238568E4    -5.947147852001915E-2    8.163617445666788E-2    9.789888450137159E-1    2.795611495539225E-2    9.746609229104241E-1    3.678945499719559E-2   -6.984775202571852E-2    7.720001853311732E-2
 3.104361666232397E4    -5.986060504543404E-2    8.297071484732689E-2    9.788176830136517E-1    2.774409171550147E-2    9.744880782485114E-1    3.659140534906315E-2   -7.022834836910075E-2    7.847289869318251E-2
 3.149775853340555E4    -6.024281958247685E-2    8.431363630709526E-2    9.784688394420085E-1    2.745855635265235E-2    9.742543570288443E-1    3.631110128313263E-2   -7.053345178825639E-2    7.972549706648810E-2
 3.195854411618198E4    -6.070039973796318E-2    8.566831051847380E-2    9.780614808341695E-1    2.728233052337580E-2    9.740546856174501E-1    3.607334699722113E-2   -7.082741603480774E-2    8.094170350031370E-2
 3.242607060253950E4    -6.104620452069821E-2    8.694823291777018E-2    9.777333297923685E-1    2.698623295356245E-2    9.737607801538649E-1    3.579105963344007E-2   -7.108704110389974E-2    8.212396309226981E-2
 3.290043660619961E4    -6.143423924656446E-2    8.822374861719674E-2    9.773699643623768E-1    2.681523097687229E-2    9.733916332700892E-1    3.559123612554341E-2   -7.142183364398956E-2    8.328564806702597E-2
 3.338174218351897E4    -6.172236459240776E-2    8.948006833446359E-2    9.771463452064550E-1    2.647299163745232E-2    9.732076429226971E-1    3.533201952361480E-2   -7.167712027690575E-2    8.454454342802942E-2
 3.387008885459435E4    -6.202570110169161E-2    9.074310196327598E-2    9.769334016540011E-1    2.618418517030460E-2    9.730131038533758E-1    3.505990276225433E-2   -7.198205251253760E-2    8.573975540706594E-2
 3.436557962467577E4    -6.235479579263373E-2    9.196642455992941E-2    9.766654772080133E-1    2.590911906531993E-2    9.728242959858453E-1    3.482963181392870E-2   -7.221454340208792E-2    8.690233156037244E-2
 3.486831900589274E4    -6.265302718492531E-2    9.317086721833887E-2    9.764564191808832E-1    2.566526708341529E-2    9.726419793229494E-1    3.465252066432060E-2   -7.245734741220018E-2    8.801343356228783E-2
 3.537841303929910E4    -6.297093912662337E-2    9.436637612321960E-2    9.761999699520503E-1    2.540670166232326E-2    9.724442692912443E-1    3.445687839493160E-2   -7.273175655059806E-2    8.918068160791906E-2
 3.589596931723969E4    -6.330751247617861E-2    9.555363872962694E-2    9.759578713658326E-1    2.517146237848236E-2    9.722727732433648E-1    3.426140999825987E-2   -7.302101438660395E-2    9.033764387053206E-2
 3.642109700604417E4    -6.360729108100301E-2    9.673298160353440E-2    9.756379827909514E-1    2.493692333704324E-2    9.720203806474502E-1    3.395841946249584E-2   -7.332516226209179E-2    9.142736148854567E-2
 3.695390686905356E4    -6.389773615498902E-2    9.787118797904944E-2    9.752986452927592E-1    2.468466973578876E-2    9.718541605036223E-1    3.367231881457529E-2   -7.352175854428708E-2    9.246331440614089E-2
