# HZ S RI R 50
50000 0.9959448145415788 -0.035198810885694785 0.013558478257326395 -0.2150604917509033 0 0 0 0
149020 0.9802935213932175 -0.08990419259117101 0.14486771992609485 -0.13897874254104028 0 0 0 0
248040 0.9525926286805954 -0.13977844065556833 0.0362709292421132 -0.041376080336494474 0 0 0 0
347060 0.9168460704168041 -0.1767327119711446 -0.02580987199082083 0.04796306312386931 0 0 0 0
446080 0.8828014217285425 -0.20215570336560987 -0.0024844216048796985 -0.008761071579189723 0 0 0 0
545100 0.8515904518264008 -0.2207714204027245 0.0016450260837870395 -0.001783857937495641 0 0 0 0
644120 0.8226663553076847 -0.23144435222000034 0.0004617919721484179 0.00031611446685819765 0 0 0 0
743140 0.7973671925595833 -0.23902760008785343 0.0028124253382153692 -0.002234824967050948 0 0 0 0
842160 0.7767636664134767 -0.2449105107745229 0.0005075023159141487 0.0007547736068425194 0 0 0 0
941180 0.7585475957929728 -0.24922906393778224 0.00021412028534779058 0.00040985771119150653 0 0 0 0
1040200 0.7427842367584776 -0.2532863945087573 -0.00025018099525617296 -0.000397444163438815 0 0 0 0
1139220 0.728939186848674 -0.2563592153233394 0.0014215608363046957 0.00012539965271419164 0 0 0 0
1238240 0.7163698030119034 -0.26046129060811474 0.00019928190811663155 0.0003705668476096662 0 0 0 0
1337260 0.705224350010094 -0.2644742635140215 0.0002574853219583233 0.0008301657257010835 0 0 0 0
1436280 0.6955204307101012 -0.26904903013088777 0.0004742370560145889 0.000759006313461876 0 0 0 0
1535300 0.6866942125399044 -0.2742009230442023 0.00037538475599433385 0.0003137605159011933 0 0 0 0
1634320 0.6780559817342379 -0.27972482361977064 0.00018647522991733964 0.0009833619620596647 0 0 0 0
1733340 0.6699280861757316 -0.2855457280653444 0.00022793555343242602 0.000279865218471947 0 0 0 0
1832360 0.6621569305116961 -0.29207845493556694 -5.280531535114668e-05 0.0002457058667743597 0 0 0 0
1931380 0.6546772201903122 -0.2986665099328691 0.00043491280287075965 0.0006960710502680874 0 0 0 0
2030400 0.6465537078624666 -0.30598743142267254 8.735815194231156e-05 0.00048572858590650614 0 0 0 0
2129420 0.6386330567099991 -0.31380905157003763 -4.9705607699986e-05 0.00036931831378649797 0 0 0 0
2228440 0.630732233971813 -0.32122348997271166 -2.4357965874512736e-05 0.000681263559865086 0 0 0 0
2327460 0.6233753309561284 -0.32971486613084194 -0.00037087753247736584 0.000475151380100315 0 0 0 0
2426480 0.6144397852192542 -0.33841752511600104 -0.0002692572385262022 0.0005756407430253798 0 0 0 0
2525500 0.60583482239266 -0.3479705756262141 -0.00035497137222547656 0.0005356395631707522 0 0 0 0
2624520 0.5976703711065456 -0.35812080347435765 -0.00019077209321315602 0.0007111023739291709 0 0 0 0
2723540 0.5875279901253513 -0.36862849829748456 -0.000252662039994756 0.0006649482985106722 0 0 0 0
2822560 0.577814432827422 -0.3784297109481275 -0.00031663784713481085 0.0007909914438751741 0 0 0 0
2921580 0.5668297613705152 -0.38867619223447786 -0.0004891226255661504 0.0009310172969845046 0 0 0 0
3020600 0.5552169661342097 -0.40003085994254245 -0.0005467906206403259 0.0006488597772211062 0 0 0 0
3119620 0.5429249842565783 -0.4115849665298794 -0.0005222166524461622 0.0007572733589212405 0 0 0 0
3218640 0.5297013623809907 -0.42313472741552166 -0.0004957088614022269 0.0008313422880981747 0 0 0 0
3317660 0.515106800854948 -0.43474423214800706 -0.0005519745346161169 0.0010845787024386213 0 0 0 0
3416680 0.5001704976657599 -0.4470731243257559 -0.0007246708867130257 0.0010139819375639693 0 0 0 0
3515700 0.48375423975281007 -0.4590139343000017 -0.0006037730829850206 0.0010693223893769664 0 0 0 0
3614720 0.46487323262903446 -0.4705592590423384 -0.000655060714503258 0.001074272059934084 0 0 0 0
3713740 0.4453930373346209 -0.4817946660470397 -0.0007671916314937627 0.0011431105924213868 0 0 0 0
3812760 0.4239623029775418 -0.4925915955222712 -0.0008758829625190717 0.0013702290014983229 0 0 0 0
3911780 0.4008285444387559 -0.5032469361703803 -0.0009760457858098973 0.0011946092329565576 0 0 0 0
4010800 0.37659988881414797 -0.5135757810030233 -0.0010357798084536028 0.0014093816217637732 0 0 0 0
4109820 0.34944456426677856 -0.522269329261111 -0.0010795973710291562 0.0015307176356095268 0 0 0 0
4208840 0.32104456820126126 -0.5302905740932172 -0.0011724474251804907 0.001626191336112636 0 0 0 0
4307860 0.290618762740362 -0.5362849230364103 -0.0011547311860226302 0.0016778050572529312 0 0 0 0
4406880 0.25831129211622816 -0.5404154129169344 -0.001215224168843962 0.0017726748215483176 0 0 0 0
4505900 0.22398380722385158 -0.542563618751392 -0.001421080268403759 0.001873318171410955 0 0 0 0
4604920 0.18779444561679978 -0.5419782728468283 -0.001206963510258529 0.0021211421947749764 0 0 0 0
4703940 0.15049219254050414 -0.538327545913818 -0.0013131134994325967 0.002252104425179191 0 0 0 0
4802960 0.11110069761095034 -0.531163527038107 -0.0014385205263183207 0.0023548631651542926 0 0 0 0
4901980 0.07200615087756898 -0.5205651321610731 -0.001430438385473389 0.002573840449530803 0 0 0 0
5001000 0.032007338835089244 -0.5049619868564413 -0.00157656717515367 0.0026896346213780417 0 0 0 0
5100020 -0.008124951075360628 -0.4853840348683336 -0.0015837441421236908 0.0028056152693350855 0 0 0 0
5199040 -0.046030148740735605 -0.46184385042525017 -0.0014712738790189448 0.0030744509315848295 0 0 0 0
5298060 -0.08247598284883648 -0.43251699706164853 -0.0013813124745461623 0.0032832697370431883 0 0 0 0
5397080 -0.11666845366894063 -0.39892888095096135 -0.0013656357831730132 0.003417995351629632 0 0 0 0
5496100 -0.14740385223678396 -0.3614661291787508 -0.0012920950409906077 0.003668418277567742 0 0 0 0
5595120 -0.1746373962331997 -0.3200177092453962 -0.0012916645217044052 0.0037747677669672463 0 0 0 0
5694140 -0.19727344669214106 -0.2754846622795047 -0.0011113201174804356 0.004112390105872845 0 0 0 0
5793160 -0.2146957262668838 -0.2290511675964046 -0.001027175404483652 0.0042300028208154886 0 0 0 0
5892180 -0.22613017568906335 -0.18021409700110538 -0.0009149798123240691 0.004274623565601626 0 0 0 0
5991200 -0.2326486096884822 -0.13151016287502246 -0.0007706969487226771 0.0043731084236697665 0 0 0 0
6090220 -0.23321767370722485 -0.08274505843432081 -0.000601817348723187 0.004501552459749074 0 0 0 0
6189240 -0.22880391628363608 -0.034739892948495096 -0.0005171151445362168 0.004648186172214904 0 0 0 0
6288260 -0.21938975952250364 0.010696474879835549 -0.0003132831589586785 0.004645289785864934 0 0 0 0
6387280 -0.2059585637833542 0.054914223098730335 -0.00016356899115610454 0.004779354129129477 0 0 0 0
6486300 -0.18895097360869395 0.09504387233959088 -9.538366336500822e-05 0.004804384262047991 0 0 0 0
6585320 -0.1682377202942655 0.1325487724637049 0.00012664722917658382 0.004896577134527992 0 0 0 0
6684340 -0.14529543364506192 0.16580562957942277 0.000322307058231762 0.004857579147147661 0 0 0 0
6783360 -0.12057565352060902 0.1963128525327506 0.0004191229561302467 0.004812240697343218 0 0 0 0
6882380 -0.09481732735915027 0.2225032335342052 0.0005927250934423897 0.004813794661841812 0 0 0 0
6981400 -0.06861587334364883 0.24538654328799708 0.0007144423870422217 0.004826024547914231 0 0 0 0
7080420 -0.04230247488449219 0.26557088799044226 0.0008187879203941869 0.0048038830942630185 0 0 0 0
7179440 -0.016107489989126814 0.28252006217784437 0.0008713185261771498 0.004823169565955807 0 0 0 0
7278460 0.010773639830630878 0.2967232710918349 0.0009832996488630908 0.00481134220849213 0 0 0 0
7377480 0.03613405329012453 0.30846063687075187 0.001118738058516561 0.004767024500712168 0 0 0 0
7476500 0.06062744499033371 0.3174038078787215 0.001223809914901715 0.004727620857416881 0 0 0 0
7575520 0.08443890191855917 0.32469660370462117 0.0012232875693196235 0.004785685584675005 0 0 0 0
7674540 0.10719047006670333 0.3306210234027293 0.0013283029842702462 0.004747984361081151 0 0 0 0
7773560 0.1284934162103801 0.33508449915261596 0.001250783776668164 0.004584607886208453 0 0 0 0
7872580 0.14937906087329736 0.33771517940263723 0.0013458937366193845 0.004553880279341471 0 0 0 0
7971600 0.16900080898204659 0.33958025816408227 0.001472605231693015 0.004559032629053516 0 0 0 0
8070620 0.1872156058598599 0.3406213845449517 0.0015195952041734831 0.004490564057766212 0 0 0 0
8169640 0.2050697266867452 0.34042860895563815 0.0014335143937633122 0.004544904557173233 0 0 0 0
8268660 0.2215221208835013 0.3395505188805171 0.0015060699133960815 0.004389875661687049 0 0 0 0
8367680 0.23710333843151082 0.338088590291814 0.0015652316898903257 0.004355689557928947 0 0 0 0
8466700 0.25172146921552807 0.3362147027212834 0.0015365762399182476 0.004476937565021715 0 0 0 0
8565720 0.26626517975409597 0.33461673545204607 0.0015815131942989423 0.00444105699580825 0 0 0 0
8664740 0.27930428405763547 0.33149635572008035 0.00162753998609381 0.0044098695065197336 0 0 0 0
8763760 0.29152418747212083 0.3284304970352265 0.0016429145251468191 0.004405161257472192 0 0 0 0
8862780 0.30361703064800516 0.3256183478578055 0.0017797113960039133 0.004347618086361759 0 0 0 0
8961800 0.314139464979889 0.32187774270814945 0.0017347589096268097 0.004440961276497781 0 0 0 0
9060820 0.3247746754289466 0.31840076304188597 0.0017646557626920922 0.00434651223656851 0 0 0 0
9159840 0.33451688576440247 0.3148483144283545 0.0017219480229976488 0.0043553662962326775 0 0 0 0
9258860 0.34402971088351575 0.31134865251344107 0.0017507140863999423 0.004359241093000316 0 0 0 0
9357880 0.3530305759186099 0.3080914952791008 0.0016584783799653924 0.004294422055298242 0 0 0 0
9456900 0.3613707065024011 0.30384069078619186 0.0017655487991698681 0.004292714360916577 0 0 0 0
9555920 0.3696229347102318 0.29974644715495474 0.0018051340964039266 0.0042265632901520205 0 0 0 0
9654940 0.37721686095063606 0.29568588388806266 0.001761130409190071 0.00434036930222697 0 0 0 0
9753960 0.38458583903550286 0.2920881036960567 0.0017860199376493755 0.004307858411370352 0 0 0 0
9852980 0.39059539630272994 0.2880481082590611 0.0017680545233159616 0.004292824066753057 0 0 0 0
9952000 0.39741379604713184 0.2845966392618749 -0.012907486327685774 0.011864591834359842 0 0 0 0
10051020 0.40359678032050555 0.280428148360212 0.001779592966061309 0.004305458218002631 0 0 0 0
10150040 0.40932512060335663 0.27690016517761956 0.0017478971528232694 0.004356118874220449 0 0 0 0
10249060 0.4150331042592769 0.2729261151748747 0.0017015793115604627 0.004333050803222983 0 0 0 0
10348080 0.4205039407155933 0.269518128329192 0.0017538287921698293 0.004360085507721297 0 0 0 0
10447100 0.4255771144884317 0.265629538544261 0.0017473335203490403 0.0043597693169022105 0 0 0 0
10546120 0.4304404902179993 0.2618433973395118 0.0017156515123143228 0.004344707272846543 0 0 0 0
10645140 0.4349689762818739 0.258606506683484 0.0017469795677529203 0.004350639204045526 0 0 0 0
10744160 0.43910687739582926 0.25482266617900484 0.001634260126789413 0.004323443023305498 0 0 0 0
10843180 0.4433300810366434 0.25151550725726624 0.0017311492245572037 0.004379883035599005 0 0 0 0
10942200 0.44731922989278805 0.24736079245154546 0.0017231212762147505 0.0043424283752865 0 0 0 0
11041220 0.4513747389518039 0.24488812286125938 0.00172688523086348 0.00441749982947022 0 0 0 0
11140240 0.4549173299524483 0.24154656505907046 0.0017363091050010225 0.004384182724859326 0 0 0 0
11239260 0.45888049209268006 0.23798036414655876 0.0017213470505566763 0.00432637216050666 0 0 0 0
11338280 0.4623250641265166 0.23439443267362214 0.0017111929574451076 0.004340564386713238 0 0 0 0
11437300 0.4653218570034662 0.2319178896451015 0.0016639756859433814 0.004443254679297331 0 0 0 0
11536320 0.4686080191413057 0.2279173479126017 0.0018115850280986173 0.004449588325294976 0 0 0 0
11635340 0.47146677817925664 0.224882767807693 0.0017299689983481265 0.004440237121397404 0 0 0 0
11734360 0.4746174882412727 0.2220818702415319 0.0017846993466063155 0.0044372616254861694 0 0 0 0
11833380 0.47701033787141267 0.21926211584655336 0.0017494330494224703 0.00442938188372948 0 0 0 0
11932400 0.4798752992252755 0.216232007074395 0.0017583806556869179 0.004539443167343005 0 0 0 0
12031420 0.4824934874465044 0.21322748820109377 0.0016881098669695252 0.004480888645313663 0 0 0 0
12130440 0.48500343368704824 0.2105605293828431 0.001729219038018397 0.004515813616432245 0 0 0 0
12229460 0.4869284849525836 0.20831433699128454 0.0017310530957441676 0.004541665886806763 0 0 0 0
12328480 0.489389918030788 0.20466760519889432 0.0016962170959401645 0.004576800523187721 0 0 0 0
12427500 0.4919426951256541 0.201818098541219 0.0017087237466220536 0.004640172917533309 0 0 0 0
12526520 0.49431944457379684 0.19959673867160102 0.0016600089913305905 0.004651317646550886 0 0 0 0
12625540 0.49617236836886186 0.19687995573622957 0.0016430694843294698 0.004528356498834784 0 0 0 0
12724560 0.4981426035702077 0.1944549759899187 0.0017384181546975888 0.004638378865723174 0 0 0 0
12823580 0.5001627762736638 0.1917983492724508 0.0017439617465257792 0.004662186756419371 0 0 0 0
12922600 0.5021553208042248 0.18954989727940125 0.0017093840946418159 0.004706406740937049 0 0 0 0
13021620 0.5037095059446677 0.1871314481436661 0.0017222155566537032 0.004673382953257566 0 0 0 0
13120640 0.5055870772829087 0.18479912930571674 0.0017439886258608073 0.00474823972496225 0 0 0 0
13219660 0.506948840295507 0.1819677515735101 0.0016694355971713037 0.00472864740637813 0 0 0 0
13318680 0.508777004955466 0.17946330825061044 0.0016864850022947852 0.004787186215140542 0 0 0 0
13417700 0.5099454451002016 0.1779745522506841 0.0017215971321817107 0.004800003441281556 0 0 0 0
13516720 0.5119878275350088 0.17495523422488446 0.0017378557904456828 0.004790524978159718 0 0 0 0
13615740 0.5131435720533554 0.17337329866028878 0.001620143165426565 0.004764436025107044 0 0 0 0
13714760 0.5148721104198671 0.17047070836960335 0.0017257133004407801 0.00484391142156343 0 0 0 0
13813780 0.5160172158027583 0.16861977958066632 0.00175469442935262 0.004891535044252156 0 0 0 0
13912800 0.517513382876672 0.16614563135241117 0.0017264078008120784 0.0048484440538082586 0 0 0 0
14011820 0.5189691078406062 0.16411687868330685 0.0017097799161884043 0.004845083713696977 0 0 0 0
14110840 0.5202405347867101 0.1621970617317293 0.0016972306287218564 0.004913277489699468 0 0 0 0
14209860 0.5215976267357448 0.16052846419905628 0.001627242318788944 0.00502102817527666 0 0 0 0
14308880 0.5225075112942242 0.15817684625767603 0.0016344563858828797 0.0049574355791120305 0 0 0 0
14407900 0.5236642368123839 0.15660575863921822 0.0016384104637559278 0.0049293244303342445 0 0 0 0
14506920 0.5248777923117883 0.15423474507902862 0.0016848380078897801 0.00493673025775572 0 0 0 0
14605940 0.5259945104463063 0.15246394662143858 0.0015878535617378337 0.0049655421308534295 0 0 0 0
14704960 0.5271734432700006 0.1505833429099078 0.001568263859790781 0.005026685921502141 0 0 0 0
14803980 0.5279636723049996 0.1491970501170609 0.001601814678061888 0.005053916832187602 0 0 0 0
14903000 0.5291368859998858 0.1470126257040704 0.0015810534879714684 0.005059462173279674 0 0 0 0
15002020 0.5302478200143299 0.14504140528342888 0.0016017546239510412 0.005060274948799489 0 0 0 0
15101040 0.5306817243891161 0.14307818568862057 0.0016473488452649287 0.005124863045988704 0 0 0 0
15200060 0.532086532199885 0.14126961390654746 0.0016761782234106719 0.005059640443504072 0 0 0 0
15299080 0.5329994477958941 0.1396145676188239 0.0016274309395660645 0.0051349212331095314 0 0 0 0
15398100 0.534060918997666 0.13805462678060446 0.0016862716286397122 0.005219862591547425 0 0 0 0
15497120 0.5349429614869256 0.1363786620158297 0.001635040591979962 0.005202192537433312 0 0 0 0
15596140 0.5348111674348377 0.1343992205736912 0.0015538761883067004 0.005218620736361072 0 0 0 0
15695160 0.5362326420686534 0.13291376393249468 0.001588148459648094 0.005256820865980741 0 0 0 0
15794180 0.5375199935622379 0.13075153147891858 0.001613992521388441 0.005375334118977894 0 0 0 0
15893200 0.5385306207658427 0.1296319204248711 0.0016233119762894665 0.005290300957058752 0 0 0 0
15992220 0.5388157880800027 0.1282325267634548 0.0016205649800304727 0.0053357836514894555 0 0 0 0
16091240 0.5397170044608379 0.12656842936523305 0.00163457414115738 0.005385677624723723 0 0 0 0
16190260 0.5400716194810723 0.12501931603951885 0.0015986153820225894 0.005373387746384223 0 0 0 0
16289280 0.5406854375719317 0.12326577555444501 0.0015870455294415703 0.00538659527321952 0 0 0 0
16388300 0.5416042959102209 0.12158414438115171 0.0016261625494684332 0.005396735933456732 0 0 0 0
16487320 0.5419608849592794 0.12021266366472388 0.0015685943966690715 0.005415487764998954 0 0 0 0
16586340 0.5425480588762169 0.11873919612248587 0.0015250605085027633 0.005455251858520838 0 0 0 0
16685360 0.5432005631874549 0.11747510671478299 0.0015942821145962258 0.0054667452766832105 0 0 0 0
16784380 0.5438760801138949 0.1156316339544783 0.0015892675394188877 0.005487287729030088 0 0 0 0
16883400 0.5445153336958178 0.11452440128787687 0.0015792479054832038 0.005495597093305123 0 0 0 0
16982420 0.5452286916870396 0.11264771091789623 0.0015471487664733168 0.005574054707105873 0 0 0 0
17081440 0.5457588381618501 0.11161204512783707 0.001580373657160753 0.005550890625455032 0 0 0 0
17180460 0.5465019030129972 0.11018368845608098 0.0014991245258325209 0.005672236275411144 0 0 0 0
17279480 0.5471596231113829 0.10873293386436075 0.0015938606606603393 0.005608235886846838 0 0 0 0
17378500 0.5473654539575994 0.1073722318890839 0.0016076905197725555 0.005593325062435987 0 0 0 0
17477520 0.5478031660877212 0.10606879913266187 0.0015231409533014717 0.0056037641761432395 0 0 0 0
17576540 0.5483097441737576 0.10478427454952573 0.0015856331924383996 0.00570166309233825 0 0 0 0
17675560 0.5489400743355259 0.10355765296508343 0.0015598810919499593 0.005726776138292701 0 0 0 0
17774580 0.5491679986629414 0.10205070736651785 0.0015646840165650959 0.005802320566097074 0 0 0 0
17873600 0.5501661613995439 0.10058649999172253 0.0015271511503722412 0.005818726369950301 0 0 0 0
17972620 0.5506920456956248 0.09971149487631445 0.0015613672130781716 0.005786672280535557 0 0 0 0
18071640 0.5510422635629116 0.09835122710740805 0.001568111575194877 0.005797445112545061 0 0 0 0
18170660 0.5512999726121366 0.09718682917915862 0.0014879420170938874 0.0058674494901604845 0 0 0 0
18269680 0.551646578619592 0.09515090080451488 0.0015959906553749174 0.005904986312557982 0 0 0 0
18368700 0.5519340209152713 0.09413216970747529 0.0015116276190424997 0.0058949097006662675 0 0 0 0
18467720 0.5521949223767353 0.09331618122443586 0.001519508766128921 0.005910581497928843 0 0 0 0
18566740 0.552745424257645 0.09211316143470832 0.001544528802760344 0.005924559615611954 0 0 0 0
18665760 0.5533320050896935 0.0905031463633009 0.0015394362094626295 0.005960035411056373 0 0 0 0
18764780 0.5545123687525896 0.08949507498225898 0.0014749630971374478 0.006001464512554633 0 0 0 0
18863800 0.5541975349790607 0.08882410405973788 0.0014682037461496023 0.005986611889104412 0 0 0 0
18962820 0.5551324692345557 0.0872093605637956 0.001515213192209351 0.0059984371958968176 0 0 0 0
19061840 0.5548227170758069 0.08590643881134967 0.0014814907205372544 0.006072868059545165 0 0 0 0
19160860 0.5553212104376108 0.08528623463288182 0.0014970730444046501 0.006131670698014187 0 0 0 0
19259880 0.5559892912698502 0.0837533018325077 0.001415888158550487 0.006110993355618596 0 0 0 0
19358900 0.5565417525588298 0.08218687522349255 0.0015172258021419612 0.006133211564644184 0 0 0 0
19457920 0.5569065106815906 0.08140981279970987 0.0015440103383648042 0.006135700796383818 0 0 0 0
19556940 0.5566545965658695 0.08041762716153956 0.0015339157941984822 0.006151732412443515 0 0 0 0
19655960 0.557461264619922 0.0793036076534114 0.001526088858531666 0.006178032506695322 0 0 0 0
