#  HZ   S   RI   R     50.00 
! Rohde & Schwarz Vector Network Analyzer 
! Rohde-Schwarz,ZNL20-2Port,1323001220101312,1.72.1.6-23.02.1.246
! Created: UTC 11/11/2024, 8:46:40 PM
! freq[Hz]                re:S11                  im:S11                  re:S21                  im:S21                  re:S12                  im:S12                  re:S22                  im:S22
 3.900000000000000E6     1.026678627506171      -7.622653707767097E-3    1.304769288275908E-1   -2.987994852949361E-3   -7.789724296423296E-6    1.023291230569612E-5    5.647494816228255E-3    1.301754659331591E-3
 7.800000000000000E6     1.013884306820589      -1.192057664287261E-2    1.287425286665502E-1   -5.028225641928317E-3   -5.106337028640494E-6    9.182394746309211E-6    5.683752336315613E-4    3.048728415084935E-3
 1.170000000000000E7     1.007505658625794      -1.953102582514872E-2    1.277629603549104E-1   -6.611111307928107E-3   -2.919655316637266E-6    1.291808290473656E-5   -2.062344249418049E-3    3.826862001055432E-3
 1.560000000000000E7     1.002834253379272      -2.662998495640217E-2    1.274827331834922E-1   -7.940046457052635E-3   -3.551875149517258E-6    1.568035546335340E-5   -3.405845578794705E-3    4.135664020708699E-3
 1.950000000000000E7     9.990062344688025E-1   -3.388012895497206E-2    1.274438400575316E-1   -9.280442359151465E-3   -1.030342057398404E-5    1.595442428855066E-5   -4.513137192405816E-3    4.306138326057193E-3
 2.340000000000000E7     9.956884523746690E-1   -4.104750528714313E-2    1.278821429066830E-1   -1.065438929983544E-2   -1.255466068561577E-5    1.771050238081195E-5   -5.514728462629464E-3    4.305658733871042E-3
 2.730000000000000E7     9.924978346346972E-1   -4.834930160803021E-2    1.282211437373188E-1   -1.215600571970918E-2   -3.135723720820767E-5    2.357182808932924E-5   -6.386422794674449E-3    4.261406064856819E-3
 3.120000000000000E7     9.894031314177151E-1   -5.604335111375694E-2    1.284011196338957E-1   -1.375000829929638E-2   -3.376867850553501E-5    3.167185253853879E-5   -7.239437908389345E-3    4.111717368015371E-3
 3.510000000000000E7     9.869701804717975E-1   -6.408558993640280E-2    1.287342247410809E-1   -1.556248716498980E-2   -3.501817786971728E-5    3.926836258694660E-5   -7.907164897692500E-3    3.695144483519974E-3
 3.900000000000000E7     9.849256294502778E-1   -7.242517529271457E-2    1.287348690564233E-1   -1.755118474995242E-2   -4.722766253937516E-5    4.445812086611009E-5   -8.416205196919701E-3    3.205433201793918E-3
 4.290000000000000E7     9.836419115686433E-1   -8.106960999000916E-2    1.285817520253531E-1   -1.957890996937419E-2   -5.780313459779448E-5    4.273266844684271E-5   -8.804707276233587E-3    2.580791968036385E-3
 4.680000000000000E7     9.831560162098419E-1   -8.991759099184543E-2    1.282107055381803E-1   -2.151277574691060E-2   -5.922722649853826E-5    5.495775037179819E-5   -8.978956888776479E-3    1.884060397944096E-3
 5.070000000000000E7     9.833678717237500E-1   -9.881754644258539E-2    1.277556123082792E-1   -2.326875032325619E-2   -6.925042436836112E-5    5.174794086492279E-5   -9.008809352380784E-3    1.204418063328233E-3
 5.460000000000000E7     9.837716763604313E-1   -1.077866984689770E-1    1.271343382094284E-1   -2.482176078938085E-2   -8.669918454310557E-5    6.479573752088944E-5   -8.769511705818288E-3    6.440151794047563E-4
 5.850000000000000E7     9.844634521510733E-1   -1.164789318519282E-1    1.267116949268220E-1   -2.610104471489039E-2   -9.281468451489405E-5    6.617125197279427E-5   -8.411436580493335E-3    1.943173786490887E-4
 6.240000000000000E7     9.850056359450479E-1   -1.250354295999734E-1    1.259661868547068E-1   -2.747440060278682E-2   -9.807024068293730E-5    8.617177384376032E-5   -7.933951043447933E-3   -2.277703292617270E-4
 6.630000000000000E7     9.854905983491131E-1   -1.328135293070350E-1    1.253329317863191E-1   -2.872895068881240E-2   -1.123470536802259E-4    8.420094703293482E-5   -7.257841071977592E-3   -1.067561480309145E-4
 7.020000000000000E7     9.855728717401018E-1   -1.406924655703781E-1    1.252248802302219E-1   -3.002354385641802E-2   -1.268445353460197E-4    9.064725694934695E-5   -6.745283029373126E-3   -2.122938881889325E-4
 7.410000000000000E7     9.851931987229890E-1   -1.483743553232393E-1    1.245367400187138E-1   -3.154263112558921E-2   -1.404238933703427E-4    1.036680436279879E-4   -6.133281345287719E-3   -2.308182725470802E-4
 7.800000000000000E7     9.846683968897201E-1   -1.557311443028233E-1    1.247105137681965E-1   -3.293969097079727E-2   -1.477610896709514E-4    1.099122576414981E-4   -5.668784417642740E-3   -1.854820877197996E-4
 8.190000000000000E7     9.839616525634327E-1   -1.631147449730287E-1    1.242297797436556E-1   -3.470989412853522E-2   -1.669802132587263E-4    1.188787012437396E-4   -5.210664779621814E-3    3.547412797687129E-5
 8.580000000000000E7     9.833839444857677E-1   -1.702212477577662E-1    1.239268584346922E-1   -3.626269580784814E-2   -1.771896071682327E-4    1.325691582826720E-4   -4.694153781810611E-3    3.141761238323674E-4
 8.970000000000000E7     9.825940011980742E-1   -1.771107405360623E-1    1.238759372476190E-1   -3.780704695541531E-2   -1.901884848459114E-4    1.439960754271874E-4   -4.343315037556077E-3    6.653173024261270E-4
 9.360000000000000E7     9.813189599687026E-1   -1.833319590651261E-1    1.237798956182354E-1   -3.926731618686168E-2   -1.963942433686043E-4    1.534906536922201E-4   -4.342082320012428E-3    1.254016790590958E-3
 9.750000000000000E7     9.800795277219589E-1   -1.892995369927040E-1    1.239488870033362E-1   -4.058585606412356E-2   -2.063039962882103E-4    1.613345783135416E-4   -4.176688745510919E-3    1.751903858612763E-3
 1.014000000000000E8     9.782929802654809E-1   -1.949894341862132E-1    1.241107995063009E-1   -4.177418407476893E-2   -2.168072661716330E-4    1.845646598821129E-4   -4.123401259081407E-3    2.258345637608732E-3
 1.053000000000000E8     9.763376693919131E-1   -2.002699449290134E-1    1.243141396427143E-1   -4.300703933250019E-2   -2.184850736343549E-4    1.951472921512593E-4   -4.089135211820773E-3    2.802788645429597E-3
 1.092000000000000E8     9.739241478591901E-1   -2.057494576953901E-1    1.242910787568257E-1   -4.494622546651446E-2   -2.240406936238638E-4    2.091888038585165E-4   -4.263970518819283E-3    3.280785110439065E-3
 1.131000000000000E8     9.713117405749597E-1   -2.112431671568968E-1    1.241652136123330E-1   -4.684544056449448E-2   -2.337361175735860E-4    2.231833624049570E-4   -4.407607906051855E-3    3.730661882452782E-3
 1.170000000000000E8     9.684091085226749E-1   -2.170534381738257E-1    1.238010334238841E-1   -4.870434584984919E-2   -2.280452891244586E-4    2.426297298579251E-4   -4.685196291354261E-3    4.239075598967016E-3
 1.209000000000000E8     9.655032476705611E-1   -2.237647716001103E-1    1.229238020580940E-1   -5.082527674275610E-2   -2.284775402165210E-4    2.591791451419508E-4   -5.111304895780339E-3    4.309013092872882E-3
 1.248000000000000E8     9.628989178893104E-1   -2.306052595213077E-1    1.223598529755653E-1   -5.276493813945278E-2   -2.185243649370007E-4    2.812102122427042E-4   -5.378756943529793E-3    4.673279856938747E-3
 1.287000000000000E8     9.606471247604367E-1   -2.381694434686948E-1    1.213435687423233E-1   -5.504678225237238E-2   -2.046680098120588E-4    3.020976965123382E-4   -5.755314332404553E-3    4.878482956272950E-3
 1.326000000000000E8     9.586131473280338E-1   -2.464089444578974E-1    1.201386858230567E-1   -5.722999882358715E-2   -1.813451918261224E-4    3.206543639157874E-4   -6.105864192323539E-3    4.935873021824690E-3
 1.365000000000000E8     9.568466998489057E-1   -2.549750174391840E-1    1.191743767873892E-1   -5.895178109342504E-2   -1.407049942595627E-4    3.428848555030221E-4   -6.420670313606941E-3    4.993891108478107E-3
 1.404000000000000E8     9.552000002771642E-1   -2.643219490645254E-1    1.178054761935906E-1   -6.118849714505846E-2   -8.253748576542090E-5    3.636755195092188E-4   -6.777287141699274E-3    5.009406026769030E-3
 1.443000000000000E8     9.535671726882669E-1   -2.736945817184456E-1    1.164909604908414E-1   -6.314850965562560E-2   -9.192660149360560E-6    3.789503305770008E-4   -7.014567804227031E-3    4.834445237496808E-3
 1.482000000000000E8     9.520348427577779E-1   -2.829879074975254E-1    1.152159205637641E-1   -6.504054518035299E-2    1.018439057885629E-4    3.798560912376437E-4   -7.102675037187865E-3    4.784840374175576E-3
 1.521000000000000E8     9.507344486880114E-1   -2.920376362962243E-1    1.139566296123330E-1   -6.710055564196248E-2    2.766010256252994E-4    3.809677254968097E-4   -7.239293101253127E-3    4.671895036907153E-3
 1.560000000000000E8     9.491229381505291E-1   -3.006524474137903E-1    1.130990897674036E-1   -6.912690987671936E-2    5.396180563357046E-4    3.411919569899107E-4   -7.122462571839833E-3    4.871987497008319E-3
 1.599000000000000E8     9.472195967888295E-1   -3.085965959885869E-1    1.117355963497575E-1   -7.098566861775481E-2    1.014238051946800E-3    1.813747476377070E-4   -6.629566386545747E-3    5.497832993469385E-3
 1.638000000000000E8     9.447770010272039E-1   -3.166866552658100E-1    1.109602305843193E-1   -7.377387576728653E-2    1.834510770790632E-3   -4.779743507206502E-4   -5.700943577410632E-3    6.672572702079283E-3
 1.677000000000000E8     9.417971512893991E-1   -3.232540078466718E-1    1.095905740603172E-1   -7.780986749437878E-2    2.237319805890549E-3   -2.845083871425450E-3   -2.420698853119726E-3    7.785387211825230E-3
 1.716000000000000E8     9.413585503742473E-1   -3.278081632334599E-1    1.047631944364804E-1   -8.018677771298933E-2   -1.303026120727136E-3   -4.480127636112669E-3    1.161724197723148E-3    3.754667931359372E-3
 1.755000000000000E8     9.419804383041183E-1   -3.349095858825790E-1    1.029437997535817E-1   -7.959288485549063E-2   -3.107055384956524E-3   -2.250955582200260E-3   -6.744287000581831E-4    8.034919990028087E-4
 1.794000000000000E8     9.410605974818481E-1   -3.422681087335919E-1    1.022006758413350E-1   -8.059600170984275E-2   -2.944253622332455E-3   -9.156749619418646E-4   -1.960412171209447E-3    7.636662484941441E-4
 1.833000000000000E8     9.393375972299361E-1   -3.490148920042271E-1    1.013957723545954E-1   -8.096134819716673E-2   -2.676506172177434E-3   -2.384806699758233E-4   -2.390891338027069E-3    1.106477977843840E-3
 1.872000000000000E8     9.374563311988520E-1   -3.554061717503060E-1    1.001488312116356E-1   -8.278517986103104E-2   -2.400402668132568E-3    1.503103840504683E-4   -2.438842756850801E-3    1.677544542032345E-3
 1.911000000000000E8     9.349089029384317E-1   -3.611298395088870E-1    9.928457029781107E-2   -8.312087742351358E-2   -2.166222077225480E-3    3.751081784670250E-4   -2.401195268097833E-3    2.166132327626543E-3
 1.950000000000000E8     9.319414293234822E-1   -3.668146350696367E-1    9.781758509731486E-2   -8.465663397720541E-2   -2.007177935474223E-3    5.288523786417588E-4   -2.279654308030077E-3    2.755459150763688E-3
 1.989000000000000E8     9.289854797067213E-1   -3.726966265835192E-1    9.607679789516110E-2   -8.650725154777417E-2   -1.884117977190273E-3    6.332613715450960E-4   -2.152411659550785E-3    3.379711804885255E-3
 2.028000000000000E8     9.255578500323320E-1   -3.786464087056784E-1    9.412508461650866E-2   -8.825438128107070E-2   -1.788161757790943E-3    7.365346269907191E-4   -2.101935291353101E-3    3.979037190148639E-3
 2.067000000000000E8     9.219598700500954E-1   -3.853847279173850E-1    9.115784528028294E-2   -9.050779602193575E-2   -1.694749867146507E-3    8.463932428846211E-4   -2.126076444071378E-3    4.523694160254012E-3
 2.106000000000000E8     9.179835657540347E-1   -3.926398114464477E-1    8.830712516532667E-2   -9.297963271785166E-2   -1.611377337248008E-3    9.419886958458801E-4   -2.333110033402304E-3    5.106853772177292E-3
 2.145000000000000E8     9.136662462428861E-1   -4.005501085199319E-1    8.487703753286950E-2   -9.516347460912729E-2   -1.511395450339638E-3    1.048480852819781E-3   -2.609817329182655E-3    5.642142198231257E-3
 2.184000000000000E8     9.089705946364318E-1   -4.087202420425230E-1    8.202890595671132E-2   -9.657842616272114E-2   -1.392352916000864E-3    1.143343114073976E-3   -2.894263928130002E-3    6.052923770340440E-3
 2.223000000000000E8     9.035932993733690E-1   -4.162184912991428E-1    8.124741243106033E-2   -9.489621077273640E-2   -1.271959234864203E-3    1.233731670654958E-3   -3.265863094660434E-3    6.428688171608077E-3
 2.262000000000000E8     8.980510982300993E-1   -4.236430168477834E-1    8.088812172157607E-2   -9.306903905356746E-2   -1.107566279645364E-3    1.325647383905452E-3   -3.634379027668388E-3    6.544702942806585E-3
 2.301000000000000E8     8.929408568385689E-1   -4.312113494347389E-1    7.928148722212298E-2   -9.291710879741084E-2   -9.245931810208608E-4    1.404483048110141E-3   -4.060573213353603E-3    6.710529914308512E-3
 2.340000000000000E8     8.889311249159288E-1   -4.393791892127141E-1    7.626403491360956E-2   -9.512535803896806E-2   -7.157383324409127E-4    1.465552627916433E-3   -4.432231722293819E-3    6.779400573976445E-3
 2.379000000000000E8     8.857287941174307E-1   -4.479334013771800E-1    7.200120764456819E-2   -9.839594039250117E-2   -4.587635242574324E-4    1.517712726523548E-3   -4.839345970569170E-3    6.688703316640880E-3
 2.418000000000000E8     8.828983469720290E-1   -4.563166574728354E-1    6.815277977473583E-2   -1.007245656264921E-1   -1.570901977012645E-4    1.582360436869642E-3   -5.030808758481892E-3    6.613465792228847E-3
 2.457000000000000E8     8.803037493809653E-1   -4.648505728502697E-1    6.487953043307158E-2   -1.028910223497043E-1    2.598271091322005E-4    1.613362866656438E-3   -5.141501968766028E-3    6.618152846396921E-3
 2.496000000000000E8     8.777750955634274E-1   -4.729669622869235E-1    6.252464788383033E-2   -1.043506651602904E-1    8.104992486900941E-4    1.580987809023377E-3   -5.136329980128738E-3    6.710034201507580E-3
 2.535000000000000E8     8.749143717029350E-1   -4.811061769103314E-1    6.048533100744567E-2   -1.060365086421662E-1    1.614450075367748E-3    1.412532598372360E-3   -4.997390324416818E-3    6.998515373870317E-3
 2.574000000000000E8     8.714913718896601E-1   -4.888381110238645E-1    5.893265709394844E-2   -1.078419728196696E-1    2.648608741185261E-3    9.648030680193896E-4   -4.651963966986848E-3    7.586477743008105E-3
 2.613000000000000E8     8.666799752166459E-1   -4.957711038204344E-1    5.839103083924237E-2   -1.089255384800014E-1    4.134750632704199E-3   -1.073615607412103E-4   -4.051775081276995E-3    8.747319894059193E-3
 2.652000000000000E8     8.602518413769639E-1   -5.009863521502698E-1    5.678054077285272E-2   -1.124235947295420E-1    5.801498948593362E-3   -2.955462158169230E-3   -2.214440796853351E-3    1.063657941632635E-2
 2.691000000000000E8     8.543530579441521E-1   -5.007847938812146E-1    5.176310220798229E-2   -1.177739616169803E-1    4.772448251540746E-3   -8.832496393364808E-3    2.426954689636844E-3    1.177976455206895E-2
 2.730000000000000E8     8.570325079760289E-1   -4.998065142979646E-1    4.313844948737849E-2   -1.170950796148697E-1   -2.949110474928514E-3   -1.058585467574705E-2    6.549610470877682E-3    7.398855615592354E-3
 2.769000000000000E8     8.592721605152432E-1   -5.058743662548673E-1    3.843015733753068E-2   -1.130999774500054E-1   -6.661835499414402E-3   -6.871514654927827E-3    5.807961273336795E-3    3.879404514655642E-3
 2.808000000000000E8     8.582512210137652E-1   -5.135209995149360E-1    3.598529670053423E-2   -1.094972035732373E-1   -7.246672425292758E-3   -3.636195569018277E-3    4.390737506180800E-3    2.533311609883885E-3
 2.847000000000000E8     8.554296030688709E-1   -5.215254234171051E-1    3.427429148904121E-2   -1.067621794480579E-1   -6.720621462232442E-3   -1.641351160768114E-3    3.264480642252398E-3    2.434965858203138E-3
 2.886000000000000E8     8.512087177174361E-1   -5.292146814622657E-1    3.290228377881640E-2   -1.049347580412607E-1   -5.995121759671679E-3   -5.888995635545177E-4    2.611916005811888E-3    2.786842432433578E-3
 2.925000000000000E8     8.460420412125296E-1   -5.366206668987112E-1    3.165496069658315E-2   -1.031312019977341E-1   -5.462608407139596E-3   -5.825963308851110E-6    2.277730997165901E-3    3.242983961728862E-3
 2.964000000000000E8     8.400054549063296E-1   -5.440988523199274E-1    3.060332082537748E-2   -1.011950735366143E-1   -5.047490361261871E-3    4.119481379001879E-4    1.910606938362696E-3    3.720267745033101E-3
 3.003000000000000E8     8.331363775748850E-1   -5.517648188729910E-1    2.937250021342435E-2   -9.952263790741542E-2   -4.683959973001407E-3    7.111294881740544E-4    1.594291870921510E-3    4.293278985881323E-3
 3.042000000000000E8     8.251960416412014E-1   -5.594515187862156E-1    2.794383282005528E-2   -9.755937437804962E-2   -4.339519685994166E-3    9.020716158932014E-4    1.410419715731390E-3    4.902543182835339E-3
 3.081000000000000E8     8.163540729852303E-1   -5.671454223826278E-1    2.640872116784353E-2   -9.514005836940607E-2   -4.084204388616845E-3    9.976653639294903E-4    1.156831917292962E-3    5.469598454902532E-3
 3.120000000000000E8     8.066286494935414E-1   -5.749998613077014E-1    2.468491061992748E-2   -9.243114681531452E-2   -3.887312979100320E-3    1.067492473025794E-3    9.276911857072380E-4    5.967669252425765E-3
 3.159000000000000E8     7.960858206671535E-1   -5.831319907231631E-1    2.245647191451259E-2   -8.930667679526427E-2   -3.723840294955287E-3    1.131041851920248E-3    7.113276185813788E-4    6.386478495641595E-3
 3.198000000000000E8     7.847244722937267E-1   -5.923869187286412E-1    1.968054726384138E-2   -8.551056634545624E-2   -3.583366319313107E-3    1.177507556010479E-3    5.236591038799852E-4    6.675068611210770E-3
 3.237000000000000E8     7.750762651382770E-1   -6.012931329221448E-1    1.708500494435362E-2   -8.274697744823652E-2   -3.454730206189125E-3    1.193887980227608E-3    2.534630351519762E-4    6.864911812684484E-3
 3.276000000000000E8     7.663934470386369E-1   -6.105887985022522E-1    1.449115434502262E-2   -8.079571085096811E-2   -3.350712205801422E-3    1.219873250105915E-3   -9.438120447190321E-5    7.002061844332200E-3
 3.315000000000000E8     7.595144709885846E-1   -6.203276598055339E-1    1.225818251367228E-2   -7.972721918418205E-2   -3.271627923524246E-3    1.234630153714214E-3   -3.475127192419376E-4    7.050656315078454E-3
 3.354000000000000E8     7.540937923114298E-1   -6.298355533057990E-1    1.045164104417638E-2   -7.938543273055555E-2   -3.188192067105580E-3    1.252564805801096E-3   -6.182786111034948E-4    6.991989509684639E-3
 3.393000000000000E8     7.495245246362823E-1   -6.383829884943149E-1    8.854130077678104E-3   -7.959848005908388E-2   -3.102452231214651E-3    1.261009876610616E-3   -8.356072602008523E-4    6.927526192627797E-3
 3.432000000000000E8     7.452981573983289E-1   -6.461489409026366E-1    7.318243789801921E-3   -8.004462182980425E-2   -3.055576393451898E-3    1.253115862951084E-3   -1.001394507956239E-3    6.807964132413742E-3
 3.471000000000000E8     7.406718035241138E-1   -6.533616694993181E-1    5.977459383193501E-3   -8.027887690311965E-2   -2.992031371663633E-3    1.264857666282047E-3   -1.016763992631231E-3    6.665016618152679E-3
 3.510000000000000E8     7.354311301750659E-1   -6.597114974145557E-1    4.857027392780460E-3   -8.010136279584351E-2   -2.948817515396667E-3    1.268182416779423E-3   -9.240539272971423E-4    6.421802240242835E-3
 3.549000000000000E8     7.299051856868621E-1   -6.654042176450937E-1    3.400730397947015E-3   -7.953491537780348E-2   -2.902085297631488E-3    1.308656430901530E-3   -8.505047488142690E-4    6.295556267596556E-3
