#  HZ   S   RI   R     50.00 
! Rohde & Schwarz Vector Network Analyzer 
! Rohde-Schwarz,ZNL20-2Port,1323001220101312,1.72.1.6-23.02.1.246
! Created: UTC 11/11/2024, 8:42:18 PM
! freq[Hz]                re:S11                  im:S11                  re:S21                  im:S21                  re:S12                  im:S12                  re:S22                  im:S22
 3.900000000000000E6     1.026493821035421      -7.247132055371688E-3    1.283125372194418E-1   -2.213742891563729E-3    3.669367040427474E-6    8.064928556007671E-6    8.750239084139669E-3    1.793479294673144E-3
 7.800000000000000E6     1.013145150551806      -1.041369163131105E-2    1.270668183962833E-1   -4.542254234112367E-3   -3.158613978501384E-6    8.737288397724450E-6    3.287700950663914E-3    3.728496945371128E-3
 1.170000000000000E7     1.007975612492719      -1.909937375967459E-2    1.256671056420580E-1   -6.133912376942115E-3   -2.201863408985344E-6    1.601970790846655E-5   -1.466845192157418E-4    4.880221663863399E-3
 1.560000000000000E7     1.002876810664543      -2.673331463168387E-2    1.256551397534577E-1   -7.502779737995272E-3   -5.256956940459940E-6    1.177271195497252E-5   -1.920251646717017E-3    5.274039315500020E-3
 1.950000000000000E7     9.986623166973377E-1   -3.363510730276737E-2    1.258167001164824E-1   -8.861783585388777E-3   -7.680314707000737E-6    1.235571933836073E-5   -3.503558585693601E-3    5.603252346960116E-3
 2.340000000000000E7     9.951773319320868E-1   -4.078533050000130E-2    1.263427616883772E-1   -1.022495275804718E-2   -1.777521396040439E-5    2.172893648548181E-5   -4.838160400176063E-3    5.576529652392419E-3
 2.730000000000000E7     9.917733165983067E-1   -4.803500572852545E-2    1.266989076743050E-1   -1.166703440788373E-2   -2.443207031628830E-5    2.145922916702999E-5   -6.101395054947186E-3    5.456162784217955E-3
 3.120000000000000E7     9.885479408514265E-1   -5.574513744848412E-2    1.268869378872496E-1   -1.324509771316116E-2   -3.037615688540756E-5    2.382855191833677E-5   -7.245569669486121E-3    5.173834115102692E-3
 3.510000000000000E7     9.858953431215345E-1   -6.396856317958563E-2    1.271921003505143E-1   -1.503141925529931E-2   -3.704311434009678E-5    3.184816157980932E-5   -8.163434718647101E-3    4.423498881662385E-3
 3.900000000000000E7     9.837679809143746E-1   -7.230574150861027E-2    1.272450568331681E-1   -1.697693099294246E-2   -3.678024167876800E-5    3.770323812283722E-5   -8.931447182284174E-3    3.595830902880427E-3
 4.290000000000000E7     9.826256592612528E-1   -8.109008992594262E-2    1.271386336225451E-1   -1.899690474499860E-2   -4.544954179037512E-5    4.464328706036646E-5   -9.513572245747660E-3    2.591071064460244E-3
 4.680000000000000E7     9.821321625546662E-1   -9.011028335861752E-2    1.267668050007689E-1   -2.089528302613226E-2   -5.663306743099417E-5    4.946986856417560E-5   -9.713589595525604E-3    1.512139106210521E-3
 5.070000000000000E7     9.824212310627948E-1   -9.921857595934275E-2    1.263400222127853E-1   -2.263760324622096E-2   -6.446546002456118E-5    5.239460805189216E-5   -9.670851225499485E-3    4.419167527791542E-4
 5.460000000000000E7     9.830938097103628E-1   -1.082898196858655E-1    1.257686732980967E-1   -2.416738908152960E-2   -7.459920142466393E-5    5.639172467978337E-5   -9.301561807967557E-3   -4.645730220524906E-4
 5.850000000000000E7     9.838578582271348E-1   -1.172128432689813E-1    1.253434186857467E-1   -2.540617888076128E-2   -8.430373491781794E-5    6.167899645961284E-5   -8.639682011660776E-3   -1.226007314455332E-3
 6.240000000000000E7     9.846585562642833E-1   -1.258405499943938E-1    1.247100166675013E-1   -2.678144867920215E-2   -9.168782115438508E-5    6.992716225278226E-5   -7.866821767730781E-3   -1.909387686683905E-3
 6.630000000000000E7     9.853473533694135E-1   -1.335776266078631E-1    1.242081846823464E-1   -2.806773018297786E-2   -1.010120190272720E-4    7.430003912735616E-5   -6.844853653152255E-3   -1.881824640506436E-3
 7.020000000000000E7     9.854849417777549E-1   -1.414247198406242E-1    1.240897387046676E-1   -2.942268264199173E-2   -1.153693066711352E-4    8.898448778466182E-5   -5.924470854315039E-3   -2.111328057819341E-3
 7.410000000000000E7     9.852639482752561E-1   -1.490266767164359E-1    1.235403967296501E-1   -3.091387923129966E-2   -1.218295776617362E-4    9.798792739989314E-5   -5.040377516081774E-3   -2.008354842835277E-3
 7.800000000000000E7     9.847529908350923E-1   -1.563297532816261E-1    1.238300019860630E-1   -3.233605299429232E-2   -1.314978244679380E-4    1.038723883356435E-4   -4.146502790920955E-3   -1.751965983797382E-3
 8.190000000000000E7     9.840972589124480E-1   -1.634095543012472E-1    1.234847291607361E-1   -3.414662862793754E-2   -1.398535967379958E-4    1.152961569607451E-4   -3.351062531940711E-3   -1.342001134515654E-3
 8.580000000000000E7     9.834948315867841E-1   -1.704394558679334E-1    1.232152833570126E-1   -3.569574113023628E-2   -1.510687575746036E-4    1.229795496446222E-4   -2.644412451932341E-3   -7.771951189000866E-4
 8.970000000000000E7     9.827911296122190E-1   -1.770156880621049E-1    1.232373921007300E-1   -3.725112537192999E-2   -1.642132485424012E-4    1.333635380853322E-4   -2.087712752153288E-3   -6.139111942568746E-5
 9.360000000000000E7     9.815221383084833E-1   -1.830889807312566E-1    1.232713158010991E-1   -3.874218498264529E-2   -1.642756115567407E-4    1.464628165133531E-4   -2.118240964386227E-3    8.940809353784217E-4
 9.750000000000000E7     9.802974076898439E-1   -1.886850418904898E-1    1.234804501822787E-1   -4.004914708649345E-2   -1.757549179786381E-4    1.556833393507180E-4   -1.984362201332488E-3    1.805826482296800E-3
 1.014000000000000E8     9.784472468042686E-1   -1.940807354296202E-1    1.236806056804178E-1   -4.124551871396614E-2   -1.801064396819794E-4    1.646693722830639E-4   -2.091778666453501E-3    2.720154674671918E-3
 1.053000000000000E8     9.764011031509997E-1   -1.993084226579617E-1    1.239514479443174E-1   -4.246454562797992E-2   -1.912956833621273E-4    1.761665066285364E-4   -2.267844455547234E-3    3.551987495536712E-3
 1.092000000000000E8     9.738929862415354E-1   -2.045830176605982E-1    1.238948049904676E-1   -4.442647974867493E-2   -1.900012111507287E-4    1.890500549170638E-4   -2.719783527858235E-3    4.345082601415127E-3
 1.131000000000000E8     9.710743898485010E-1   -2.100295072918706E-1    1.237810332050270E-1   -4.633786449843036E-2   -1.949819139122781E-4    2.047889051049855E-4   -3.262007495703551E-3    5.042240777703684E-3
 1.170000000000000E8     9.680742071637879E-1   -2.158080332046136E-1    1.234314808998280E-1   -4.817665150465855E-2   -1.820381190093864E-4    2.234165447157020E-4   -3.918152992293896E-3    5.576152897965730E-3
 1.209000000000000E8     9.650493976868123E-1   -2.224528476536802E-1    1.226276020375244E-1   -5.028049313430853E-2   -1.738342273752480E-4    2.409315277906560E-4   -4.782609467568641E-3    5.729946800407065E-3
 1.248000000000000E8     9.623915944479768E-1   -2.294411722644905E-1    1.220887512830610E-1   -5.219822669569369E-2   -1.583637805649829E-4    2.522292423394760E-4   -5.507169127774014E-3    5.861574538974624E-3
 1.287000000000000E8     9.600504386384777E-1   -2.372568285103418E-1    1.211057753963769E-1   -5.454917988715346E-2   -1.310071559482471E-4    2.694246452832295E-4   -6.191055322149909E-3    5.854199683187200E-3
 1.326000000000000E8     9.578977476239450E-1   -2.456850125328340E-1    1.198832089436569E-1   -5.675745943130561E-2   -9.900663518715605E-5    2.801110866653270E-4   -6.895692290536953E-3    5.687548438074334E-3
 1.365000000000000E8     9.562246422293900E-1   -2.544819553023193E-1    1.189224543606161E-1   -5.848590773484747E-2   -4.241480965022239E-5    2.914811718921744E-4   -7.467432008986598E-3    5.341136544263214E-3
 1.404000000000000E8     9.546380349750604E-1   -2.639668205373781E-1    1.175601439122723E-1   -6.069697607857549E-2    2.736902549541332E-5    3.008383307992561E-4   -7.924077437166870E-3    4.913495914126743E-3
 1.443000000000000E8     9.529683539139018E-1   -2.735320529360877E-1    1.162595044130473E-1   -6.265148037375529E-2    1.260267755349667E-4    2.905863691737691E-4   -8.133368248615437E-3    4.394954139200082E-3
 1.482000000000000E8     9.515215369625588E-1   -2.829846556404488E-1    1.149345900681380E-1   -6.461408974740435E-2    2.648097535137574E-4    2.588906550136082E-4   -8.190612836356847E-3    3.887481428104907E-3
 1.521000000000000E8     9.501844637429510E-1   -2.921698100130328E-1    1.137409105770876E-1   -6.680796282875992E-2    4.972061860193604E-4    1.901223984364476E-4   -8.031631062747352E-3    3.489969564731718E-3
 1.560000000000000E8     9.485351731642230E-1   -3.008458366587515E-1    1.129542333795549E-1   -6.894392389840619E-2    8.428176864097339E-4    7.446252022962195E-6   -7.558002251949246E-3    3.325729177517933E-3
 1.599000000000000E8     9.463550434353568E-1   -3.084199210388781E-1    1.115324212137915E-1   -7.122922469906834E-2    1.399187682903717E-3   -5.644284461236775E-4   -6.203675172496331E-3    3.814509812224193E-3
 1.638000000000000E8     9.437589114756677E-1   -3.152932219526674E-1    1.099651220224281E-1   -7.469106418025227E-2    1.520265122935490E-3   -2.186326742165766E-3   -3.575136408083963E-3    4.075666528961761E-3
 1.677000000000000E8     9.427326679544852E-1   -3.205398713589773E-1    1.067101724439604E-1   -7.701923604568758E-2   -6.378923115549968E-4   -3.444168164873399E-3   -6.946976773591344E-4    1.585060395816221E-3
 1.716000000000000E8     9.430177967482065E-1   -3.270225766199627E-1    1.044454391978123E-1   -7.766027409668483E-2   -2.209135476610173E-3   -2.297607735999548E-3   -8.751685280587060E-4   -7.204013466546415E-4
 1.755000000000000E8     9.426450321599795E-1   -3.340064986432737E-1    1.033640855443651E-1   -7.829527014960315E-2   -2.534676183048314E-3   -1.171761554011300E-3   -1.223203532066666E-3   -1.211079964716866E-3
 1.794000000000000E8     9.416827272329882E-1   -3.406394791613482E-1    1.025379202875127E-1   -7.981098690738192E-2   -2.386174961959755E-3   -4.764843136926721E-4   -1.206918665529276E-3   -8.909956390271763E-4
 1.833000000000000E8     9.401542017444362E-1   -3.467691476940764E-1    1.015409818065799E-1   -8.025936446725068E-2   -2.211440354096511E-3   -6.501683835005798E-5   -9.346805748115196E-4   -3.666806560103232E-4
 1.872000000000000E8     9.383074032684929E-1   -3.526509128090650E-1    1.001421556916074E-1   -8.192472386329422E-2   -2.044959746664677E-3    1.842014968113086E-4   -5.407951509705654E-4    3.053446056091898E-4
 1.911000000000000E8     9.359993407522561E-1   -3.580427332604408E-1    9.917673517928169E-2   -8.225563511259203E-2   -1.887056628847509E-3    3.558280812808981E-4   -2.266241705650936E-4    1.063090182768968E-3
 1.950000000000000E8     9.332235179382734E-1   -3.636364702884082E-1    9.744768244264082E-2   -8.378582938011522E-2   -1.757027044313430E-3    4.926548983432665E-4    2.654512812879241E-6    1.903305446883366E-3
 1.989000000000000E8     9.302460865598159E-1   -3.693819200018102E-1    9.555964925388329E-2   -8.571549724725233E-2   -1.655637986351153E-3    5.828985845269779E-4    1.657474887029075E-4    2.723710744036555E-3
 2.028000000000000E8     9.268806000344347E-1   -3.756385229448022E-1    9.292008172367736E-2   -8.825025649611613E-2   -1.590147360767905E-3    6.669651468095251E-4    3.541132670789082E-5    3.490295835935249E-3
 2.067000000000000E8     9.232550945409599E-1   -3.825900986049892E-1    8.976438043139298E-2   -9.076711468305909E-2   -1.493282738389095E-3    7.699192990192442E-4   -1.852311944345995E-4    4.281788720873643E-3
 2.106000000000000E8     9.192684379131092E-1   -3.902845055826145E-1    8.700069488644939E-2   -9.364687452302070E-2   -1.420033344060115E-3    8.466176245062823E-4   -6.035839567491948E-4    4.943649044095653E-3
 2.145000000000000E8     9.145714170974427E-1   -3.983722329104140E-1    8.462214709657610E-2   -9.505931032918850E-2   -1.318041069540781E-3    9.591788997527444E-4   -1.190145391029179E-3    5.518650795870554E-3
 2.184000000000000E8     9.089205607169387E-1   -4.060591297982579E-1    8.391886463619902E-2   -9.365312525479021E-2   -1.176783669316189E-3    1.045861956463956E-3   -1.877553117082257E-3    5.933844442416886E-3
 2.223000000000000E8     9.031616867086448E-1   -4.137913949427439E-1    8.335228959964565E-2   -9.180685945650426E-2   -1.025442012984616E-3    1.120234024023476E-3   -2.546701319367192E-3    6.147383836337192E-3
 2.262000000000000E8     8.976584926946000E-1   -4.220311220115552E-1    8.203671241574861E-2   -9.163601960064499E-2   -8.376275431667709E-4    1.194663956731318E-3   -3.283155131912234E-3    6.208320840132686E-3
 2.301000000000000E8     8.928501594584592E-1   -4.306371330744057E-1    7.891501795571153E-2   -9.341309268861282E-2   -5.921922680527499E-4    1.261967530607309E-3   -4.194745302972388E-3    6.021696376588735E-3
 2.340000000000000E8     8.887389190483923E-1   -4.395723921260382E-1    7.578756091314282E-2   -9.590009384420954E-2   -2.886731966775052E-4    1.269946462542576E-3   -4.417196273034858E-3    6.098835622612023E-3
 2.379000000000000E8     8.852045902923287E-1   -4.483194691124562E-1    7.171910589083116E-2   -9.900919274314653E-2    7.949172432795055E-5    1.222120903383680E-3   -5.008506747295048E-3    5.682700922224357E-3
 2.418000000000000E8     8.820396182019519E-1   -4.569169039617684E-1    6.809747346112692E-2   -1.012357942858255E-1    4.972438839486061E-4    1.102881343749983E-3   -5.082956516996992E-3    5.468633895152056E-3
 2.457000000000000E8     8.791319133382363E-1   -4.654008578586112E-1    6.492342249105235E-2   -1.034295924501809E-1    1.073862164822680E-3    9.060503319415069E-4   -4.948434835868554E-3    5.295432359075846E-3
 2.496000000000000E8     8.760234762768773E-1   -4.733847925615242E-1    6.270983434958545E-2   -1.050861142022874E-1    1.809096870123788E-3    4.365722229371527E-4   -4.545620250100923E-3    5.356355177807065E-3
 2.535000000000000E8     8.723558448296859E-1   -4.812961805640736E-1    6.076303803000390E-2   -1.074512672742389E-1    2.862235090218500E-3   -5.811544047293624E-4   -3.636155808812423E-3    5.855481628034349E-3
 2.574000000000000E8     8.677989966255855E-1   -4.874023482190200E-1    5.878017104152111E-2   -1.105693262490886E-1    3.518556533141998E-3   -2.803208545369956E-3   -1.701764581873643E-3    6.572158311775303E-3
 2.613000000000000E8     8.631436609931272E-1   -4.897059029487443E-1    5.588011133040340E-2   -1.132657763360601E-1    2.252769426339908E-3   -6.239458977607985E-3    1.615855576237060E-3    6.535422360476765E-3
 2.652000000000000E8     8.633583381008905E-1   -4.903174899580853E-1    4.957078461251026E-2   -1.147587476443043E-1   -2.197793781111698E-3   -7.535364852002881E-3    4.488709031129477E-3    4.086463485194361E-3
 2.691000000000000E8     8.655454086412202E-1   -4.953429072726250E-1    4.454251638464352E-2   -1.132464924467317E-1   -5.077881381009610E-3   -5.403337860469892E-3    4.823982059002499E-3    1.816698269301709E-3
 2.730000000000000E8     8.656360140792870E-1   -5.024220438453655E-1    4.156367981692111E-2   -1.106354775887538E-1   -5.849352376145336E-3   -3.090804165947767E-3    4.435786711509073E-3    9.353692691673073E-4
 2.769000000000000E8     8.634760612057236E-1   -5.095984515395094E-1    3.932767929700876E-2   -1.084595495643030E-1   -5.734151032107396E-3   -1.587576544040627E-3    4.242981507118511E-3    9.823646425564149E-4
 2.808000000000000E8     8.602880277656185E-1   -5.164000353631901E-1    3.755234308458799E-2   -1.061800912657941E-1   -5.352145417727567E-3   -5.805638130235608E-4    4.137255205857317E-3    1.433258089797588E-3
 2.847000000000000E8     8.563137154514749E-1   -5.230556373021895E-1    3.578426878868032E-2   -1.040172263421118E-1   -4.942771165381279E-3    4.282747234731107E-5    4.101648883009642E-3    2.110074301120846E-3
 2.886000000000000E8     8.516257582600054E-1   -5.301839732915070E-1    3.416016608856454E-2   -1.021894273926936E-1   -4.575589683048532E-3    4.550695809519223E-4    4.035918569140910E-3    2.917317999858265E-3
 2.925000000000000E8     8.459417975485213E-1   -5.374238077794060E-1    3.288559539151253E-2   -1.002469930134226E-1   -4.261131835497498E-3    7.178760550313217E-4    3.912394802253191E-3    3.772178179270353E-3
 2.964000000000000E8     8.394517317471222E-1   -5.448473845290263E-1    3.165581140357797E-2   -9.831398359308093E-2   -3.988796300367981E-3    9.244434059556774E-4    3.649052969603726E-3    4.633812404859073E-3
 3.003000000000000E8     8.319472058361095E-1   -5.524049933053411E-1    3.025162890152076E-2   -9.654283695730284E-2   -3.748615925725007E-3    1.062201880014741E-3    3.245388463156291E-3    5.384768959779880E-3
 3.042000000000000E8     8.233301865333069E-1   -5.601110391236337E-1    2.853220002072858E-2   -9.456381757325399E-2   -3.529129297109801E-3    1.136418442665714E-3    2.793826937838808E-3    6.262082074717727E-3
 3.081000000000000E8     8.140684808732745E-1   -5.678542644169814E-1    2.679092018928455E-2   -9.212522289798156E-2   -3.360512779455560E-3    1.172073207893371E-3    2.289420638508074E-3    6.910139175403262E-3
 3.120000000000000E8     8.038654045050733E-1   -5.757577464537883E-1    2.481975158932028E-2   -8.934778727259332E-2   -3.234436460280529E-3    1.205259836261386E-3    1.671545571810517E-3    7.402041815097188E-3
 3.159000000000000E8     7.929747073885162E-1   -5.839063891057157E-1    2.244168554771833E-2   -8.627748060851877E-2   -3.101087733074305E-3    1.230808544004754E-3    1.006993634738649E-3    7.778199400110015E-3
 3.198000000000000E8     7.816849834082629E-1   -5.929325400620796E-1    1.964676632567710E-2   -8.271118083007856E-2   -2.987715788400379E-3    1.213976498258929E-3    5.901126700835740E-4    8.008868970382142E-3
 3.237000000000000E8     7.721485696570709E-1   -6.014327511061217E-1    1.689804490853452E-2   -8.028582480781983E-2   -2.928835922930595E-3    1.192364434692363E-3    3.688878643094695E-5    7.937999768188863E-3
 3.276000000000000E8     7.640223467082303E-1   -6.106569505827039E-1    1.424405896376539E-2   -7.863150773883711E-2   -2.867442806007381E-3    1.213944922246502E-3   -4.755335102460267E-4    7.766935173398792E-3
 3.315000000000000E8     7.577167006599812E-1   -6.201128213971991E-1    1.207868173535199E-2   -7.778382279940772E-2   -2.807592401628371E-3    1.218814782592595E-3   -9.643212784133520E-4    7.456552202238975E-3
 3.354000000000000E8     7.531800715994905E-1   -6.294080383821621E-1    1.031923797460416E-2   -7.757680572454508E-2   -2.747360303262567E-3    1.228165391094610E-3   -1.315069276243171E-3    7.051994538493269E-3
 3.393000000000000E8     7.494114644118508E-1   -6.378732896238093E-1    8.781595378650845E-3   -7.790763126260050E-2   -2.675639283577318E-3    1.223016201324376E-3   -1.477718904983848E-3    6.638202142416345E-3
 3.432000000000000E8     7.458032110362467E-1   -6.454417701616431E-1    7.255106284444598E-3   -7.845227137166404E-2   -2.611393445331259E-3    1.210227969318303E-3   -1.449052913718144E-3    6.186165700679612E-3
 3.471000000000000E8     7.415586259091402E-1   -6.524037504168205E-1    5.957186803625001E-3   -7.878509379681159E-2   -2.549494319088224E-3    1.191086831625403E-3   -1.286270622422999E-3    5.741466365841445E-3
 3.510000000000000E8     7.367780598558901E-1   -6.584129944701655E-1    4.892959808423100E-3   -7.866100430495210E-2   -2.506296586260164E-3    1.160509994790653E-3   -9.006250262934923E-4    5.329680878691480E-3
 3.549000000000000E8     7.313972666220439E-1   -6.636350551143091E-1    3.505302658970066E-3   -7.814655423612862E-2   -2.478484083462793E-3    1.140789923802221E-3   -4.143771081549063E-4    4.970862221467468E-3
