#  HZ   S   RI   R     50.00 
! Rohde & Schwarz Vector Network Analyzer 
! Rohde-Schwarz,ZNL20-2Port,1323001220101312,1.72.1.6-23.02.1.246
! Created: UTC 11/12/2024, 8:34:35 PM
! freq[Hz]                re:S11                  im:S11                  re:S21                  im:S21                  re:S12                  im:S12                  re:S22                  im:S22
 3.900000000000000E6     3.540191085968239E-3    3.178777825036255E-4    9.962484119037346E-1   -1.691661553817103E-3    9.938665726185779E-1   -9.675946136325830E-3    3.777227503105908E-3    4.137803360730052E-4
 7.800000000000000E6     3.565840594830550E-3    1.476975036899739E-4    9.982090503640780E-1   -9.727281912614330E-3    9.917420710456191E-1   -1.319541253219441E-2    3.732713332790263E-3    3.933077757228565E-4
 1.170000000000000E7     2.919521044992296E-3    2.118314360038516E-3    9.952116596833284E-1   -1.807584054154029E-2    9.979576587375592E-1   -2.355956088082405E-2    3.958218560500947E-3    1.988494638316958E-3
 1.560000000000000E7     3.694244094943927E-3    6.759383106161344E-4    9.949372069482560E-1   -2.528717313473393E-2    9.977341142501637E-1   -3.049148489605492E-2    2.942967835761506E-3    2.176196870420404E-3
 1.950000000000000E7     2.029408302460213E-3    1.034240981907440E-3    9.949212457050400E-1   -3.245629830532246E-2    9.974189853533736E-1   -3.738323656922573E-2    2.830809556641369E-3    1.695152204823133E-3
 2.340000000000000E7     1.924992613397944E-3    1.335079262331656E-3    9.947725541945903E-1   -3.908757747819439E-2    9.972168467222349E-1   -4.413719044736136E-2    1.936365058413339E-3    1.785769892570149E-3
 2.730000000000000E7     1.800862906750703E-3    1.211411818831120E-3    9.943581806290192E-1   -4.570267977900088E-2    9.968097022332993E-1   -5.058415980110605E-2    2.762123089935585E-3    2.670295345767515E-3
 3.120000000000000E7     1.472440716444411E-3    1.312749213557427E-3    9.938279968634665E-1   -5.249913376214491E-2    9.964899193249991E-1   -5.734569990500584E-2    1.498189110300023E-3    2.969999355914979E-3
 3.510000000000000E7     1.098937094724148E-3    2.170102408005189E-3    9.934776812665832E-1   -5.912603734819729E-2    9.960960239905210E-1   -6.422968736267860E-2    2.078674271554387E-3    2.590513442387331E-3
 3.900000000000000E7     1.338262281448861E-3    1.404294805986157E-3    9.930435506830478E-1   -6.601682889158331E-2    9.954979369263465E-1   -7.101439744936588E-2    2.180730371796974E-3    1.965053360557314E-3
 4.290000000000000E7     1.751513342638778E-3    1.810223001633072E-3    9.924304932985459E-1   -7.274025621420002E-2    9.948537064011985E-1   -7.786808512268303E-2    1.689452510433027E-3    2.584108980036222E-3
 4.680000000000000E7     1.560858289599999E-3    1.271964492374971E-3    9.919278257943260E-1   -7.946071170380195E-2    9.944281822922695E-1   -8.452659488691545E-2    1.622724451256025E-3    2.607119646667410E-3
 5.070000000000000E7     1.424406714567981E-3    2.162519595473958E-3    9.911963621168934E-1   -8.628639790677502E-2    9.933572777408396E-1   -9.128512282820336E-2    2.382933759106483E-3    1.154950405925832E-3
 5.460000000000000E7     1.479657833425109E-3    1.822237908544612E-3    9.906089935045717E-1   -9.274813183263593E-2    9.928053346849333E-1   -9.781310258371506E-2    1.749278622411962E-3    1.570911944275963E-3
 5.850000000000000E7     1.634837541667346E-3    7.679095614201385E-4    9.897991524955380E-1   -9.899541552721465E-2    9.920471253472738E-1   -1.042554270489601E-1    2.388363688837349E-3    2.176393153505573E-3
 6.240000000000000E7     2.410454739509668E-3    1.380965366092108E-3    9.888594485563875E-1   -1.055775589323725E-1    9.912171019297320E-1   -1.107828164136989E-1    2.524689505045228E-3    1.308535373395047E-3
 6.630000000000000E7     2.859348211239425E-3    1.560764788213615E-3    9.881604648377958E-1   -1.123297296466997E-1    9.903679430452870E-1   -1.175578365956856E-1    3.223050496812382E-3    4.011275726061372E-5
 7.020000000000000E7     2.752964280549969E-3    9.862118573064453E-4    9.870393385339461E-1   -1.189536566294575E-1    9.891062238260957E-1   -1.241893244233939E-1    3.135936335836816E-3    1.196841174253557E-3
 7.410000000000000E7     3.491112956751115E-3    1.062242622523191E-3    9.860951150804927E-1   -1.255395881644834E-1    9.883568691009939E-1   -1.307206260896496E-1    3.712691749213118E-3    4.430735934449724E-4
 7.800000000000000E7     3.234906202586717E-3    1.269322153759973E-3    9.851216976079177E-1   -1.320236746707553E-1    9.871817639081232E-1   -1.374855328101127E-1    3.073109135261810E-3    4.013900083402883E-4
 8.190000000000000E7     3.901006643965854E-3    9.739080942571844E-4    9.842582745932247E-1   -1.385013153380806E-1    9.863579477694329E-1   -1.437943700941520E-1    3.319923111047642E-3    7.570007447327935E-4
 8.580000000000000E7     4.579273454457768E-3    1.789495043432128E-3    9.830312668706132E-1   -1.450992000658138E-1    9.851338138166297E-1   -1.504845426880466E-1    3.976016593909195E-3    9.539548088599416E-4
 8.970000000000000E7     5.045698043581608E-3    1.500957308184697E-3    9.819925607304920E-1   -1.516183116489633E-1    9.838662118764282E-1   -1.569553085224808E-1    3.170508034449425E-3    1.279916354636871E-3
 9.360000000000000E7     4.208935958175519E-3    1.413725654243839E-3    9.807567339417199E-1   -1.583032294894305E-1    9.827112789131981E-1   -1.634781899666840E-1    5.061891638053671E-3    1.577066748308166E-3
 9.750000000000000E7     4.578147987684373E-3    1.768585263439926E-3    9.796008937221050E-1   -1.647130217047924E-1    9.816227951093258E-1   -1.700119364325151E-1    5.049530798966676E-3    1.143978163459866E-3
 1.014000000000000E8     4.093330225483114E-3    2.641885529737512E-3    9.784536018828703E-1   -1.710362287512633E-1    9.802118683014440E-1   -1.763743937373027E-1    4.628063347446419E-3    2.083656832552527E-3
 1.053000000000000E8     3.463677919302240E-3    2.565553642819203E-3    9.773615117349403E-1   -1.773894196089661E-1    9.792313097008160E-1   -1.827395886675930E-1    4.817640675150164E-3    2.067766868387010E-3
 1.092000000000000E8     3.123525834285410E-3    2.603745743458077E-3    9.759075302815048E-1   -1.838753152397427E-1    9.777230709114343E-1   -1.892396310157735E-1    4.885098417740727E-3    3.245146577344725E-3
 1.131000000000000E8     2.868071006764986E-3    2.634462934973856E-3    9.745826217760966E-1   -1.902022286929582E-1    9.763246170360000E-1   -1.957306441901770E-1    4.790432910813411E-3    2.990536262072515E-3
 1.170000000000000E8     4.335853282214114E-3    3.360375278272258E-3    9.732508943149257E-1   -1.965060628941847E-1    9.749178533913199E-1   -2.020822223133906E-1    4.986452617558979E-3    3.862068291826828E-3
 1.209000000000000E8     3.882238877721452E-3    3.718671923895550E-3    9.718687894583351E-1   -2.030148033940666E-1    9.735313866720078E-1   -2.085279635238194E-1    4.003404393296398E-3    3.891142439097845E-3
 1.248000000000000E8     2.704925098707798E-3    3.614509628637750E-3    9.703427547926424E-1   -2.093434718133588E-1    9.720862791371656E-1   -2.149575200548138E-1    4.281232390311248E-3    4.452678234782835E-3
 1.287000000000000E8     3.385461306591522E-3    2.693406185891270E-3    9.687150663662174E-1   -2.155882203489237E-1    9.705503636105496E-1   -2.213045281470607E-1    3.609222813852755E-3    5.070045114041053E-3
 1.326000000000000E8     3.591671371585895E-3    4.206783795789105E-3    9.673084811345942E-1   -2.221357168572174E-1    9.689290667423548E-1   -2.277095945905483E-1    3.984894913508549E-3    4.159625007704259E-3
 1.365000000000000E8     2.868513181673246E-3    2.904667030632522E-3    9.656457717096196E-1   -2.283801885600397E-1    9.672264419592965E-1   -2.341059502020028E-1    3.449079130754415E-3    4.802909554180290E-3
 1.404000000000000E8     2.620771795801677E-3    3.094353218006995E-3    9.641659253610112E-1   -2.346018327482264E-1    9.657686668446078E-1   -2.403859030314801E-1    3.041700933182415E-3    4.750564275370572E-3
 1.443000000000000E8     4.164699965032683E-3    3.480112641366744E-3    9.622575899254020E-1   -2.411739580433492E-1    9.639833195657597E-1   -2.469876270957835E-1    2.966943792970390E-3    4.282743898263108E-3
 1.482000000000000E8     3.950902383191135E-3    3.737515512805781E-3    9.605750754507827E-1   -2.478072772688780E-1    9.622434400836066E-1   -2.533084975192511E-1    3.547454278525575E-3    3.832713169950083E-3
 1.521000000000000E8     2.841196789354290E-3    3.304703494892515E-3    9.588673264456281E-1   -2.541667674567294E-1    9.606624485111315E-1   -2.596811283211660E-1    3.301746942931906E-3    2.472982629896828E-3
 1.560000000000000E8     4.170823487235794E-3    2.790733584163940E-3    9.567725725786196E-1   -2.601852801172549E-1    9.587153897885121E-1   -2.657554649175523E-1    2.360248746700747E-3    2.928928946499938E-3
 1.599000000000000E8     4.091504560170100E-3    3.269803584829062E-3    9.552878004253943E-1   -2.664111371838663E-1    9.569439208576757E-1   -2.721344933911513E-1    1.793762957910380E-3    3.088631570225535E-3
 1.638000000000000E8     4.362932854920643E-3    2.835335902068711E-3    9.532621502275918E-1   -2.724095139866825E-1    9.549058305370409E-1   -2.783770231236765E-1    2.505788475915292E-3    2.136525971298701E-3
 1.677000000000000E8     4.765193813984481E-3    3.455239351586320E-3    9.511168373563916E-1   -2.784994131841808E-1    9.530421992567121E-1   -2.843527669366410E-1    2.184428652151897E-3    1.408398761780149E-3
 1.716000000000000E8     4.179736853234254E-3    2.800988828552018E-3    9.492432007608065E-1   -2.847651010401347E-1    9.510760378984694E-1   -2.907685698444571E-1    2.796642211069820E-3    9.223950364808681E-4
 1.755000000000000E8     4.786934114503811E-3    2.590566076955740E-3    9.472007902854611E-1   -2.906855827690510E-1    9.490259670631683E-1   -2.967875780559698E-1    2.301359933114568E-3    1.358875017759211E-3
 1.794000000000000E8     4.859884955385680E-3    4.318229011478544E-3    9.451631748450825E-1   -2.968678635146039E-1    9.469247480327685E-1   -3.032107022610548E-1    3.196612760946986E-3    6.635987836524828E-4
 1.833000000000000E8     4.060666594971552E-3    3.128025880560786E-3    9.431776302138469E-1   -3.027886002948598E-1    9.447901190734066E-1   -3.092846778336164E-1    4.442069587312168E-3    1.096366591425760E-3
 1.872000000000000E8     5.281478839955899E-3    4.166274165620932E-3    9.412248639654178E-1   -3.089214326936931E-1    9.427900892677841E-1   -3.154999470640590E-1    4.209040004476971E-3    2.374198885636641E-3
 1.911000000000000E8     4.395793592504062E-3    4.346337933103151E-3    9.391494380688382E-1   -3.150155220633894E-1    9.405207776235466E-1   -3.216694326726540E-1    4.666868142926713E-3    1.973876816299435E-3
 1.950000000000000E8     6.071085270036213E-3    4.666671296735234E-3    9.369356278038470E-1   -3.210724418906072E-1    9.380785015885454E-1   -3.280337167213515E-1    4.806093821286907E-3    1.747143352271597E-3
 1.989000000000000E8     6.047885732306229E-3    3.872866829638033E-3    9.349923685943624E-1   -3.270442445362441E-1    9.357492878981217E-1   -3.340488805306475E-1    5.656030846707507E-3    1.480473996150243E-3
 2.028000000000000E8     4.518123872790540E-3    4.805266087748752E-3    9.328215891371272E-1   -3.331401940583827E-1    9.333010792339889E-1   -3.402207374361203E-1    5.707678431268831E-3    2.000359859272368E-3
 2.067000000000000E8     5.047169419827602E-3    4.080949880977366E-3    9.308156688014010E-1   -3.393603236608973E-1    9.309454188610869E-1   -3.462011889443677E-1    6.124171029938091E-3    3.616486845033970E-3
 2.106000000000000E8     5.090662658748886E-3    3.645876861228393E-3    9.285393287138020E-1   -3.455651413688659E-1    9.285355599214049E-1   -3.520610865341768E-1    6.098002792080708E-3    2.411143971084054E-3
 2.145000000000000E8     5.017048255817636E-3    4.650587369797442E-3    9.260861991130734E-1   -3.516120090555756E-1    9.259523946408532E-1   -3.581474954909558E-1    5.559416679402109E-3    2.536069626285470E-3
 2.184000000000000E8     5.073542634801531E-3    4.385936785058509E-3    9.238494920145804E-1   -3.578365417163824E-1    9.235871864063686E-1   -3.639652079661817E-1    5.587683984328570E-3    2.485959185368545E-3
 2.223000000000000E8     4.735651933843513E-3    4.934045219709200E-3    9.213181094168947E-1   -3.638918823580576E-1    9.210849703853677E-1   -3.695691838159064E-1    5.790575293781663E-3    2.752663766514554E-3
 2.262000000000000E8     4.006547443853044E-3    5.157442654889280E-3    9.187979469440151E-1   -3.701262473062926E-1    9.186366851226780E-1   -3.757022719964370E-1    6.067862169903354E-3    3.746423872796046E-3
 2.301000000000000E8     4.277697125328079E-3    5.280090294659562E-3    9.161713112363657E-1   -3.763374648538086E-1    9.162068781621129E-1   -3.815603454884670E-1    5.103561322779836E-3    3.115539200522280E-3
 2.340000000000000E8     4.511383939406937E-3    4.241349666490448E-3    9.133970252675724E-1   -3.822720516841933E-1    9.137685469647068E-1   -3.874658643550632E-1    4.511046756375931E-3    3.476686390457083E-3
 2.379000000000000E8     3.653230717630900E-3    4.140850817841536E-3    9.106028216912442E-1   -3.882219525336225E-1    9.110945134831544E-1   -3.934121624347695E-1    3.608996526552031E-3    3.638839660453336E-3
 2.418000000000000E8     4.884760426013767E-3    4.755796329722856E-3    9.076673752537853E-1   -3.942187293875984E-1    9.085832060602880E-1   -3.994969957157485E-1    3.154330671121731E-3    3.724957593759636E-3
 2.457000000000000E8     4.855434661410297E-3    4.064752549641466E-3    9.048986518931865E-1   -4.001052306775588E-1    9.059392512982708E-1   -4.054634930947728E-1    3.292414406355165E-3    3.596915585016243E-3
 2.496000000000000E8     4.493255917900844E-3    3.613301593382572E-3    9.021794868731797E-1   -4.058456766982185E-1    9.031579957833978E-1   -4.112550123010679E-1    3.762109553032373E-3    3.619819741913031E-3
 2.535000000000000E8     5.892992473074829E-3    2.977378748708135E-3    8.992411221349497E-1   -4.116705343947989E-1    9.004067173003442E-1   -4.172993506454313E-1    3.606065849001312E-3    3.589767894471194E-3
 2.574000000000000E8     6.245263562029348E-3    3.603863618546760E-3    8.966892819092457E-1   -4.172431438937036E-1    8.976125474179388E-1   -4.229728237374566E-1    3.192851755708628E-3    2.609071512236359E-3
 2.613000000000000E8     5.725798611455397E-3    2.928070803330172E-3    8.936270528142177E-1   -4.230439196051921E-1    8.947582169912610E-1   -4.290255339902804E-1    4.033162034117729E-3    3.728266998016179E-3
 2.652000000000000E8     5.896467952128930E-3    3.142816366936059E-3    8.908509479736779E-1   -4.288724969079671E-1    8.917991720565002E-1   -4.349115558599215E-1    4.373189141992320E-3    3.152802755215357E-3
 2.691000000000000E8     6.112020541252972E-3    2.782599370228253E-3    8.879439563874516E-1   -4.347374549293705E-1    8.887574260312642E-1   -4.408383222498574E-1    3.367219057419050E-3    2.876044742285777E-3
 2.730000000000000E8     6.883489808248273E-3    3.430912006057095E-3    8.850787991379894E-1   -4.402384059205351E-1    8.857949591548431E-1   -4.466185210707357E-1    4.206598727984784E-3    2.614186611589133E-3
 2.769000000000000E8     6.751779144079539E-3    2.564069281348547E-3    8.818657661020867E-1   -4.460407906788775E-1    8.825437758469922E-1   -4.523954676170968E-1    4.315500070594485E-3    2.983896816501540E-3
 2.808000000000000E8     7.140416132383184E-3    2.362582678591022E-3    8.790878370473361E-1   -4.518388239314978E-1    8.796070764789343E-1   -4.581438350257573E-1    4.806209458989042E-3    1.653362607282386E-3
 2.847000000000000E8     7.428412496615681E-3    2.930371301133567E-3    8.759750241033858E-1   -4.573983077115340E-1    8.765153940253217E-1   -4.637618942777826E-1    4.996220869842574E-3    1.786171439853199E-3
 2.886000000000000E8     6.483980269879589E-3    3.313881964329114E-3    8.728680869692849E-1   -4.629856093653897E-1    8.736048444693209E-1   -4.694715901540679E-1    6.091949111578283E-3    2.643964568727650E-3
 2.925000000000000E8     7.158643856638338E-3    3.809057315117742E-3    8.699100586265672E-1   -4.686932620290764E-1    8.702321763951334E-1   -4.750701592262048E-1    6.354304569013983E-3    3.119671846872458E-3
 2.964000000000000E8     7.503778179238677E-3    3.913210545100826E-3    8.667351741058996E-1   -4.743265269565261E-1    8.671789292398753E-1   -4.808057146300807E-1    6.060092197336773E-3    2.444811334010140E-3
 3.003000000000000E8     7.520504691169317E-3    3.719648689158988E-3    8.637710569228781E-1   -4.796811238728664E-1    8.638567585059395E-1   -4.863175446366852E-1    6.943376295227567E-3    3.433781382632680E-3
 3.042000000000000E8     7.416089710509912E-3    4.174101925664651E-3    8.603330847767939E-1   -4.852420055600896E-1    8.604159438204807E-1   -4.917968754753757E-1    8.144259756334624E-3    2.947851304876918E-3
 3.081000000000000E8     7.820954315893778E-3    3.590558176095059E-3    8.569577434475762E-1   -4.907407223600698E-1    8.570322490034679E-1   -4.970918259019855E-1    7.601684377724404E-3    3.291833170915765E-3
 3.120000000000000E8     7.865394903954655E-3    3.757551746953594E-3    8.538271244730075E-1   -4.961319673687815E-1    8.539053796252577E-1   -5.026921605446074E-1    8.202999614435880E-3    4.134885336278985E-3
 3.159000000000000E8     6.876564995952173E-3    3.652711654985628E-3    8.504245583656821E-1   -5.018162238427393E-1    8.505444159853836E-1   -5.082067131838660E-1    7.913385065769373E-3    3.382345779018192E-3
 3.198000000000000E8     6.858396212577698E-3    3.380245982368864E-3    8.472823713085901E-1   -5.071371565349576E-1    8.471041736346889E-1   -5.137911488973055E-1    7.570949577195936E-3    4.380965752031710E-3
 3.237000000000000E8     7.098974933450467E-3    2.824450926452806E-3    8.438301646914730E-1   -5.124380153010378E-1    8.437755356825618E-1   -5.192168886369656E-1    7.703015615919719E-3    4.885983889734814E-3
 3.276000000000000E8     7.978331742554601E-3    2.990934149861801E-3    8.403688348209785E-1   -5.179113341778278E-1    8.400558133466099E-1   -5.246281057738561E-1    7.023932793752560E-3    4.034283496022995E-3
 3.315000000000000E8     7.152521658188558E-3    2.391797711831525E-3    8.369643328517570E-1   -5.233909047474241E-1    8.366802762833329E-1   -5.298278585621956E-1    6.486489783387131E-3    4.323845478678808E-3
 3.354000000000000E8     6.534070050404487E-3    2.053073047440956E-3    8.335775211487647E-1   -5.283920650318352E-1    8.331161446895845E-1   -5.351577023659160E-1    6.088792774873474E-3    4.363435019525633E-3
 3.393000000000000E8     7.059491628741520E-3    2.546160385979868E-3    8.301317559044140E-1   -5.339530844468640E-1    8.297538707368217E-1   -5.405579296802259E-1    6.220013054848615E-3    4.537747903592307E-3
 3.432000000000000E8     7.478372788971847E-3    2.635949649550766E-3    8.265800196668945E-1   -5.392172316793302E-1    8.262978882442314E-1   -5.458798075623835E-1    6.072716743169317E-3    4.501464014032227E-3
 3.471000000000000E8     7.192197541815319E-3    2.543715923671735E-3    8.232735710173260E-1   -5.444817396174089E-1    8.227818698379283E-1   -5.510504945148547E-1    5.150803503186988E-3    3.878896846532871E-3
 3.510000000000000E8     8.401925751897837E-3    2.161732801478855E-3    8.195250726620089E-1   -5.498059123609657E-1    8.190872957725912E-1   -5.563070753068140E-1    4.656149975660077E-3    3.509630846635518E-3
 3.549000000000000E8     6.961288168372923E-3    1.264303946304599E-3    8.159040199746399E-1   -5.548905990903079E-1    8.156882026768401E-1   -5.614806863914389E-1    4.024342277872413E-3    4.610458610909030E-3
