#  HZ   S   RI   R     50.00 
! Rohde & Schwarz Vector Network Analyzer 
! Rohde-Schwarz,ZNL20-2Port,1323001220101312,1.72.1.6-23.02.1.246
! Created: UTC 11/12/2024, 8:52:30 PM
! freq[Hz]                re:S11                  im:S11                  re:S21                  im:S21                  re:S12                  im:S12                  re:S22                  im:S22
 1.000000000000000E7     9.121642096742016E-4    2.392927115811919E-3    1.002736987431076      -2.590998841506572E-2    9.998666589262744E-1   -1.906539862062166E-2    4.230092098231112E-3    1.222920287444598E-3
 2.000000000000000E7    -8.516521873233630E-4    5.083007732800635E-3    1.001470433440592      -4.360146195549905E-2    9.972985870687524E-1   -3.640492151458590E-2    4.496029893094517E-3    2.449328879703401E-3
 3.000000000000000E7    -2.718207067187119E-3    4.246253479768484E-3    1.000028879897141      -6.074893048795750E-2    9.957134723795985E-1   -5.286091435190701E-2    3.256569450613291E-3    1.855948627286698E-3
 4.000000000000000E7    -4.484596593056382E-3    3.780874595228648E-3    9.987240976929789E-1   -7.774696058072933E-2    9.940320157339282E-1   -6.957295784204638E-2    3.327171852294804E-3    4.748012564312204E-4
 5.000000000000000E7    -5.485044672861712E-3    1.658701276563703E-3    9.967709432414960E-1   -9.518811774721994E-2    9.921196440640768E-1   -8.697296093663466E-2    2.154052078336712E-3    5.356457588802767E-4
 6.000000000000000E7    -4.969844049095885E-3   -3.682062562302742E-4    9.949601398880635E-1   -1.117970580133295E-1    9.901038678240687E-1   -1.031044399030695E-1    1.736441348503287E-3    2.528212596419957E-4
 7.000000000000000E7    -1.996877505444911E-3   -1.273197574814047E-3    9.922301469353529E-1   -1.285329114945301E-1    9.873303731048196E-1   -1.199264960160664E-1    2.754787325927786E-3    3.112743195777048E-5
 8.000000000000000E7    -5.660967015161025E-4   -1.654144900988426E-3    9.895404994145980E-1   -1.448610702240180E-1    9.848679719996097E-1   -1.365031073447177E-1    2.809927744100786E-3   -1.518526496250769E-4
 9.000000000000000E7     1.925682292333704E-3    4.332526697773901E-4    9.867713478200000E-1   -1.613873208728236E-1    9.823754464704294E-1   -1.530229028677758E-1    3.473304469395578E-3    4.342093389332561E-4
 1.000000000000000E8     1.910771905449169E-3    7.165174802256351E-4    9.837041776540826E-1   -1.778350964505328E-1    9.791997589522781E-1   -1.695268791054766E-1    3.536521749237149E-3    8.200001587489111E-4
 1.100000000000000E8     3.712162153287962E-3    3.063934079260172E-3    9.802597316845284E-1   -1.943272432652146E-1    9.759639740375240E-1   -1.856604930863172E-1    4.753344611476189E-3    6.144601277510327E-4
 1.200000000000000E8     1.527038509378900E-3    5.409766757528828E-3    9.765778498236828E-1   -2.108144550932207E-1    9.724035903901133E-1   -2.021763717280094E-1    5.001727711824274E-3    1.365557853805705E-3
 1.300000000000000E8    -1.033802414505606E-3    6.489767474892573E-3    9.726667967916499E-1   -2.273456218539199E-1    9.685836870229280E-1   -2.186645603139275E-1    4.576831066491770E-3    4.876037027311221E-4
 1.400000000000000E8    -3.042134801236520E-3    7.509798313253766E-3    9.686413095744990E-1   -2.437269013563134E-1    9.647089421495736E-1   -2.347735392721717E-1    3.262090356519193E-3    8.102812366219195E-4
 1.500000000000000E8    -4.487310791239141E-3    5.072471032465364E-3    9.646171727656645E-1   -2.603430858838948E-1    9.603068904515546E-1   -2.515582569370119E-1    3.346177470731168E-3    1.064150225662776E-3
 1.600000000000000E8    -4.302608810509925E-3    2.666011632276290E-3    9.596580363378823E-1   -2.759589296820790E-1    9.556244732470944E-1   -2.671569892579065E-1    2.340606800900469E-3    1.193838078762787E-3
 1.700000000000000E8    -2.342073251670452E-3    2.444208062395477E-4    9.545326370120120E-1   -2.917859364675297E-1    9.508829431095915E-1   -2.829818710209597E-1    3.593180411410636E-3    1.816361229597641E-3
 1.800000000000000E8    -2.493346049062886E-4   -7.936184785438541E-4    9.493112240378362E-1   -3.075691442060789E-1    9.458438136810399E-1   -2.988682071482723E-1    2.941741180439121E-3    1.852113084078107E-3
 1.900000000000000E8     3.948403295790386E-3   -1.521811186790695E-3    9.438116250224121E-1   -3.232879205057863E-1    9.406477690530279E-1   -3.146797452821227E-1    4.203236987390135E-3    2.045049588823874E-3
 2.000000000000000E8     6.311950604286302E-3    1.526410096969842E-3    9.381731202494660E-1   -3.389310884893380E-1    9.350634803053686E-1   -3.304606150079358E-1    4.636589905958031E-3    1.154369992650002E-4
 2.100000000000000E8     8.410692734912009E-3    3.250613165661268E-3    9.321893546796076E-1   -3.546429016343948E-1    9.291967917761645E-1   -3.463445450610957E-1    5.797935291992706E-3    1.763662644842113E-4
 2.200000000000000E8     7.314151234771291E-3    6.967404844639713E-3    9.259048848712188E-1   -3.701530596409595E-1    9.228051880170591E-1   -3.617994152207166E-1    4.346442221031344E-3    1.169349050610545E-3
 2.300000000000000E8     4.881259677394650E-3    9.682027927024073E-3    9.192970168467688E-1   -3.857796629811331E-1    9.161657962453421E-1   -3.770185836449932E-1    4.427017557893192E-3    1.206806761531579E-3
 2.400000000000000E8     9.897371389437121E-4    1.016060485507896E-2    9.125527599479256E-1   -4.013050635511224E-1    9.092386358682285E-1   -3.924300893768164E-1    4.312940751914761E-3    1.648615830155787E-3
 2.500000000000000E8    -2.588614459368983E-3    8.572919407250046E-3    9.053303587973645E-1   -4.162361665419553E-1    9.021403836351657E-1   -4.071147694194530E-1    4.227684185630187E-3    2.358627788363531E-3
 2.600000000000000E8    -2.834772131608633E-3    6.179369821167679E-3    8.982688786865790E-1   -4.310128055443446E-1    8.950555605008830E-1   -4.218865828473821E-1    3.911124131483396E-3    2.378420962448782E-3
 2.700000000000000E8    -2.952315119080073E-3    1.532338147209298E-3    8.906655349401346E-1   -4.458077077519618E-1    8.878196352335664E-1   -4.365009153066808E-1    4.142129449033315E-3    2.547278424934685E-3
 2.800000000000000E8     2.397115156941750E-4   -7.689561351930281E-4    8.828720551684637E-1   -4.605501173462931E-1    8.802585665344754E-1   -4.512165957179296E-1    5.066456266847423E-3    2.544757453470202E-3
 2.900000000000000E8     3.965053910569860E-3   -2.781118930183926E-3    8.749516129689714E-1   -4.749119678142668E-1    8.724657175518715E-1   -4.656248238125881E-1    5.652306925512158E-3    1.248533103258761E-3
 3.000000000000000E8     7.603436393470532E-3   -1.515904796768325E-3    8.663609896254840E-1   -4.893190465129621E-1    8.641498458772520E-1   -4.800275747335465E-1    3.969902628165174E-3    1.180200867770211E-3
 3.100000000000000E8     1.027032362663584E-2    1.955954311929692E-3    8.579556265753150E-1   -5.035921392359902E-1    8.558805258162006E-1   -4.942386497497864E-1    4.097904412731697E-3    4.723976879843876E-4
 3.200000000000000E8     1.079321788142203E-2    5.150804591123524E-3    8.492892170886741E-1   -5.176851437327461E-1    8.473491132022418E-1   -5.083334368039227E-1    4.360367402505824E-3    8.812667043298465E-4
 3.300000000000000E8     7.273961256439624E-3    8.651743955855110E-3    8.404958381092210E-1   -5.317953758176319E-1    8.386365195958122E-1   -5.223626901217950E-1    4.710425915259140E-3    1.611999078553909E-3
 3.400000000000000E8     4.204186761615342E-3    1.056216925245071E-2    8.314917718068860E-1   -5.454904488897449E-1    8.297367769138030E-1   -5.359672220142008E-1    5.209070351317697E-3    2.187690577563319E-3
 3.500000000000000E8    -7.804725867504025E-4    8.597091800033971E-3    8.225796516271653E-1   -5.588291345970098E-1    8.208630564752067E-1   -5.495744379650102E-1    5.631168529809830E-3    2.340921963584892E-3
 3.600000000000000E8    -2.728571452820377E-3    6.188551516182764E-3    8.135151824297032E-1   -5.719858801015621E-1    8.118479314789947E-1   -5.627626327673609E-1    4.546616010207637E-3    1.532997649112262E-3
 3.700000000000000E8    -3.069157292922876E-3    2.694384473138946E-3    8.039084684436828E-1   -5.850986610123361E-1    8.023286942829705E-1   -5.760725164818689E-1    5.591055452450141E-3    2.083943263498320E-3
 3.800000000000000E8     8.317124445294160E-4   -2.275872360384578E-3    7.941935487363277E-1   -5.979942503621728E-1    7.927382334265887E-1   -5.889675835913322E-1    4.425290461660077E-3    1.992738421305495E-3
 3.900000000000000E8     3.508124078221160E-3   -4.078197108775067E-3    7.840989656166616E-1   -6.109691502829205E-1    7.827014619298283E-1   -6.018508729880512E-1    4.435705079517394E-3    7.158207705376257E-4
 4.000000000000000E8     8.991106260414286E-3   -3.269543035959148E-3    7.732408113775697E-1   -6.240118640851444E-1    7.721486770124483E-1   -6.147768766059577E-1    3.730564150801412E-3    1.119620642050081E-3
 4.100000000000000E8     1.123684419718493E-2   -3.757721041723235E-4    7.622402840541495E-1   -6.368286255899221E-1    7.614238645908672E-1   -6.275942025716335E-1    4.568091930098363E-3    1.412357876106059E-3
 4.200000000000000E8     1.169602481248252E-2    3.724268999155490E-3    7.510516916027276E-1   -6.496448424244321E-1    7.501364245667422E-1   -6.404033228336703E-1    4.803158045887462E-3    2.084376732451178E-3
 4.300000000000000E8     1.132165521285095E-2    6.733639670550861E-3    7.460517520372280E-1   -6.554174466174749E-1    7.373918563223372E-1   -6.550669337929933E-1    6.881649592452299E-3    3.427768986259565E-3
 4.400000000000000E8     7.204402808729991E-3    9.511941202145111E-3    7.352561155685974E-1   -6.677611187730701E-1    7.266472444539083E-1   -6.672476330015912E-1    6.975421160306023E-3    3.845240875045328E-3
 4.500000000000000E8     1.443633842025810E-3    9.182830269797947E-3    7.243599479250477E-1   -6.795552061706709E-1    7.155601417323759E-1   -6.789414456402616E-1    6.589031933285805E-3    4.895981335817375E-3
 4.600000000000000E8    -1.719204139262232E-3    6.494153256911238E-3    7.130089190853918E-1   -6.912222736877457E-1    7.040771050469459E-1   -6.905873207047450E-1    6.505832289979217E-3    3.695322633028682E-3
 4.700000000000000E8    -2.697563230823118E-3    2.633951607856462E-3    7.007219906627241E-1   -7.030471469326055E-1    6.917305707606839E-1   -7.024247410963905E-1    7.185749376373757E-3    3.522681977376953E-3
 4.800000000000000E8     1.922419920509635E-3   -2.754293816184892E-3    6.820286901517589E-1   -7.209458965557246E-1    6.816643612937774E-1   -7.121043774265416E-1    4.682674819570555E-3    8.715650597124203E-5
 4.900000000000000E8     5.395032199116655E-3   -4.383259734494981E-3    6.691001780888206E-1   -7.324712815579911E-1    6.690894343151917E-1   -7.235447274798813E-1    3.906774112631888E-3    1.432458344072282E-3
 5.000000000000000E8     9.601907392449233E-3   -1.994857911165077E-3    6.561620965481552E-1   -7.435303262476680E-1    6.564146828430262E-1   -7.342771402650515E-1    4.377523837352536E-3    1.581966908289482E-3
 5.100000000000000E8     1.196432558361087E-2   -1.225040283925463E-3    6.430343453000108E-1   -7.542203499122728E-1    6.435706424115957E-1   -7.451002471357669E-1    3.340451389346522E-3    1.581744344085811E-3
 5.200000000000000E8     1.088599080488633E-2    3.180107524146915E-3    6.304956094765336E-1   -7.648703650590805E-1    6.310073135583247E-1   -7.556407162285637E-1    4.274247502662122E-3    1.700495075204589E-3
 5.300000000000000E8     8.851864209799276E-3    6.356445478351781E-3    6.180233404845639E-1   -7.750666950744882E-1    6.186356491151679E-1   -7.659941873705755E-1    5.092886479663519E-3    2.623889833919660E-3
 5.400000000000000E8     6.053478299645393E-3    7.667426442455830E-3    6.052344803007564E-1   -7.854153107550701E-1    6.059218333249518E-1   -7.761893888309531E-1    5.791306801961483E-3    3.441587406562460E-3
 5.500000000000000E8     3.631558802807869E-3    6.760104867881020E-3    5.921005420023996E-1   -7.949327458776699E-1    5.926148798562517E-1   -7.860019487131213E-1    5.403490868744115E-3    1.454803332927111E-3
 5.600000000000000E8     2.485526827807120E-3    3.135292064882417E-3    5.784738142891582E-1   -8.046452767995625E-1    5.792725166465696E-1   -7.959413801562516E-1    5.797248770768856E-3    1.840971556482085E-3
 5.700000000000000E8     4.268718900134916E-3   -5.709523976008546E-4    5.653795190692630E-1   -8.138617763878055E-1    5.663741931439145E-1   -8.050729419430493E-1    5.313526573678506E-3    1.205563535898763E-3
 5.800000000000000E8     6.625589489486036E-3   -4.332982005496682E-3    5.522719677569794E-1   -8.229292238741687E-1    5.535382786986488E-1   -8.138352078326536E-1    3.089671159055549E-3    2.087077109504294E-3
 5.900000000000000E8     9.006415726114644E-3   -5.037239504273427E-3    5.460509149832065E-1   -8.267970427159517E-1    5.383259030274247E-1   -8.238937462879633E-1    5.275910532654714E-3    1.636162983668372E-3
 6.000000000000000E8     1.216695319316340E-2   -3.841814261343252E-3    5.325278736389676E-1   -8.353516776249530E-1    5.250209968578110E-1   -8.321531865849708E-1    6.487817003905869E-3    2.446689368613364E-3
 6.100000000000000E8     1.327741784134931E-2   -1.833165397802303E-3    5.177235093077545E-1   -8.440437315801698E-1    5.101979116360602E-1   -8.403843121082762E-1    6.777949411382898E-3    2.191065450425175E-3
 6.200000000000000E8     1.259929610029793E-2    3.185365585726074E-3    5.029380349938590E-1   -8.528411856038512E-1    4.954316786459166E-1   -8.492565481673289E-1    6.713684237824700E-3    4.469365095604624E-3
 6.300000000000000E8     8.932424622587296E-3    7.096794910815826E-3    4.883837927394846E-1   -8.613977467246295E-1    4.806851863858509E-1   -8.575745265708733E-1    7.599966224908890E-3    3.217760393980654E-3
 6.400000000000000E8     5.420721040017049E-3    8.357310142517414E-3    4.668983358642663E-1   -8.730301123862708E-1    4.684695755794503E-1   -8.641713176223200E-1    6.297310209925300E-3    3.560140951767023E-3
 6.500000000000000E8     9.414907700760700E-3    5.405215457094353E-3    4.533252012024293E-1   -8.812304278110218E-1    4.555790334026548E-1   -8.720811885374334E-1    5.813223255586517E-3    8.557286776431153E-4
 6.600000000000000E8     8.230661104255497E-3    4.616247344403968E-3    4.382988722560197E-1   -8.885579352682279E-1    4.406569508786225E-1   -8.795899611370359E-1    4.894571111771592E-3    9.719446283075889E-4
 6.700000000000000E8     8.108666711630394E-3    2.251157713471404E-3    4.230556092735346E-1   -8.958356305179914E-1    4.259613502050854E-1   -8.868553067307188E-1    3.755390033457227E-3    2.083665079967170E-3
 6.800000000000000E8     8.907068075125688E-3   -3.466111800914662E-4    4.076019339935799E-1   -9.030870935529841E-1    4.105986450473552E-1   -8.942679900833322E-1    2.957604503496136E-3    2.254489374715035E-3
 6.900000000000000E8     8.918881692010584E-3   -1.161073661486271E-3    3.919840025422368E-1   -9.094591976049465E-1    3.954195138933498E-1   -9.006221033437091E-1    3.797922707733423E-3    4.195216668285490E-3
 7.000000000000000E8     9.870616465929762E-3   -1.801307490241252E-3    3.754482188776913E-1   -9.158255405491921E-1    3.791354273742470E-1   -9.071114932325534E-1    3.991174004876197E-3    4.918303271325440E-3
 7.100000000000000E8     9.929951052749370E-3   -2.439206535277190E-3    3.585239028066904E-1   -9.221701510495252E-1    3.623734632195622E-1   -9.137545829079644E-1    4.877812101598045E-3    5.010077901231411E-3
 7.200000000000000E8     1.077432552778976E-2   -8.747550569289143E-4    3.421517516523528E-1   -9.290138348753557E-1    3.461464191333974E-1   -9.205462089512477E-1    5.954897011615556E-3    4.494538954854813E-3
 7.300000000000000E8     1.124639226500257E-2    8.053311049328188E-4    3.283836657808666E-1   -9.338820489224163E-1    3.323118849945279E-1   -9.252725981141352E-1    5.638719190192876E-3    4.239711650163264E-3
 7.400000000000000E8     1.185941118379330E-2    1.341610964817497E-3    3.158228979586075E-1   -9.374951390221226E-1    3.198520820792279E-1   -9.289444104940392E-1    5.221385812733584E-3    2.848987506515795E-3
 7.500000000000000E8     1.110180024053240E-2    1.209600819176357E-3    3.023235429686496E-1   -9.409462635226872E-1    3.066281523965990E-1   -9.327137505643113E-1    4.654512514168346E-3    2.611646736525558E-3
 7.600000000000000E8     1.157047757333833E-2    5.569116058535759E-4    2.861660318476525E-1   -9.459885681078943E-1    2.907387957395460E-1   -9.375904199333601E-1    3.212645482256814E-3    3.027551235765952E-3
 7.700000000000000E8     1.220044137445053E-2   -1.767546119821637E-3    2.694794143886275E-1   -9.506747462856813E-1    2.740831595033098E-1   -9.427154481487978E-1    3.828009935491677E-3    4.184647343621208E-3
 7.800000000000000E8     1.093002205978882E-2   -1.227247919479663E-3    2.530923319659231E-1   -9.548971168140592E-1    2.578783283142363E-1   -9.468999145166370E-1    3.531444663633601E-3    5.115827051653782E-3
 7.900000000000000E8     1.077349479094705E-2   -2.743646222376300E-3    2.367574925225757E-1   -9.588542433965312E-1    2.416900691734495E-1   -9.508195825471397E-1    4.503545459989558E-3    5.014726717818677E-3
 8.000000000000000E8     9.278515301431204E-3   -1.607809448792151E-3    2.205053466604983E-1   -9.627089719488663E-1    2.257174186616439E-1   -9.549985205738560E-1    4.662434411829343E-3    6.166493330018522E-3
 8.100000000000000E8     9.994457618392613E-3   -2.407037478513431E-3    2.041041980522881E-1   -9.660178146041061E-1    2.092844340375854E-1   -9.583558641788665E-1    5.475323661647179E-3    5.385413855594594E-3
 8.200000000000000E8     9.842714089504580E-3   -3.731993212646259E-3    1.872403620277310E-1   -9.693484319142242E-1    1.927230735335074E-1   -9.615793732913903E-1    5.937801200989315E-3    4.823416019572303E-3
 8.300000000000000E8     1.021203384585875E-2   -3.655027085168606E-3    1.702023725435303E-1   -9.725430546208098E-1    1.757719052556427E-1   -9.648320462324641E-1    5.688898950908419E-3    3.936224433343811E-3
 8.400000000000000E8     1.126600673853144E-2   -3.562202621033815E-3    1.537134525642513E-1   -9.749192672949341E-1    1.595423862111831E-1   -9.674301948725759E-1    5.566686696106438E-3    3.210249785788516E-3
 8.500000000000000E8     1.244300990394750E-2   -4.057185197366413E-3    1.374208671115705E-1   -9.777668713397087E-1    1.433807355312325E-1   -9.703205606192634E-1    4.626887475095581E-3    4.670782111579813E-3
 8.600000000000000E8     1.349327038375946E-2   -4.154501920308855E-3    1.211173462071540E-1   -9.798422567031675E-1    1.270605457074502E-1   -9.724396276229859E-1    4.604590723865785E-3    4.497201474336333E-3
 8.700000000000000E8     1.295843200162643E-2   -4.083781441828021E-3    1.050704601706176E-1   -9.810575137855526E-1    1.109482122497031E-1   -9.739054734257029E-1    4.456621006582055E-3    5.374514436292874E-3
 8.800000000000000E8     1.214366867202441E-2   -4.044869095565805E-3    8.871464298280000E-2   -9.824641309146325E-1    9.481160297325177E-2   -9.752609967870026E-1    6.192902525917261E-3    7.121186600914238E-3
 8.900000000000000E8     1.102085579761280E-2   -3.837050153285414E-3    7.260143560163673E-2   -9.834732893864453E-1    7.880281676251430E-2   -9.764441547757858E-1    5.708498708526778E-3    6.834832795378692E-3
 9.000000000000000E8     8.683389898626288E-3   -4.738120438115494E-3    6.393970342597037E-2   -9.837345597977293E-1    5.960303204768133E-2   -9.776971755336544E-1    7.307503750186697E-3    4.065421406605464E-3
 9.100000000000000E8     8.862530080956499E-3   -4.812105374207894E-3    4.824627534032064E-2   -9.844973568688200E-1    4.400987457833808E-2   -9.784434717233600E-1    9.111373049721559E-3    4.322380459956076E-3
