#  HZ   S   RI   R     50.00 
! Rohde & Schwarz Vector Network Analyzer 
! Rohde-Schwarz,ZNL20-2Port,1323001220101312,1.72.1.6-23.02.1.246
! Created: UTC 10/2/2024, 9:20:31 PM
! freq[Hz]                re:S11                  im:S11                  re:S21                  im:S21                  re:S12                  im:S12                  re:S22                  im:S22
 1.000000000000000E4     2.679273111573044E-2   -1.120803730436310E-1    9.990844762768860E-1    8.748585543914456E-2    9.930482926311703E-1    8.967486795565274E-2    1.952706310641814E-2   -1.061011918024498E-1
 1.014629154715493E4     2.858728484458196E-2   -1.132827559379785E-1    9.984695217462054E-1    8.860483157605606E-2    9.918469358873849E-1    9.097199917752398E-2    1.962587056935204E-2   -1.086332911714160E-1
 1.029472321598677E4     2.948024082535915E-2   -1.134954674245752E-1    9.987762741364733E-1    8.907455154077366E-2    9.918833488972014E-1    9.201607805292639E-2    1.811356475995189E-2   -1.077099907498156E-1
 1.044532631466662E4     2.677271645251715E-2   -1.200811093301745E-1    9.981760054657692E-1    8.955697392068052E-2    9.927324845507276E-1    9.189703423762231E-2    1.855384086859078E-2   -1.065538045304433E-1
 1.059813260937769E4     2.483548650642936E-2   -1.129806951088356E-1    9.971609093629810E-1    9.121878660716967E-2    9.912797526191824E-1    9.283069758662954E-2    2.131186063110593E-2   -1.069579785633599E-1
 1.075317433101560E4     2.867193491679799E-2   -1.170846045301283E-1    9.978229632345893E-1    9.173629018606794E-2    9.915014129628981E-1    9.368789884080896E-2    2.208227968679040E-2   -1.092452093162367E-1
 1.091048418198669E4     2.906506317818545E-2   -1.181965488330931E-1    9.967718736384787E-1    9.208010360160765E-2    9.906709327809099E-1    9.472661811831273E-2    1.742781821579609E-2   -1.071125525361410E-1
 1.107009534310592E4     2.361985526297290E-2   -1.182146401103613E-1    9.970071570158719E-1    9.224798597410533E-2    9.905977720098572E-1    9.468646331413814E-2    1.680933659113638E-2   -1.124122269243034E-1
 1.123204148059547E4     2.858753179873173E-2   -1.161488394575963E-1    9.963688261501356E-1    9.320492557501447E-2    9.899316232453333E-1    9.592826872675203E-2    2.008523987907371E-2   -1.098149804843236E-1
 1.139635675318595E4     2.699473114118520E-2   -1.170905355748114E-1    9.962172271034778E-1    9.432071844774244E-2    9.897479739560107E-1    9.678300688912181E-2    1.846400418634919E-2   -1.093888255155886E-1
 1.156307581932126E4     2.734663905145050E-2   -1.191294392283590E-1    9.958910610578325E-1    9.448668912137215E-2    9.894618531688584E-1    9.753060693699808E-2    1.565237410709681E-2   -1.110558984735014E-1
 1.173223384446908E4     3.030314681689072E-2   -1.187259190803194E-1    9.957015264912742E-1    9.529446998903615E-2    9.892693404161577E-1    9.833080385111094E-2    1.767049190393281E-2   -1.092103763606751E-1
 1.190386650853819E4     2.688431246244325E-2   -1.181943431407356E-1    9.969855757187691E-1    9.543042928004761E-2    9.897421902001861E-1    9.760970486106640E-2    1.769863923157920E-2   -1.165943864527200E-1
 1.207801001340417E4     2.906102402214398E-2   -1.165190706302134E-1    9.949895690470676E-1    9.595071681868272E-2    9.886990219999250E-1    9.954183211591067E-2    1.499972386070268E-2   -1.100013377852235E-1
 1.225470109054552E4     2.775490072928276E-2   -1.213688088575270E-1    9.956019761860969E-1    9.713546518370766E-2    9.895895300405458E-1    9.977196606618291E-2    1.923371583640559E-2   -1.140202639146407E-1
 1.243397700879126E4     2.928574531686670E-2   -1.196160349880457E-1    9.948950881688563E-1    9.808634008986261E-2    9.885526055896734E-1    1.008759668053452E-1    1.989874664686417E-2   -1.127072764066821E-1
 1.261587558218175E4     2.882813873613359E-2   -1.216625482294994E-1    9.959128359998927E-1    9.912459088013865E-2    9.892898689636880E-1    1.013095046047531E-1    1.990518110372569E-2   -1.148863697856286E-1
 1.280043517794489E4     2.840275319207804E-2   -1.212746591342986E-1    9.942156933726354E-1    9.895623274642656E-2    9.875224959535618E-1    1.017792129590666E-1    1.755355564695070E-2   -1.158861222341950E-1
 1.298769472458868E4     2.502534674924561E-2   -1.224212963895301E-1    9.945627292010676E-1    9.909621158772768E-2    9.878575582193019E-1    1.009637959891839E-1    2.008181104890401E-2   -1.166143949045653E-1
 1.317769372011231E4     3.054304480900050E-2   -1.181337995982870E-1    9.944864890978430E-1    1.003800149558759E-1    9.875728168144839E-1    1.023900982181004E-1    2.193161393851958E-2   -1.169307431275009E-1
 1.337047224033721E4     2.871004116917095E-2   -1.243079466957025E-1    9.944452626689334E-1    9.933980212329413E-2    9.881230924558722E-1    1.028875120101996E-1    1.416143696982881E-2   -1.164431899551455E-1
 1.356607094736030E4     2.386310346391375E-2   -1.218600874029549E-1    9.930636370059108E-1    1.004276506444930E-1    9.872524005121298E-1    1.025613017282749E-1    1.688154569314739E-2   -1.136566555709884E-1
 1.376453109813061E4     2.696790924968475E-2   -1.239029496266507E-1    9.939207688098303E-1    1.005165946290374E-1    9.873921332616380E-1    1.032081897448245E-1    1.718883830809200E-2   -1.164084565160453E-1
 1.396589455315138E4     2.694830888132493E-2   -1.205026524075441E-1    9.939475790947335E-1    1.013892797795031E-1    9.874669564959460E-1    1.039971273238498E-1    1.926548622020547E-2   -1.153647187628461E-1
 1.417020378530968E4     2.295696833992846E-2   -1.221225955073169E-1    9.933810837239641E-1    1.018157307031713E-1    9.872288664471612E-1    1.038541740024589E-1    1.764067610792829E-2   -1.142442080331709E-1
 1.437750188883507E4     2.468546659906766E-2   -1.219626913971742E-1    9.929515617608384E-1    1.011103620134955E-1    9.869759107448450E-1    1.030837058266689E-1    1.695811293581733E-2   -1.144219743700569E-1
 1.458783258838913E4     2.468942015866895E-2   -1.228937888738923E-1    9.935189404913906E-1    1.019199155171701E-1    9.874860701703703E-1    1.043816026014560E-1    1.681639636446982E-2   -1.152219923852604E-1
 1.480124024828838E4     2.307763080376458E-2   -1.227085930514114E-1    9.931902107597623E-1    1.025099274637442E-1    9.869340859501230E-1    1.040273275302687E-1    1.749569020227740E-2   -1.162897005850992E-1
 1.501776988186177E4     2.435599994686810E-2   -1.228823851796661E-1    9.932222635527662E-1    1.028873648471994E-1    9.869335300626773E-1    1.044460880277145E-1    2.059080162211376E-2   -1.165434997159126E-1
 1.523746716094522E4     2.490835697804112E-2   -1.235714268497553E-1    9.928426754760122E-1    1.027306403751621E-1    9.869039489931513E-1    1.047997370900097E-1    1.903444540779750E-2   -1.159560116147966E-1
 1.546037842551493E4     2.849479975362320E-2   -1.208553001151106E-1    9.930542131878610E-1    1.029294170199948E-1    9.865740838494460E-1    1.056720525437527E-1    1.735308934910081E-2   -1.148138734598154E-1
 1.568655069346186E4     2.471179949583937E-2   -1.189279258896406E-1    9.932632557342455E-1    1.022786298729965E-1    9.861539184376333E-1    1.048143137210508E-1    1.423921537484721E-2   -1.175560187701548E-1
 1.591603167050896E4     2.500738264216312E-2   -1.235057780629911E-1    9.924772797090903E-1    1.027795958204443E-1    9.865135953883204E-1    1.052464533837289E-1    1.814290604265324E-2   -1.154134378433191E-1
 1.614886976027352E4     2.862597367238606E-2   -1.212268779875895E-1    9.930160592559837E-1    1.026690585754542E-1    9.865861162645632E-1    1.051405420431843E-1    1.641020038365541E-2   -1.152788462216821E-1
 1.638511407447690E4     2.287716707902218E-2   -1.216396907706303E-1    9.926440322677920E-1    1.033577788194750E-1    9.862048181695682E-1    1.051003364971269E-1    1.768853389883181E-2   -1.173316067558021E-1
 1.662481444330346E4     2.578203260974440E-2   -1.230921995054166E-1    9.924297825351325E-1    1.029319892413834E-1    9.860141213482092E-1    1.054114508530918E-1    1.555222589761489E-2   -1.158920087043544E-1
 1.686802142591090E4     2.500494854989629E-2   -1.207688307170560E-1    9.926964416487140E-1    1.031283514305945E-1    9.859300764218195E-1    1.050713316197511E-1    1.620024141968572E-2   -1.181555295303590E-1
 1.711478632109480E4     2.243232347027443E-2   -1.206490141330436E-1    9.925767034446068E-1    1.028807382071169E-1    9.863296828010886E-1    1.051603719902456E-1    1.382320312148998E-2   -1.143938040430790E-1
 1.736516117810873E4     2.349884353221792E-2   -1.214236370308092E-1    9.925676175100038E-1    1.029479068512355E-1    9.860726116919322E-1    1.056173108334912E-1    1.354452445337087E-2   -1.143586716601170E-1
 1.761919880764275E4     2.550193710677296E-2   -1.207212535796894E-1    9.926990639701766E-1    1.029403212846379E-1    9.864973715159037E-1    1.056375410801355E-1    1.267648684577729E-2   -1.139721653670922E-1
 1.787695279296278E4     2.183050665274395E-2   -1.196543486759297E-1    9.924080448068536E-1    1.032095473200234E-1    9.864543349395873E-1    1.053794561312186E-1    1.448962849981360E-2   -1.113961347931848E-1
 1.813847750121259E4     2.452200368026812E-2   -1.192288399663224E-1    9.928808917586806E-1    1.026548150821077E-1    9.862880482666277E-1    1.050980768299058E-1    1.358410368451803E-2   -1.162230950426927E-1
 1.840382809488136E4     2.254748255245386E-2   -1.166333769374079E-1    9.928631514734840E-1    1.024986097136529E-1    9.861936298162295E-1    1.048048863034276E-1    1.521704235639697E-2   -1.145515441945334E-1
 1.867306054343870E4     2.369911956766824E-2   -1.181141657468064E-1    9.925909120289640E-1    1.022503962594446E-1    9.861427711145493E-1    1.047561464856362E-1    1.216137165328008E-2   -1.131019949419942E-1
 1.894623163514043E4     2.420149035992734E-2   -1.177078256480588E-1    9.924077257967040E-1    1.020650555774979E-1    9.861520102366396E-1    1.046019597732575E-1    1.181595108834788E-2   -1.125048433663845E-1
 1.922339898900651E4     2.255996943174614E-2   -1.175089771573336E-1    9.928211123366508E-1    1.020403216364436E-1    9.861052795290459E-1    1.043219233262698E-1    1.403401129563819E-2   -1.122712305154932E-1
 1.950462106697433E4     2.244417901877506E-2   -1.153550253004099E-1    9.927123842231704E-1    1.016713739231389E-1    9.863990230376707E-1    1.041640969736434E-1    1.220422297589221E-2   -1.090576688187719E-1
 1.978995718623015E4     2.182544445735037E-2   -1.156862307650731E-1    9.930014798072606E-1    1.013742572540757E-1    9.863205885367894E-1    1.032620814368611E-1    1.418110956498952E-2   -1.111991819015012E-1
 2.007946753172049E4     2.415533772041503E-2   -1.144236603178751E-1    9.932834078508929E-1    1.010533810768405E-1    9.866551545820713E-1    1.035099559008263E-1    1.338632754110064E-2   -1.093734775248103E-1
 2.037321316884679E4     2.136998227273620E-2   -1.152589343129465E-1    9.930800423591752E-1    1.006965618471878E-1    9.864095821740789E-1    1.028940851750663E-1    1.137115187478111E-2   -1.108805933158334E-1
 2.067125605634556E4     2.069913422408198E-2   -1.149492151566746E-1    9.931299389501635E-1    1.004001157472156E-1    9.863505196422481E-1    1.025903434875112E-1    1.524285991501536E-2   -1.098946592991408E-1
 2.097365905935741E4     2.230874767420586E-2   -1.152512180138591E-1    9.931019256355582E-1    1.003447273593905E-1    9.863747179621375E-1    1.024093998745735E-1    1.359431970796871E-2   -1.098897456120046E-1
 2.128048596268678E4     1.876295806576132E-2   -1.149235035625194E-1    9.930911620600222E-1    9.970309695930708E-2    9.866015054927703E-1    1.018499019709791E-1    1.125773215141391E-2   -1.082377494136417E-1
 2.159180148425580E4     1.977927207392510E-2   -1.135645463525887E-1    9.932435349305704E-1    9.885579737572302E-2    9.867855468883097E-1    1.012133282995660E-1    1.151373880354164E-2   -1.075101060428783E-1
 2.190767128875518E4     1.820710502432909E-2   -1.112846571572522E-1    9.935806740929319E-1    9.882745588261879E-2    9.867131003976580E-1    1.008653504345209E-1    1.095428729438811E-2   -1.068818938737767E-1
 2.222816200149459E4     2.035564931907227E-2   -1.095484922923795E-1    9.936148947743692E-1    9.824891098655847E-2    9.870767521736860E-1    1.005323007052862E-1    1.254623311231928E-2   -1.045006011610807E-1
 2.255334122245549E4     1.888335036233691E-2   -1.122690618506820E-1    9.938299302286918E-1    9.691224411885133E-2    9.870894588721574E-1    9.942277238986516E-2    8.108801489038028E-3   -1.084663553802803E-1
 2.288327754055009E4     1.788290209956945E-2   -1.103196507348278E-1    9.934740087708626E-1    9.684669769696980E-2    9.868330804424126E-1    9.932015537672978E-2    9.277724451558826E-3   -1.039711892563311E-1
 2.321804054808841E4     1.998598589013381E-2   -1.113002130087860E-1    9.936985865299257E-1    9.602122741597130E-2    9.869815839472689E-1    9.898894585246022E-2    9.215981018392456E-3   -1.047944238194741E-1
 2.355770085545698E4     1.808160610264417E-2   -1.085548965854716E-1    9.939068778693890E-1    9.586765162214696E-2    9.873011319445423E-1    9.845983054876603E-2    9.078064808422659E-3   -1.040836031158236E-1
 2.390233010601275E4     1.783189435295236E-2   -1.090649586594676E-1    9.937842374087263E-1    9.531169856953370E-2    9.874208944689997E-1    9.778722739783674E-2    1.092975994587451E-2   -1.020069095092367E-1
 2.425200099119439E4     1.895051876837099E-2   -1.078179130468727E-1    9.942568969985091E-1    9.444701949004747E-2    9.873775222979433E-1    9.684808182260973E-2    8.228568217364257E-3   -1.004130435852795E-1
 2.460678726585491E4     1.835667325365720E-2   -1.069159258748967E-1    9.943257577453964E-1    9.346635980068729E-2    9.877375019982406E-1    9.639501460231026E-2    9.502825774734283E-3   -9.970596723207942E-2
 2.496676376381832E4     1.790850109916513E-2   -1.054588829410204E-1    9.944498014113471E-1    9.283971981613588E-2    9.878799320625948E-1    9.535082363010836E-2    7.644969228498919E-3   -9.875349148167017E-2
 2.533200641366437E4     1.654733201085683E-2   -1.053393805260139E-1    9.944244574075607E-1    9.208306968281577E-2    9.881378700024263E-1    9.461796710009945E-2    9.306608430572631E-3   -9.926973327415647E-2
 2.570259225474378E4     1.668906529095461E-2   -1.041586678799098E-1    9.948368608589342E-1    9.088060683304065E-2    9.880473361352913E-1    9.350718265071506E-2    8.657911156163250E-3   -9.863249839369585E-2
 2.607859945342765E4     1.660041248543001E-2   -1.023086287723083E-1    9.950104048412661E-1    9.028602547900517E-2    9.883077447135864E-1    9.272483146675940E-2    7.254405560097663E-3   -9.726846607034084E-2
 2.646010731959520E4     1.564885460790094E-2   -1.024450770922372E-1    9.950195022194499E-1    8.943976625777754E-2    9.885580412913945E-1    9.206137940765077E-2    7.370141068640253E-3   -9.573218593945357E-2
 2.684719632336216E4     1.736923273730030E-2   -1.023264493456877E-1    9.951661149598716E-1    8.869107322121547E-2    9.883993035886194E-1    9.137176988164560E-2    7.379311801846537E-3   -9.539812466949393E-2
 2.723994811205383E4     1.707942650087312E-2   -1.005899569948089E-1    9.951126921665751E-1    8.743329140433864E-2    9.884294497845334E-1    9.041829861348395E-2    6.565969758129528E-3   -9.215872570121186E-2
 2.763844552742707E4     1.457113128135312E-2   -9.915775079478592E-2    9.955388434865066E-1    8.672080085659392E-2    9.888989194314542E-1    8.940503519376414E-2    7.703049567457688E-3   -9.195514994730650E-2
 2.804277262314357E4     1.571308117466750E-2   -9.763055104045676E-2    9.956535491208728E-1    8.593354654136755E-2    9.890880626786643E-1    8.885016830865185E-2    6.230585763358245E-3   -9.121525878274747E-2
 2.845301468249892E4     1.465275473714988E-2   -9.733997406783446E-2    9.956151007564650E-1    8.462444545755715E-2    9.886677138391464E-1    8.734202966118554E-2    7.992519047669615E-3   -9.048577841167779E-2
 2.886925823641139E4     1.562846704255131E-2   -9.529865773076091E-2    9.960117659926014E-1    8.362064006172601E-2    9.892050596310625E-1    8.647904568738408E-2    6.747890622107252E-3   -9.074032618402647E-2
 2.929159108167336E4     1.458482942960457E-2   -9.318930054606372E-2    9.960793426663341E-1    8.263306986900866E-2    9.892153072959352E-1    8.552409984107379E-2    6.296112250926370E-3   -8.802079424957517E-2
 2.972010229947017E4     1.448210730871105E-2   -9.257757383395884E-2    9.963276563580004E-1    8.120937770369881E-2    9.893079970513994E-1    8.449234420768782E-2    3.448849197353823E-3   -8.621968424101514E-2
 3.015488227416939E4     1.258016292490670E-2   -9.166094223580359E-2    9.966688036903287E-1    7.996341129622234E-2    9.897616570504130E-1    8.287247462522367E-2    3.436667026971275E-3   -8.658502529061124E-2
 3.059602271238568E4     1.166448356742630E-2   -9.150011541074299E-2    9.962800996006753E-1    7.910298738677830E-2    9.898931424085180E-1    8.190480248869943E-2    4.569673330952999E-3   -8.325066727137881E-2
 3.104361666232397E4     1.476494962979730E-2   -9.020043949807301E-2    9.966738546805669E-1    7.766589825331917E-2    9.900673353317773E-1    8.071599698537102E-2    3.914903252944840E-3   -8.261354133085833E-2
 3.149775853340555E4     1.293982512066851E-2   -8.617050873809425E-2    9.971215092982151E-1    7.667914986482739E-2    9.903691101581807E-1    7.946499422396430E-2    5.433592748199290E-3   -8.265339239795234E-2
 3.195854411618198E4     1.391757143052951E-2   -8.365126691109157E-2    9.973606966834216E-1    7.534515678667840E-2    9.907072966657703E-1    7.839686072098517E-2    4.890418713090743E-3   -8.113886773276427E-2
 3.242607060253950E4     1.198737979467270E-2   -8.642900963978416E-2    9.971909188549319E-1    7.397886324670809E-2    9.903803739311434E-1    7.680733982357460E-2    5.680584306192279E-3   -7.983628730589350E-2
 3.290043660619961E4     1.137445525209660E-2   -8.266385930477591E-2    9.973104873814694E-1    7.232336020233128E-2    9.904966147742200E-1    7.557591085117564E-2    2.105402933219248E-3   -7.531301793682436E-2
 3.338174218351897E4     1.002789799624104E-2   -8.217279324595914E-2    9.974523580186496E-1    7.137376630458450E-2    9.906986239511827E-1    7.422248835417174E-2    3.541137080992235E-3   -7.514694119509006E-2
 3.387008885459435E4     1.046353606330756E-2   -8.127276438162256E-2    9.975065711029896E-1    6.966230197745414E-2    9.911162373674645E-1    7.252268226171645E-2    3.994757166495776E-3   -7.501024664479251E-2
 3.436557962467577E4     1.037346444421770E-2   -7.663324891899492E-2    9.980841862004818E-1    6.794207911490839E-2    9.912075739009445E-1    7.126094150821262E-2    2.426014140384675E-3   -7.208528777011694E-2
 3.486831900589274E4     1.031380582255263E-2   -7.673847395457284E-2    9.981578673165477E-1    6.661161217676857E-2    9.913052289487453E-1    6.981680924130862E-2    1.184191297462457E-3   -7.086821505635979E-2
 3.537841303929910E4     8.828624673679251E-3   -7.596200134837408E-2    9.978976444310241E-1    6.510656231927604E-2    9.914033789838828E-1    6.832695839325255E-2    1.861893213622555E-3   -7.006157085369147E-2
 3.589596931723969E4     9.169237368598789E-3   -7.279294064359421E-2    9.983811011725342E-1    6.341690133371440E-2    9.918421350890027E-1    6.681915676026856E-2    2.443168260726288E-3   -6.749337964878599E-2
 3.642109700604417E4     9.638651184994110E-3   -7.301731346721967E-2    9.985479007045454E-1    6.186066995466970E-2    9.916666416137092E-1    6.525027703809347E-2    1.275609216984273E-3   -6.780243267749556E-2
 3.695390686905356E4     8.312689604651390E-3   -7.042078536127654E-2    9.986042099032716E-1    5.997913881502530E-2    9.920398956226316E-1    6.354615560926087E-2    1.639064572186537E-3   -6.331562609287084E-2
