#  HZ   S   RI   R     50.00 
! Rohde & Schwarz Vector Network Analyzer 
! Rohde-Schwarz,ZNL20-2Port,1323001220101312,1.72.1.6-23.02.1.246
! Created: UTC 10/2/2024, 9:17:26 PM
! freq[Hz]                re:S11                  im:S11                  re:S21                  im:S21                  re:S12                  im:S12                  re:S22                  im:S22
 1.000000000000000E4     2.164891259342103E-2   -8.730140832876471E-2    1.003641698493764       6.229599515908300E-2    9.979763947095371E-1    6.413326150299622E-2    1.452929623613424E-2   -8.137775504767045E-2
 1.014629154715493E4     2.348933913343631E-2   -8.886774988171597E-2    1.003103313263320       6.384362483941053E-2    9.969920092141218E-1    6.572179342764763E-2    1.460797836526471E-2   -8.444108175164941E-2
 1.029472321598677E4     2.438271553794921E-2   -8.945490713844395E-2    1.003253067249409       6.465602451294966E-2    9.968933154918768E-1    6.713254788534884E-2    1.315885633308933E-2   -8.373578017255656E-2
 1.044532631466662E4     2.137372251531308E-2   -9.638704130780734E-2    1.002808813522588       6.544137539989539E-2    9.976564367848376E-1    6.736866527845764E-2    1.368706923372055E-2   -8.287540577770530E-2
 1.059813260937769E4     1.988603461682312E-2   -8.952373473310746E-2    1.001590147162424       6.748808216591345E-2    9.959482718492816E-1    6.872245314941955E-2    1.645651435181657E-2   -8.375457289988925E-2
 1.075317433101560E4     2.363511469163852E-2   -9.405718286626305E-2    1.002435347266749       6.844815744362424E-2    9.963382677568948E-1    7.001905580150153E-2    1.713168626541538E-2   -8.641169704984017E-2
 1.091048418198669E4     2.396231995472678E-2   -9.557047512662470E-2    1.001184499216623       6.906619133654084E-2    9.954730414935559E-1    7.123450194909346E-2    1.270211757680215E-2   -8.444154301691992E-2
 1.107009534310592E4     1.859792787523590E-2   -9.567244717594930E-2    1.001442395829519       6.947575448817357E-2    9.953743588987972E-1    7.151413445067403E-2    1.182909018582143E-2   -9.003223281240466E-2
 1.123204148059547E4     2.366929989328537E-2   -9.409131438443352E-2    1.000678112404655       7.089119783931087E-2    9.946336295220612E-1    7.319708706427866E-2    1.527466560292318E-2   -8.792685600097719E-2
 1.139635675318595E4     2.207831452002803E-2   -9.529916732990446E-2    1.000506297777341       7.232823691592741E-2    9.944208162453144E-1    7.429312754487520E-2    1.369250052315580E-2   -8.776385466499242E-2
 1.156307581932126E4     2.245837238866080E-2   -9.770572085439155E-2    1.000220861476390       7.283368684290281E-2    9.941556957995743E-1    7.537479914042924E-2    1.085417010009487E-2   -8.956988739046803E-2
 1.173223384446908E4     2.550436826098833E-2   -9.767460893136862E-2    9.999505316262400E-1    7.409773985898553E-2    9.938556573490239E-1    7.657010444579564E-2    1.304206982055169E-2   -8.809967534602559E-2
 1.190386650853819E4     2.203157322460533E-2   -9.725963425302409E-2    1.001081141950886       7.435790541233561E-2    9.943777319900584E-1    7.622208899253327E-2    1.286439072710015E-2   -9.584977342311088E-2
 1.207801001340417E4     2.442386286237171E-2   -9.600170873701488E-2    9.990622401077061E-1    7.532569222583541E-2    9.932037940063984E-1    7.846103832130844E-2    1.042779903223661E-2   -8.934492327692770E-2
 1.225470109054552E4     2.293276321706060E-2   -1.011683462420449E-1    9.998903899150495E-1    7.672588704717569E-2    9.941333959283496E-1    7.887580975746594E-2    1.452714881999991E-2   -9.391224405114809E-2
 1.243397700879126E4     2.460603302216250E-2   -9.976194318050288E-2    9.991172078982944E-1    7.804102394841193E-2    9.929947138175046E-1    8.040777048640567E-2    1.527169341154248E-2   -9.289886954150017E-2
 1.261587558218175E4     2.412401446288606E-2   -1.020339973114862E-1    9.999187506627585E-1    7.936329295522784E-2    9.936036963358543E-1    8.106806558883070E-2    1.528519224057088E-2   -9.535504545364840E-2
 1.280043517794489E4     2.366067079427436E-2   -1.019038934492706E-1    9.981616815285589E-1    7.947583867253694E-2    9.917890674517014E-1    8.188391499607489E-2    1.288702877589493E-2   -9.652677745817984E-2
 1.298769472458868E4     2.038817707369034E-2   -1.032450859100416E-1    9.986291625029997E-1    7.983437790935038E-2    9.921497514194777E-1    8.141905773444622E-2    1.551235117635883E-2   -9.763785574301684E-2
 1.317769372011231E4     2.612470830324433E-2   -9.936896488547980E-2    9.984292842669172E-1    8.149064189773443E-2    9.918687890609301E-1    8.320335905357676E-2    1.735603992217814E-2   -9.834583984785047E-2
 1.337047224033721E4     2.408448736274081E-2   -1.058383183171645E-1    9.983782292140460E-1    8.069930946318020E-2    9.923746658254328E-1    8.378872224768957E-2    9.694653356026421E-3   -9.776331471263680E-2
 1.356607094736030E4     1.938008300684925E-2   -1.034679748168577E-1    9.968759052592888E-1    8.207518299505123E-2    9.912542611579334E-1    8.374333969350155E-2    1.250497276166023E-2   -9.537498996062975E-2
 1.376453109813061E4     2.253579972470054E-2   -1.059262795684166E-1    9.978603991295303E-1    8.243708886758840E-2    9.915266083732340E-1    8.480583581583070E-2    1.275092740350393E-2   -9.831407726617347E-2
 1.396589455315138E4     2.256960366253399E-2   -1.026193196958169E-1    9.977487327752582E-1    8.360192516726667E-2    9.916284993557873E-1    8.582355741852729E-2    1.500238067280280E-2   -9.770436251474422E-2
 1.417020378530968E4     1.856814278763056E-2   -1.044917811982261E-1    9.971538298849550E-1    8.416998980980744E-2    9.911685602391311E-1    8.589591482228592E-2    1.340470655333752E-2   -9.669954270593502E-2
 1.437750188883507E4     2.037535082568351E-2   -1.046324195700715E-1    9.966999426986921E-1    8.376829540192399E-2    9.908932768784291E-1    8.544497372424131E-2    1.273626154909639E-2   -9.710007467386624E-2
 1.458783258838913E4     2.041267846503028E-2   -1.057434650095185E-1    9.972909874083717E-1    8.488529401263617E-2    9.914646229214485E-1    8.699623491435930E-2    1.264281330804693E-2   -9.812866040441871E-2
 1.480124024828838E4     1.891975262767627E-2   -1.057435167569246E-1    9.969396502246051E-1    8.569703293500204E-2    9.907994635835757E-1    8.681215535207282E-2    1.330398072723997E-2   -9.953276009560934E-2
 1.501776988186177E4     2.009098132857922E-2   -1.061885217958764E-1    9.968315784956993E-1    8.632431766630641E-2    9.908235867066967E-1    8.755734532145067E-2    1.650228496237414E-2   -1.001079672697432E-1
 1.523746716094522E4     2.074920861107590E-2   -1.071890662628305E-1    9.964405710286653E-1    8.641042011515057E-2    9.907299003607780E-1    8.811783434885383E-2    1.499058899615517E-2   -9.973680766011059E-2
 1.546037842551493E4     2.447181601137860E-2   -1.047789745270335E-1    9.965785542735089E-1    8.692445358530125E-2    9.903862119482139E-1    8.925782175679767E-2    1.339061167302610E-2   -9.877329513396704E-2
 1.568655069346186E4     2.085008192677529E-2   -1.029694987288443E-1    9.966991865040070E-1    8.641323166889643E-2    9.898718405105429E-1    8.863374770576229E-2    1.022946873680133E-2   -1.015725889799989E-1
 1.591603167050896E4     2.105864126622297E-2   -1.077930726525022E-1    9.960431670066490E-1    8.715894755361916E-2    9.901336595711141E-1    8.923290684981613E-2    1.415991554745067E-2   -9.978942921279126E-2
 1.614886976027352E4     2.473968509486249E-2   -1.057154124307264E-1    9.963440063468684E-1    8.742725218878447E-2    9.901499898543961E-1    8.942318321115897E-2    1.250599601856121E-2   -9.983215224892381E-2
 1.638511407447690E4     1.907896360241330E-2   -1.062422562324153E-1    9.960289213192265E-1    8.819958793768434E-2    9.897775515570639E-1    8.962152526369956E-2    1.378063903199725E-2   -1.022141238189298E-1
 1.662481444330346E4     2.190134415933610E-2   -1.080435122747845E-1    9.957042606662261E-1    8.802087243255162E-2    9.895381168575389E-1    9.016289858882481E-2    1.172346804766335E-2   -1.008449958499256E-1
 1.686802142591090E4     2.132134033601942E-2   -1.059157582836349E-1    9.959664125882819E-1    8.837467285741231E-2    9.894585177228205E-1    9.007190007522588E-2    1.236286098770763E-2   -1.033543296921565E-1
 1.711478632109480E4     1.875474062777775E-2   -1.059322360807315E-1    9.957779191123591E-1    8.831459797950557E-2    9.897743442933233E-1    9.031482319380461E-2    1.014991106146167E-2   -9.970511887199672E-2
 1.736516117810873E4     1.989077300140580E-2   -1.069493827722727E-1    9.958114952352667E-1    8.864811835550492E-2    9.895212766756883E-1    9.097699696151683E-2    9.900903073308751E-3   -9.987891512040423E-2
 1.761919880764275E4     2.191952262091622E-2   -1.064971785162554E-1    9.958195445307114E-1    8.889874853277122E-2    9.899058608804395E-1    9.121464821488516E-2    9.127014083417925E-3   -9.970373710562365E-2
 1.787695279296278E4     1.837498279229983E-2   -1.055479403302891E-1    9.955590510989730E-1    8.929820227776769E-2    9.896916708407287E-1    9.118814404514236E-2    1.099839475738148E-2   -9.736946533604232E-2
 1.813847750121259E4     2.113355678431640E-2   -1.054518822976018E-1    9.960338751860682E-1    8.891074950540609E-2    9.896133836076295E-1    9.111351882202434E-2    1.001196328344333E-2   -1.023954454584577E-1
 1.840382809488136E4     1.922315476143865E-2   -1.028563687018828E-1    9.957816491463509E-1    8.902936477608926E-2    9.894252746088712E-1    9.100618473342101E-2    1.177178672666807E-2   -1.009970048405558E-1
 1.867306054343870E4     2.038863239091358E-2   -1.046226115283649E-1    9.955579377272891E-1    8.898735899047161E-2    9.893155960552955E-1    9.116078833097734E-2    8.812307507575778E-3   -9.961930662753625E-2
 1.894623163514043E4     2.095495291318190E-2   -1.043677997191673E-1    9.953091251006989E-1    8.906358390298746E-2    9.891724004549838E-1    9.115370374181760E-2    8.498756756778695E-3   -9.918790957612268E-2
 1.922339898900651E4     1.930906010637477E-2   -1.044024574023128E-1    9.957202833228230E-1    8.909888943213173E-2    9.891807440886327E-1    9.113497370997507E-2    1.079850149296914E-2   -9.923078465688590E-2
 1.950462106697433E4     1.927603184923053E-2   -1.023737006615775E-1    9.955376427451037E-1    8.898358688709154E-2    9.893660499496165E-1    9.115683231094476E-2    9.040473631947887E-3   -9.608143102492017E-2
 1.978995718623015E4     1.866158258439328E-2   -1.028849002093954E-1    9.957629660013042E-1    8.883609780104529E-2    9.892788151704811E-1    9.045359580105498E-2    1.105763764372814E-2   -9.849311474140088E-2
 2.007946753172049E4     2.110569150354864E-2   -1.018244683741596E-1    9.960016657118412E-1    8.878171108140032E-2    9.895770766938657E-1    9.083274700789983E-2    1.030426737646136E-2   -9.690623873131574E-2
 2.037321316884679E4     1.834694078559106E-2   -1.027735514545450E-1    9.958240091377669E-1    8.858510025459178E-2    9.892573388533052E-1    9.037826108933275E-2    8.283569682845125E-3   -9.849321314917034E-2
 2.067125605634556E4     1.765223693466820E-2   -1.026822510074216E-1    9.958205871490801E-1    8.839105005509186E-2    9.891587687930543E-1    9.029294876420463E-2    1.222274877732981E-2   -9.779289826051787E-2
 2.097365905935741E4     1.933510679404436E-2   -1.031686426984148E-1    9.957419842753399E-1    8.857330160882605E-2    9.891778279082449E-1    9.028501549647275E-2    1.058420808358964E-2   -9.792500576211852E-2
 2.128048596268678E4     1.583789102008849E-2   -1.029858457158054E-1    9.957215243207751E-1    8.799098686397649E-2    9.893776920035167E-1    8.984597190690599E-2    8.371897731277091E-3   -9.643109930144261E-2
 2.159180148425580E4     1.695009953886761E-2   -1.017817586533933E-1    9.958221778157810E-1    8.736357104483754E-2    9.894745826786645E-1    8.942677285507621E-2    8.643463441858838E-3   -9.581741201228602E-2
 2.190767128875518E4     1.540972868866794E-2   -9.956604576368822E-2    9.960419926363916E-1    8.752485887055955E-2    9.893095279426667E-1    8.923802174781889E-2    8.140036330050122E-3   -9.536401238592349E-2
 2.222816200149459E4     1.763608711682984E-2   -9.810443396003878E-2    9.960786640490293E-1    8.709906634626977E-2    9.896315215710096E-1    8.909368431231179E-2    9.831340912351993E-3   -9.319131402911715E-2
 2.255334122245549E4     1.610984736605497E-2   -1.009787939444400E-1    9.962282290196132E-1    8.590360537315773E-2    9.896952830223137E-1    8.815472914546835E-2    5.330783369867840E-3   -9.716206323172635E-2
 2.288327754055009E4     1.524680731071278E-2   -9.917081249053629E-2    9.959007932539961E-1    8.598510397156828E-2    9.893185756103887E-1    8.818119323508981E-2    6.586920224367077E-3   -9.288606377750371E-2
 2.321804054808841E4     1.738524094143952E-2   -1.003017775523162E-1    9.961061475162051E-1    8.540079824376431E-2    9.894431644566031E-1    8.804013126233583E-2    6.561444311509044E-3   -9.385281812185446E-2
 2.355770085545698E4     1.555066444847707E-2   -9.770067792407544E-2    9.961939482226119E-1    8.536765364135585E-2    9.896272547815937E-1    8.765725491662320E-2    6.449416081391872E-3   -9.327062326041841E-2
 2.390233010601275E4     1.530282299612759E-2   -9.836480985923662E-2    9.960876589388221E-1    8.492664597762044E-2    9.897275199709109E-1    8.711206371381257E-2    8.404843336523495E-3   -9.143426047803496E-2
 2.425200099119439E4     1.650460881235597E-2   -9.726109938546748E-2    9.965009106251561E-1    8.426525311442097E-2    9.897030546320740E-1    8.636210938516507E-2    5.776953619646558E-3   -8.988957785402325E-2
 2.460678726585491E4     1.595677618752232E-2   -9.654375845323077E-2    9.965467803881148E-1    8.337927753942606E-2    9.899427502763523E-1    8.605813429261509E-2    7.041203083390037E-3   -8.935152863708562E-2
 2.496676376381832E4     1.558551514862474E-2   -9.520371750902640E-2    9.966387556448254E-1    8.292862532948005E-2    9.900295822208061E-1    8.516544266246245E-2    5.216590954231239E-3   -8.851537072689938E-2
 2.533200641366437E4     1.424414406850389E-2   -9.524529010947874E-2    9.966068468327158E-1    8.226371215964882E-2    9.902926907994254E-1    8.460593230800915E-2    6.960496388279162E-3   -8.919844398751887E-2
 2.570259225474378E4     1.441116991236673E-2   -9.418181519263955E-2    9.969023970268963E-1    8.120013933716741E-2    9.901629599208003E-1    8.361432919077851E-2    6.360622778431810E-3   -8.874598970684346E-2
 2.607859945342765E4     1.437306381688796E-2   -9.246287326344491E-2    9.970398703733742E-1    8.077460609388699E-2    9.903763227115222E-1    8.297984291033117E-2    4.999782254993767E-3   -8.746702844380591E-2
 2.646010731959520E4     1.344041819117608E-2   -9.279131787616113E-2    9.970405478091997E-1    8.001444954637739E-2    9.906022856949468E-1    8.242936240967302E-2    5.178037448080668E-3   -8.612137676064227E-2
 2.684719632336216E4     1.517631704504296E-2   -9.282301605405255E-2    9.971475735517936E-1    7.938045799598216E-2    9.904080834616492E-1    8.187011001070101E-2    5.206072940461458E-3   -8.592952718390504E-2
 2.723994811205383E4     1.497271296515662E-2   -9.114325728023101E-2    9.969853009297152E-1    7.842703488852520E-2    9.903969388705041E-1    8.107185801208486E-2    4.461497133822488E-3   -8.276859316992446E-2
 2.763844552742707E4     1.247808263410459E-2   -8.981950953205212E-2    9.974009469805624E-1    7.770853013556558E-2    9.908037581404575E-1    8.019259405712878E-2    5.654221166025335E-3   -8.276815904270338E-2
 2.804277262314357E4     1.376070794846935E-2   -8.843632243882629E-2    9.975472806787178E-1    7.711842413379037E-2    9.909560937779636E-1    7.979451571666286E-2    4.211342885181072E-3   -8.206883521926156E-2
 2.845301468249892E4     1.266611948747724E-2   -8.824848115180647E-2    9.974380843087174E-1    7.591515867241466E-2    9.904658714479586E-1    7.838290265367229E-2    6.003611250931998E-3   -8.154339926170746E-2
 2.886925823641139E4     1.367835918283972E-2   -8.637849695875802E-2    9.977776155951753E-1    7.502237280094982E-2    9.909447999594188E-1    7.770839184236215E-2    4.761028307991726E-3   -8.187999171741284E-2
 2.929159108167336E4     1.274293679174092E-2   -8.439609550393171E-2    9.978132451124797E-1    7.415908012056403E-2    9.909133484594105E-1    7.681129037430900E-2    4.398105971058516E-3   -7.930362759778105E-2
 2.972010229947017E4     1.267288339968061E-2   -8.392804325874872E-2    9.980311043125225E-1    7.286164485805727E-2    9.909530752709761E-1    7.591531361444158E-2    1.572438151214552E-3   -7.752542848773161E-2
 3.015488227416939E4     1.077143747603861E-2   -8.306529168628250E-2    9.983133321218272E-1    7.171447601784317E-2    9.914415635205447E-1    7.443274023624494E-2    1.628440769025175E-3   -7.804858988340319E-2
 3.059602271238568E4     9.955297877770455E-3   -8.304576889736665E-2    9.979982599610207E-1    7.097301059105089E-2    9.914548006510129E-1    7.361885670797928E-2    2.801085219314004E-3   -7.481552650613418E-2
 3.104361666232397E4     1.308310281750530E-2   -8.192229241187110E-2    9.982866989129816E-1    6.966300091790013E-2    9.916216936580863E-1    7.252109111379898E-2    2.183165937669814E-3   -7.433559717311576E-2
 3.149775853340555E4     1.129961785537900E-2   -7.798062128840880E-2    9.986787786569766E-1    6.879236394316222E-2    9.918968763215398E-1    7.138381702673087E-2    3.733932431875843E-3   -7.453115039918071E-2
 3.195854411618198E4     1.234835055674138E-2   -7.557279057641214E-2    9.988822271189189E-1    6.756997350670994E-2    9.921840968811965E-1    7.041389793316527E-2    3.223835772569517E-3   -7.313887921807258E-2
 3.242607060253950E4     1.037328080888037E-2   -7.842568873629713E-2    9.986409164005845E-1    6.635257644280207E-2    9.918250254055980E-1    6.896496606077451E-2    4.093288100997692E-3   -7.197091471895882E-2
 3.290043660619961E4     9.830416967209670E-3   -7.477882728735399E-2    9.987139767226221E-1    6.476940808811886E-2    9.918934961942985E-1    6.784865987370962E-2    5.853777603156383E-4   -6.747403995094664E-2
 3.338174218351897E4     8.514297942408098E-3   -7.440944849768898E-2    9.988470288259623E-1    6.393613926352820E-2    9.920882779205153E-1    6.660177412546035E-2    2.045069526612054E-3   -6.749084279066771E-2
 3.387008885459435E4     9.011122036431398E-3   -7.362379442597994E-2    9.989107486831618E-1    6.233192535129384E-2    9.924517377193319E-1    6.504609269652162E-2    2.514050616462764E-3   -6.743109483599860E-2
 3.436557962467577E4     9.006300879959682E-3   -6.910108928847081E-2    9.993831073075410E-1    6.069567956147130E-2    9.925030891666039E-1    6.390035507449483E-2    9.905646461742402E-4   -6.457582885570647E-2
 3.486831900589274E4     8.893144396539508E-3   -6.926241197074723E-2    9.993945494557495E-1    5.952061299788924E-2    9.925578315305981E-1    6.255543444319475E-2   -2.292844709367286E-4   -6.344188036678786E-2
 3.537841303929910E4     7.462488663376239E-3   -6.856234661159755E-2    9.991259613862342E-1    5.812810129316314E-2    9.926150898820415E-1    6.116170887436412E-2    4.799961270715233E-4   -6.279961802857437E-2
 3.589596931723969E4     7.897195676880513E-3   -6.555180965960267E-2    9.995950971184081E-1    5.653443009086351E-2    9.930112910558152E-1    5.973595710519739E-2    1.122088314225381E-3   -6.033225918598215E-2
 3.642109700604417E4     8.374353601935444E-3   -6.587306119846333E-2    9.997376854612343E-1    5.506606798250556E-2    9.928651902769573E-1    5.827791312803908E-2   -1.249749490691860E-5   -6.076582482691801E-2
 3.695390686905356E4     7.085821424363934E-3   -6.339230380790331E-2    9.997300341238718E-1    5.325268486276985E-2    9.931619264651129E-1    5.673370274212228E-2    4.231899457883357E-4   -5.634022086180213E-2
