# HZ S RI R 50
3900000 0.547111043774853 -0.37834001915722665 1.0700824665844952 -0.501007612180922 0 0 0 0
7800000 0.31946198078030513 -0.5184597597031707 1.2798919262510442 0.012015127569160622 0 0 0 0
11700000 0.10930300021745047 -0.5523206076216248 1.4779534999269648 0.17073717275828829 0 0 0 0
15600000 -0.05073271338615917 -0.5257464320493084 1.5856319224031077 0.198346564767113 0 0 0 0
19500000 -0.16342303541879435 -0.47426250210072407 1.6691252078024468 0.17612857146864874 0 0 0 0
23400000 -0.242906236361063 -0.41882730095257875 1.6992216163245129 0.1791449475251734 0 0 0 0
27300000 -0.29865945969703045 -0.3646741812864384 1.7178702303948168 0.12553871571479092 0 0 0 0
31200000 -0.33866948167622757 -0.3151458083303842 1.75753905589218 0.08700187467310362 0 0 0 0
35100000 -0.3672463303262965 -0.26895842275260656 1.760032789567539 0.025799513911942292 0 0 0 0
39000000 -0.38878608174735907 -0.22795146261988383 1.7523716873074895 0.011340203542605946 0 0 0 0
42900000 -0.4036122426713664 -0.1897681045512439 1.7367402792282636 -0.050887387834484286 0 0 0 0
46800000 -0.4154436067839225 -0.1549397049286706 1.7172510983411637 -0.08875882944062136 0 0 0 0
50700000 -0.4228752001323886 -0.12244165238298733 1.7100567834528895 -0.12956716529945358 0 0 0 0
54600000 -0.42865871810637607 -0.09442280544360654 1.71441959662132 -0.15078484422647978 0 0 0 0
58500000 -0.4323003414791299 -0.06722089144151311 1.7002317085207521 -0.17424910219066708 0 0 0 0
62400000 -0.4344550358940155 -0.041019166658183864 1.6817841582507458 -0.20621124520257664 0 0 0 0
66300000 -0.4342372033867132 -0.017168793426643035 1.647722078880929 -0.18013073173017635 0 0 0 0
70200000 -0.43319423363564064 0.006289365602915601 1.5753177705009431 -0.19772106062652067 0 0 0 0
74100000 -0.432078538957248 0.0267860022518375 1.5188319123039449 -0.22453223374097175 0 0 0 0
78000000 -0.43048087725554196 0.04504213374638203 1.4774667470757088 -0.2734308854411189 0 0 0 0
81900000 -0.42682268274019564 0.06460954780976265 1.468658578774607 -0.2485989122623754 0 0 0 0
85800000 -0.4226403267288509 0.08490958034537562 1.4622693880610154 -0.31057970847393357 0 0 0 0
89700000 -0.418213926249791 0.10168159562996139 1.481854207841421 -0.4316104461623792 0 0 0 0
93600000 -0.4129250778534398 0.1185210912999193 1.5172327396115912 -0.4071400156145112 0 0 0 0
97500000 -0.40784314703103475 0.13547508319202264 1.5612213684617877 -0.37422728464886323 0 0 0 0
101400000 -0.40388327823438236 0.14814973113907745 1.6078082574060284 -0.4341597159183503 0 0 0 0
105300000 -0.3968422552525808 0.16374773329145004 1.6111877474577572 -0.4337083892903154 0 0 0 0
109200000 -0.3900790999310953 0.1788748556998298 1.6058713578837451 -0.4473263515868209 0 0 0 0
113100000 -0.38291745975164565 0.19267450256588436 1.586421146691227 -0.5372016201282093 0 0 0 0
117000000 -0.37536907645643225 0.2068317021516378 1.6101782578957335 -0.5167718727352322 0 0 0 0
120900000 -0.3679630359525104 0.21911028932426668 1.5892774259764937 -0.5113336170541812 0 0 0 0
124800000 -0.3610043002318843 0.2320846706393274 1.4811588623854184 -0.5337669329827988 0 0 0 0
128700000 -0.35321222135794794 0.24349278419723971 1.4423907969886347 -0.512574064368622 0 0 0 0
132600000 -0.3443593622468578 0.25534438165196105 1.409141189109457 -0.5033874985545208 0 0 0 0
136500000 -0.3359847631426374 0.2665024620855249 1.36591373544923 -0.5374101479871656 0 0 0 0
140400000 -0.2631113389931604 0.312958277863305 0.8776757559193241 -0.7272144956151658 0 0 0 0
144300000 -0.2536916306320273 0.3192748701208513 0.8550385075301121 -0.7405596178128513 0 0 0 0
148200000 -0.23180226510442714 0.3438183598846421 0.8253373461141108 -0.8506374144132981 0 0 0 0
152100000 -0.21030980731367782 0.3615178600600512 0.8108135867488302 -0.9304859897745527 0 0 0 0
156000000 -0.20100075429641626 0.3657622568105387 0.7811618722297642 -0.914121727330182 0 0 0 0
159900000 -0.19606487936672712 0.3669016334680267 0.7581002025475018 -0.879245960370805 0 0 0 0
163800000 -0.19160581825626283 0.3658784324125658 0.7412099665581999 -0.8329843093424699 0 0 0 0
167700000 -0.18437876597273734 0.36584817565026834 0.7246098339724429 -0.8015262312177533 0 0 0 0
171600000 -0.169239423078048 0.37648298406186914 0.6884893615077645 -0.8567295085531648 0 0 0 0
175500000 -0.13731960155277603 0.3967251347899805 0.656927131240907 -0.9747359730521745 0 0 0 0
179400000 -0.1120767361242415 0.40469279784878665 0.6354822600975356 -1.0501402143517065 0 0 0 0
183300000 -0.10142219635461833 0.4082809028499001 0.6144005555049962 -1.046826955630148 0 0 0 0
187200000 -0.09373871535415862 0.4099892191503996 0.5933070192368712 -1.024518201914963 0 0 0 0
191100000 -0.08641176546275108 0.4114270910425542 0.5740772841327632 -0.9927571838944801 0 0 0 0
195000000 -0.0825631885997077 0.4103720236397169 0.559309113508137 -0.9448375749729307 0 0 0 0
198900000 -0.07777700027899075 0.4092191935235774 0.5510155539413307 -0.8992039644472751 0 0 0 0
202800000 -0.07216332468179293 0.4076372144246136 0.5431964238360882 -0.8629606433487347 0 0 0 0
206700000 -0.06275769000004838 0.4076925205951056 0.530221735705608 -0.8510052748816533 0 0 0 0
210600000 -0.04757538815292739 0.4100323380522296 0.4964834834470565 -0.8736239998379408 0 0 0 0
214500000 -0.02868954330467482 0.4132579160323561 0.45034225721323456 -0.912690047341267 0 0 0 0
218400000 0.019361712774992768 0.422649117717872 0.3782070901751662 -1.047128944971779 0 0 0 0
222300000 0.043933983221884694 0.4202434856288219 0.34357306783586256 -1.0821797056480333 0 0 0 0
226200000 0.058351404833016166 0.41803750865666117 0.3195578327202729 -1.0807329639172762 0 0 0 0
230100000 0.06979474835506834 0.41595835570404 0.29953205116672904 -1.0625445882823927 0 0 0 0
234000000 0.07703439775653761 0.4153607002510185 0.28593946885084587 -1.040844087915441 0 0 0 0
237900000 0.08198182701497819 0.4140790348201175 0.27795680526497285 -1.001507902938966 0 0 0 0
241800000 0.08380778619218088 0.4126652136701764 0.2811172522149447 -0.954862918021481 0 0 0 0
245700000 0.08382248796701222 0.41034541169511213 0.2889364245660095 -0.9064485386802207 0 0 0 0
249600000 0.08241477349943113 0.4075740938341374 0.2993799730124128 -0.8628945710660779 0 0 0 0
253500000 0.09127507075843667 0.4054153844560965 0.2867287585741435 -0.8569807899638107 0 0 0 0
257400000 0.1051622215024152 0.4042453337715414 0.2500953179720645 -0.8849981544183289 0 0 0 0
261300000 0.12207182243475158 0.40084449272161776 0.20964885327456556 -0.9118977241565159 0 0 0 0
265200000 0.14332452450913952 0.39738018360127875 0.16777861928464258 -0.9455102513317127 0 0 0 0
269100000 0.17282835954005962 0.3907967474798014 0.11880624958102917 -0.9979593937562667 0 0 0 0
273000000 0.1990613272503896 0.38061167658009 0.07380225128858209 -1.0450966724343358 0 0 0 0
276900000 0.21912290704351828 0.3705569355794465 0.034826297766216124 -1.066905449221683 0 0 0 0
280800000 0.23397225196576818 0.36197413573962633 0.0033913885426810446 -1.077843658090121 0 0 0 0
284700000 0.24591955350712374 0.3556915030563305 -0.01854317042998689 -1.0772686078017886 0 0 0 0
288600000 0.2550486347633766 0.35063502806470237 -0.031467450969701924 -1.0633235066420945 0 0 0 0
292500000 0.2607747840696176 0.3485833892853009 -0.0312998741444693 -1.0389586871058254 0 0 0 0
296400000 0.26086515779448544 0.3507534678344438 -0.01567461380116347 -0.9958410454125087 0 0 0 0
300300000 0.2593418987132255 0.3515006890864471 0.006134990756888701 -0.9426006663791786 0 0 0 0
304200000 0.25936640349975987 0.35004688228278147 0.019924840908699643 -0.8988437632088011 0 0 0 0
308100000 0.2621322497374194 0.3477300025618601 0.026116674068865732 -0.8690595804469832 0 0 0 0
312000000 0.2646525637426616 0.34512505016491174 0.03389367116163036 -0.8368502248060579 0 0 0 0
315900000 0.2692356385683145 0.3421379177318388 0.03643982021183893 -0.8182591170779804 0 0 0 0
319800000 0.27895556419406564 0.33689785531206456 0.017741947102371813 -0.8226408642313924 0 0 0 0
323700000 0.2901646430990522 0.3311894063400532 -0.008226716966936685 -0.8300836221629353 0 0 0 0
327600000 0.30190944705475 0.324618569006501 -0.03603638005280843 -0.8366678986851724 0 0 0 0
331500000 0.3132780478484927 0.31649079358882937 -0.061675435844635945 -0.843403730123937 0 0 0 0
335400000 0.3243511306397518 0.30929747760154186 -0.0894724511636719 -0.8519361831380822 0 0 0 0
339300000 0.337003665473979 0.30001683570971216 -0.1228209552986273 -0.8641671091600673 0 0 0 0
343200000 0.3500351549440828 0.2898916941277147 -0.15696918658473039 -0.8780012136235289 0 0 0 0
347100000 0.36411440339843026 0.27710913193797787 -0.19595364113015043 -0.8963530249347081 0 0 0 0
351000000 0.37947855973427225 0.26098774188487434 -0.2422824382455322 -0.9194581662471419 0 0 0 0
354900000 0.3922985594293548 0.2455991771330698 -0.28629095479638417 -0.9370173161029112 0 0 0 0
358800000 0.40270368284123165 0.22921715896105266 -0.32890429268926324 -0.9473006257900627 0 0 0 0
362700000 0.4127533886583685 0.21540990571685384 -0.3642389976203763 -0.9594378874833893 0 0 0 0
366600000 0.42082763497425313 0.2005934901496867 -0.3945991978680579 -0.955649897532787 0 0 0 0
370500000 0.42771250368420816 0.18641021050390166 -0.4187753543259681 -0.9476945767914787 0 0 0 0
374400000 0.43396414150235135 0.1738708572730694 -0.44150737061279377 -0.9367437625948952 0 0 0 0
378300000 0.4391860627226065 0.16121033589852718 -0.4579898753617853 -0.9248377402213563 0 0 0 0
382200000 0.44624335296091255 0.14820507658374849 -0.4774039188368938 -0.9150868763588935 0 0 0 0
386100000 0.44950230084584875 0.13559784030132624 -0.49323553313415974 -0.9023715988469881 0 0 0 0
390000000 0.4542933618622411 0.12114208949862408 -0.5111468062368422 -0.8884500514089159 0 0 0 0
393900000 0.4580793871791498 0.10709870295805407 -0.5303806705757592 -0.8737042641738401 0 0 0 0
397800000 0.46142236886333154 0.09195839715234756 -0.5481962242161441 -0.8585694082663644 0 0 0 0
401700000 0.4638648299237495 0.07799216084856915 -0.5650606415735009 -0.8431383488550469 0 0 0 0
405600000 0.4662107738301824 0.0642986060614118 -0.5781170975491612 -0.8245106643173792 0 0 0 0
409500000 0.46833028484220907 0.051352050032647194 -0.5888711918496408 -0.8055834623903667 0 0 0 0
413400000 0.47002159761265105 0.039562525223784346 -0.5963513227955114 -0.7889251258961503 0 0 0 0
417300000 0.47131996009931326 0.026576584240290673 -0.6034543337733673 -0.7720264498409047 0 0 0 0
421200000 0.471826301896167 0.013698702334889902 -0.6129391158395033 -0.7569356334196972 0 0 0 0
425100000 0.4721495541239923 0.001534389184889322 -0.6214807348581155 -0.743846869884975 0 0 0 0
429000000 0.4725139651570484 -0.010345545313820117 -0.6294168637154924 -0.7284704387770224 0 0 0 0
432900000 0.47190452913285136 -0.02250988169516754 -0.6351953961705274 -0.7143294255309578 0 0 0 0
436800000 0.4714922572768128 -0.03343811746506641 -0.6395490192999863 -0.6972194826888928 0 0 0 0
440700000 0.4711804411552447 -0.04499344260624607 -0.6418715229430794 -0.6796726576136802 0 0 0 0
444600000 0.4707462679680101 -0.05566580383193122 -0.6405244059790711 -0.6621863190257115 0 0 0 0
448500000 0.4706002388419746 -0.0646283198423119 -0.6409550284174966 -0.6453671626882139 0 0 0 0
452400000 0.4701060428084904 -0.07385974208530716 -0.637236836444465 -0.6303554271771317 0 0 0 0
456300000 0.4687831739218378 -0.08423420834714872 -0.6377896261289092 -0.6182828257005503 0 0 0 0
460200000 0.46845721905818394 -0.09414657363821083 -0.6380342221904339 -0.6013110580792478 0 0 0 0
464100000 0.46842206637867795 -0.10427049917798371 -0.6524889332257024 -0.5977775568932824 0 0 0 0
468000000 0.46636063141265915 -0.11465746050236074 -0.6552146584797556 -0.5829976783887035 0 0 0 0
471900000 0.46498494845420246 -0.12373113994557397 -0.6559327226241249 -0.568819801855478 0 0 0 0
475800000 0.463499224066647 -0.13179537008761028 -0.6537479041709147 -0.5535497995827305 0 0 0 0
479700000 0.46141214285141346 -0.1390247771880668 -0.646993214270688 -0.5386928082322131 0 0 0 0
483600000 0.46249311921518194 -0.14705084810503807 -0.6384678282040703 -0.5235938669827637 0 0 0 0
487500000 0.4627667029902348 -0.1527191015117496 -0.6296274744925984 -0.5094075951645357 0 0 0 0
491400000 0.46235615515678846 -0.1595111329617529 -0.6182211545556794 -0.49276609711160346 0 0 0 0
495300000 0.4640340783482421 -0.16620260746845733 -0.6068915543910859 -0.47912275124682774 0 0 0 0
499200000 0.4637481188920063 -0.1738362249451967 -0.5973725638923176 -0.4628410865694533 0 0 0 0
503100000 0.4624705376167168 -0.1824536760891266 -0.5892583641353126 -0.4492869030634932 0 0 0 0
507000000 0.46164420266676026 -0.1900893161645654 -0.5865797523504794 -0.43633380218755463 0 0 0 0
510900000 0.46112011355093374 -0.19852095635375333 -0.5849718931340628 -0.4255360937057478 0 0 0 0
514800000 0.4587198176283445 -0.20707760154552302 -0.5836966186092444 -0.41396610592853983 0 0 0 0
518700000 0.45716086519791715 -0.21570212384289894 -0.5795364206601606 -0.40290337917409696 0 0 0 0
522600000 0.45717384710506154 -0.22275539914432657 -0.5734071745362781 -0.39467877944657603 0 0 0 0
526500000 0.45579240021436207 -0.2305552885360337 -0.571871233812879 -0.3867571399230216 0 0 0 0
530400000 0.4540020730307596 -0.23952655151467414 -0.5746884680443235 -0.3810102434382693 0 0 0 0
534300000 0.45101630496580164 -0.2491625521595897 -0.5764494041693777 -0.370566007461742 0 0 0 0
538200000 0.44814255641608797 -0.2581956757074916 -0.5782136721788275 -0.36006890881774495 0 0 0 0
542100000 0.44446067735216765 -0.26824460465796485 -0.57962499884888 -0.3500087813384989 0 0 0 0
546000000 0.4400981340084527 -0.2774876148808229 -0.581233770364189 -0.34032396521532504 0 0 0 0
549900000 0.4359846358247645 -0.2861137285632673 -0.5881628687359717 -0.33134179070848835 0 0 0 0
553800000 0.43052788898417665 -0.29712500275303694 -0.5859373061263207 -0.31934100706345897 0 0 0 0
557700000 0.42640962112047165 -0.3069806099885726 -0.5896279571208599 -0.31067320866983467 0 0 0 0
561600000 0.41945346029189373 -0.3173735539039783 -0.5956408465737463 -0.30540998454265095 0 0 0 0
565500000 0.4140856230928857 -0.325041703648086 -0.6029847037304665 -0.2990315192263125 0 0 0 0
569400000 0.4070938559693205 -0.33471779775386445 -0.606917903608884 -0.2885566787510414 0 0 0 0
573300000 0.40184445669745844 -0.3448649874169049 -0.611887002554603 -0.2798192324704993 0 0 0 0
577200000 0.395934520472642 -0.35280458503784723 -0.6136398275065177 -0.272934736135308 0 0 0 0
581100000 0.38856554598732024 -0.3625176076053712 -0.6164395660937887 -0.2627773881183387 0 0 0 0
585000000 0.38238667826916717 -0.36940116068487555 -0.6166196247103826 -0.2547813747351084 0 0 0 0
588900000 0.3747354508682334 -0.3785838946849816 -0.6184282093847361 -0.24440223915133624 0 0 0 0
592800000 0.3658373506231217 -0.3872762975337099 -0.6193538327055236 -0.2333647773585384 0 0 0 0
596700000 0.35656066891033766 -0.3949890418950783 -0.6202305442208701 -0.2220439176500071 0 0 0 0
600600000 0.3481181859508948 -0.4044599834689801 -0.6215889212120808 -0.21149256534095154 0 0 0 0
604500000 0.33945521707113147 -0.41199359665500657 -0.6242973160879483 -0.20010356913571828 0 0 0 0
608400000 0.32801432477339076 -0.4190572830056525 -0.6228244447245367 -0.18705964982707357 0 0 0 0
612300000 0.31938809997685963 -0.4260059737360322 -0.6219641717139549 -0.17706078403175848 0 0 0 0
616200000 0.30910795841833527 -0.43469864012264986 -0.6211395002836348 -0.16664549358394695 0 0 0 0
620100000 0.29921974741506213 -0.439549062021352 -0.6182219981876964 -0.15672142810125472 0 0 0 0
624000000 0.2896566786052438 -0.4449318717300627 -0.615485387726188 -0.14648629980210995 0 0 0 0
627900000 0.2791087491794543 -0.45205996617327227 -0.6137738069779968 -0.13816323932850652 0 0 0 0
631800000 0.27046955506369424 -0.4568422654896592 -0.6117082503607429 -0.13072982089115515 0 0 0 0
635700000 0.2586627716873101 -0.46220431214719077 -0.609298966757415 -0.12281450385815443 0 0 0 0
639600000 0.24960185108633864 -0.46642288375492846 -0.6075190605209717 -0.11532787789513871 0 0 0 0
643500000 0.24004467971825255 -0.47190065376688495 -0.6061547979138989 -0.10719599190719466 0 0 0 0
647400000 0.22946625281813623 -0.4750119507265089 -0.6058564456831043 -0.0989721125125101 0 0 0 0
651300000 0.21957979621959856 -0.4810641793448726 -0.6057354753567805 -0.0904768616159864 0 0 0 0
655200000 0.209256469981184 -0.48452521871287196 -0.6061077001144546 -0.08274425137350555 0 0 0 0
659100000 0.19891209438637836 -0.48747820636378386 -0.6079351728334838 -0.07371899236936344 0 0 0 0
663000000 0.18816485435828587 -0.4914337057214797 -0.609768832981117 -0.06408701162580982 0 0 0 0
666900000 0.17680721988440248 -0.4949084417913546 -0.6084802738487867 -0.053852578612476415 0 0 0 0
670800000 0.16573992419932074 -0.49770532915787175 -0.6089146000078411 -0.044264519071784775 0 0 0 0
674700000 0.15604388956851165 -0.49954612724842373 -0.6076854411431982 -0.0342900237007989 0 0 0 0
678600000 0.14416176148085652 -0.5014044367099574 -0.606870946692637 -0.024799905014379037 0 0 0 0
682500000 0.13397794082252548 -0.503163287892948 -0.6055144214221264 -0.015290866958015605 0 0 0 0
686400000 0.1246396021950687 -0.5052706005390383 -0.60456766322905 -0.00855285862345879 0 0 0 0
690300000 0.11354139901891293 -0.5065367295335703 -0.6025988492147483 0.0001281809999057553 0 0 0 0
694200000 0.10468696256506213 -0.5086629656458616 -0.603009064286307 0.009257017886562555 0 0 0 0
698100000 0.09602110077745507 -0.5104023552522868 -0.6029857483063555 0.016058619381271455 0 0 0 0
702000000 0.08635837282129308 -0.5121809821449715 -0.6004939529519818 0.024040017347318664 0 0 0 0
705900000 0.07778958434768042 -0.5149679928647394 -0.6034492180236457 0.02873806291761392 0 0 0 0
709800000 0.06797467095425705 -0.5157022423005606 -0.6067633983160505 0.0384293963232792 0 0 0 0
713700000 0.061076628661282294 -0.5163546270277908 -0.6055009235516825 0.04574620703914853 0 0 0 0
717600000 0.05095159321408637 -0.5175766802042169 -0.6052986911634471 0.05773011347116844 0 0 0 0
721500000 0.04349459473967633 -0.5207183466792458 -0.6156417828458021 0.06430680811541048 0 0 0 0
725400000 0.034025191192861105 -0.5218687051955905 -0.6189270234920426 0.07096125140692418 0 0 0 0
729300000 0.02396807011232853 -0.5218491896752437 -0.620711694094515 0.08165378796417062 0 0 0 0
733200000 0.014876384574735132 -0.5237787250499933 -0.6227409228481438 0.08996092959074961 0 0 0 0
737100000 0.00614621637951355 -0.5242522685923819 -0.6252728777159923 0.0993423694753093 0 0 0 0
741000000 -0.0034719979988986033 -0.5240941477279801 -0.6265004864916698 0.10789235821801127 0 0 0 0
744900000 -0.013558333693021946 -0.5235124015124732 -0.6267770626168889 0.11970389136321243 0 0 0 0
748800000 -0.02160568536784398 -0.5238262064403527 -0.6265673359034722 0.1271669468135461 0 0 0 0
752700000 -0.03184088874088082 -0.5242180013561798 -0.6266088781747027 0.13679494603729442 0 0 0 0
756600000 -0.04237598120874445 -0.5227031566524637 -0.6250501189300706 0.14741423716407262 0 0 0 0
760500000 -0.05010233580389245 -0.5226640599482367 -0.6241465256468877 0.15548411250509964 0 0 0 0
764400000 -0.06043556195580404 -0.5213437104939681 -0.6225067230586891 0.16325321079988525 0 0 0 0
768300000 -0.07026025888106116 -0.5191070735210715 -0.6193460241795059 0.17459318866257903 0 0 0 0
772200000 -0.07860096297691076 -0.5175416676282918 -0.6166143663453485 0.18380764434334357 0 0 0 0
776100000 -0.08873211725713862 -0.5151717410381289 -0.6125651138013036 0.19415172731539826 0 0 0 0
780000000 -0.09746898273372286 -0.51229058861128 -0.6075784547087414 0.20364023827125993 0 0 0 0
783900000 -0.10873314705920037 -0.5095170374158031 -0.6009756307009532 0.2137522320697609 0 0 0 0
787800000 -0.11871639666716693 -0.5038606516560314 -0.5930454686570782 0.22274204316981108 0 0 0 0
