#  HZ   S   RI   R     50.00 
! Rohde & Schwarz Vector Network Analyzer 
! Rohde-Schwarz,ZNL20-2Port,1323001220101312,1.72.1.6-23.02.1.246
! Created: UTC 10/8/2024, 7:02:22 PM
! freq[Hz]                re:S11                  im:S11                  re:S21                  im:S21                  re:S12                  im:S12                  re:S22                  im:S22
 3.900000000000000E6     6.294177557700027E-3   -2.235418798208351E-3    1.002117071438412      -9.729790206765364E-3    9.899887525459068E-1   -2.608642009732243E-2    9.367699903954538E-3   -1.953555505326712E-3
 7.800000000000000E6     6.455432968216074E-3   -2.764555273608527E-3    1.004069428439499      -2.947419161462632E-2    9.853666700202738E-1   -3.632329961520546E-2    6.453810691911994E-3   -3.876475226837525E-3
 1.170000000000000E7     3.855530430760114E-3   -4.028883455730317E-3    9.952879303796782E-1   -4.901984176983926E-2    9.965952739869737E-1   -6.134962904096921E-2    4.247569595098720E-3   -4.916459573443221E-3
 1.560000000000000E7     2.919022303613711E-3   -5.852116773979565E-3    9.932698168006755E-1   -6.794512414533874E-2    9.944783121254740E-1   -7.958195490201918E-2    2.229340620725603E-3   -6.243621181836028E-3
 1.950000000000000E7     2.083011654215719E-3   -8.326671212713008E-3    9.906648661645915E-1   -8.628588862127698E-2    9.922883491112626E-1   -9.751817952301965E-2    1.819396575123949E-3   -7.281461155825859E-3
 2.340000000000000E7     2.930172263604907E-4   -1.060428941783507E-2    9.880210021095015E-1   -1.042089137435956E-1    9.897803667825201E-1   -1.153218928035441E-1    7.977639560636327E-4   -9.327069433248250E-3
 2.730000000000000E7     3.017886358062053E-4   -1.329839530109389E-2    9.853232702950004E-1   -1.218805886297972E-1    9.875163796138615E-1   -1.327314067042465E-1   -1.583327080243743E-3   -1.238319073190008E-2
 3.120000000000000E7    -2.389155925499434E-3   -1.480948677962242E-2    9.825225001320393E-1   -1.394199695879184E-1    9.845391121883681E-1   -1.507074621189434E-1   -2.845967202394996E-3   -1.484740594265212E-2
 3.510000000000000E7    -2.994352224407434E-3   -1.689446634192837E-2    9.794702004481345E-1   -1.573357854917688E-1    9.814079524156377E-1   -1.685054753438936E-1   -4.374060338681672E-3   -1.725579025066678E-2
 3.900000000000000E7    -5.259917859518935E-3   -2.007408650601641E-2    9.762335924503791E-1   -1.747915665129467E-1    9.781317749390792E-1   -1.861626574752540E-1   -6.294387117919093E-3   -1.917130995096007E-2
 4.290000000000000E7    -5.738667641316548E-3   -2.179523957539608E-2    9.725185845978243E-1   -1.927158908808823E-1    9.742173427988556E-1   -2.040763101549887E-1   -6.428894711299229E-3   -2.278300770195523E-2
 4.680000000000000E7    -6.309270079644196E-3   -2.626009834326287E-2    9.685834246266792E-1   -2.104402260141793E-1    9.701153900710761E-1   -2.216087928518558E-1   -8.517430774649497E-3   -2.520218225446332E-2
 5.070000000000000E7    -6.468671458966759E-3   -2.958367150904551E-2    9.640543429802790E-1   -2.278070330406871E-1    9.656815963436057E-1   -2.391851273734074E-1   -1.022461309624615E-2   -2.702799849645233E-2
 5.460000000000000E7    -8.356332620844294E-3   -3.165089043732057E-2    9.597903689710110E-1   -2.448269787207900E-1    9.610713849946398E-1   -2.564161153478336E-1   -1.124181753265254E-2   -3.026020651849150E-2
 5.850000000000000E7    -7.547205769444499E-3   -3.481440862664857E-2    9.549570576283817E-1   -2.618707986047648E-1    9.560231879580794E-1   -2.734260435114191E-1   -1.347642183831989E-2   -3.283801028354009E-2
 6.240000000000000E7    -7.972137595496642E-3   -3.884063819456600E-2    9.498107076225496E-1   -2.790134568435945E-1    9.508340616699458E-1   -2.905891537064508E-1   -1.486619151140187E-2   -3.509223949360583E-2
 6.630000000000000E7    -7.650122823334698E-3   -4.005636603227241E-2    9.442891902809982E-1   -2.959787994432408E-1    9.448423131125484E-1   -3.076002199689737E-1   -1.524207955750764E-2   -3.754971288876710E-2
 7.020000000000000E7    -8.709942227726180E-3   -4.268115785056172E-2    9.386157607996305E-1   -3.128253965713976E-1    9.386151119138781E-1   -3.245683061980481E-1   -1.600874690495734E-2   -3.982274616113790E-2
 7.410000000000000E7    -8.659085894507253E-3   -4.484350823731037E-2    9.323648028012107E-1   -3.294259543870999E-1    9.323855793789217E-1   -3.410051599759321E-1   -1.844779834368490E-2   -4.228334250483247E-2
 7.800000000000000E7    -9.226704112349573E-3   -4.843868291584041E-2    9.260988048348827E-1   -3.459146758669407E-1    9.260093227621505E-1   -3.577026036056267E-1   -2.017929926215226E-2   -4.293111430094379E-2
 8.190000000000000E7    -1.009709574206162E-2   -5.033680669186061E-2    9.193565700082139E-1   -3.625745522424276E-1    9.189514559632678E-1   -3.742132861178754E-1   -2.047659466704781E-2   -4.449542250370813E-2
 8.580000000000000E7    -9.833481428004293E-3   -5.180317144466788E-2    9.125484278972146E-1   -3.788044020334292E-1    9.118641458149362E-1   -3.905272583962993E-1   -2.240961301021703E-2   -4.636929460730775E-2
 8.970000000000000E7    -9.988141959258488E-3   -5.332313322218070E-2    9.052927878330018E-1   -3.951816391888482E-1    9.045174022846934E-1   -4.067817164281311E-1   -2.396280393854051E-2   -4.665036434499561E-2
 9.360000000000000E7    -1.218663110475444E-2   -5.472150402889921E-2    8.976585524808783E-1   -4.110685006075424E-1    8.967475557863239E-1   -4.227988824433785E-1   -2.696418410744560E-2   -4.717609673991376E-2
 9.750000000000000E7    -1.207154464625090E-2   -5.658222099721201E-2    8.899124384647228E-1   -4.270142802470069E-1    8.887082754038613E-1   -4.385883564515000E-1   -2.965624620868788E-2   -4.802520613989577E-2
 1.014000000000000E8    -1.419821398387793E-2   -5.760501800654788E-2    8.819202111279799E-1   -4.426948621519906E-1    8.805516524861696E-1   -4.540506579515772E-1   -3.222614948459047E-2   -4.805978769328369E-2
 1.053000000000000E8    -1.722263033620766E-2   -5.850940878123205E-2    8.734104922977340E-1   -4.580251453633139E-1    8.717691316469892E-1   -4.697575298505096E-1   -3.455567227055228E-2   -4.805826891539685E-2
 1.092000000000000E8    -1.813412596287558E-2   -6.079948059083552E-2    8.648095612862343E-1   -4.733149416941284E-1    8.630854024435144E-1   -4.851824625281263E-1   -3.695044124212198E-2   -4.916208160833127E-2
 1.131000000000000E8    -1.976816034085603E-2   -6.059693873988742E-2    8.560134007140943E-1   -4.884475782699597E-1    8.539472478743700E-1   -5.000922860104792E-1   -4.020308581317215E-2   -4.899409455196815E-2
 1.170000000000000E8    -2.329438613818522E-2   -6.293689226582791E-2    8.467228211427958E-1   -5.034072796939633E-1    8.445583942795548E-1   -5.153095931910738E-1   -4.357809116931627E-2   -4.904946442654028E-2
 1.209000000000000E8    -2.479514470902035E-2   -6.475704396620240E-2    8.373447420920871E-1   -5.183028966654811E-1    8.349486311305843E-1   -5.299315159982192E-1   -4.706338507617945E-2   -4.998609500665364E-2
 1.248000000000000E8    -2.653732724738952E-2   -6.581442251344255E-2    8.276656995010667E-1   -5.333391280821324E-1    8.251627872540910E-1   -5.449363550866546E-1   -4.896967470868822E-2   -4.883476294884441E-2
 1.287000000000000E8    -2.969657063956116E-2   -6.771156802546485E-2    8.176534856508775E-1   -5.477429311945534E-1    8.150111483889478E-1   -5.592762531198874E-1   -5.309752641235356E-2   -4.939527895351170E-2
 1.326000000000000E8    -3.217175527786349E-2   -7.016639116932345E-2    8.074376807489424E-1   -5.622930833823899E-1    8.045162856503670E-1   -5.739092231360156E-1   -5.683868935433506E-2   -4.995279672749492E-2
 1.365000000000000E8    -3.483105610398025E-2   -7.180944489373491E-2    7.968482040130688E-1   -5.765273310902569E-1    7.938108041198529E-1   -5.879424559685189E-1   -6.120310231694222E-2   -5.076748548753737E-2
 1.404000000000000E8    -3.676957150780917E-2   -7.458750473171669E-2    7.861671467054648E-1   -5.906723656021342E-1    7.831366599762453E-1   -6.020680978508479E-1   -6.435339291475986E-2   -5.022710503147423E-2
 1.443000000000000E8    -3.985431472360981E-2   -7.663143061816498E-2    7.750342234528153E-1   -6.045595141932962E-1    7.718364092932651E-1   -6.159530811391465E-1   -6.862753747795486E-2   -5.046257808740591E-2
 1.482000000000000E8    -4.116828384727298E-2   -7.789327301849128E-2    7.634406342114165E-1   -6.185730176470524E-1    7.600335803084345E-1   -6.296655153450936E-1   -7.262469374300723E-2   -5.275843683638212E-2
 1.521000000000000E8    -4.406754828550804E-2   -8.155797249285340E-2    7.517033089618088E-1   -6.316300695780789E-1    7.483502424045770E-1   -6.430119774185005E-1   -7.543566009690883E-2   -5.271974332290327E-2
 1.560000000000000E8    -4.556470185413269E-2   -8.342788076506899E-2    7.400484508040607E-1   -6.447878186523581E-1    7.365864409271813E-1   -6.560244153861032E-1   -7.933382884287113E-2   -5.303866151073828E-2
 1.599000000000000E8    -4.807669383541253E-2   -8.527897356204218E-2    7.280047924331571E-1   -6.577064505734701E-1    7.244883891302905E-1   -6.689948638117001E-1   -8.234951640454237E-2   -5.227372315532221E-2
 1.638000000000000E8    -4.962300597261869E-2   -8.747633443641586E-2    7.156451514144205E-1   -6.701533982722016E-1    7.119152689943860E-1   -6.813580394670922E-1   -8.652936254574167E-2   -5.336668245515545E-2
 1.677000000000000E8    -5.254103601270692E-2   -8.886884223416937E-2    7.032764565662474E-1   -6.821669649794017E-1    6.992857214364041E-1   -6.935978052818929E-1   -9.039053909080315E-2   -5.269972796978874E-2
 1.716000000000000E8    -5.443482560707424E-2   -9.043267595191808E-2    6.906180017051298E-1   -6.943306624881788E-1    6.864977612983846E-1   -7.059775573725968E-1   -9.242037658884356E-2   -5.183687946117767E-2
 1.755000000000000E8    -5.592001601070207E-2   -9.317141655101635E-2    6.774414113682748E-1   -7.061162091986657E-1    6.732702884196788E-1   -7.177587086063512E-1   -9.509447866835578E-2   -5.243715102418596E-2
 1.794000000000000E8    -5.860165619461347E-2   -9.320709288690646E-2    6.645696757397234E-1   -7.176248197470865E-1    6.598139857947257E-1   -7.295780369446697E-1   -9.883402267573874E-2   -5.140378864097116E-2
 1.833000000000000E8    -6.051137329659945E-2   -9.530377736774104E-2    6.513281846662979E-1   -7.289362253300004E-1    6.461341978047602E-1   -7.408453719286984E-1   -1.017064331713722E-1   -5.031237173480593E-2
 1.872000000000000E8    -6.248360376253027E-2   -9.598954721423641E-2    6.379779943139535E-1   -7.401422384234925E-1    6.322796727527622E-1   -7.522115899676457E-1   -1.047318264224502E-1   -4.851531203454351E-2
 1.911000000000000E8    -6.571152385965201E-2   -9.681901220100880E-2    6.245321655441819E-1   -7.508443910635502E-1    6.182761769266159E-1   -7.630738472081371E-1   -1.077434746507085E-1   -4.765965822467145E-2
 1.950000000000000E8    -6.848738994963117E-2   -9.689881473358375E-2    6.109162405302651E-1   -7.614447408273348E-1    6.039800815465464E-1   -7.737140815624123E-1   -1.101225051907825E-1   -4.548251615718323E-2
 1.989000000000000E8    -7.163364710363097E-2   -9.774594440226826E-2    5.972763193961418E-1   -7.719727799806353E-1    5.895428915084988E-1   -7.840840591810782E-1   -1.131955103208408E-1   -4.367757573480255E-2
 2.028000000000000E8    -7.334287055318897E-2   -9.853242338647016E-2    5.832074492924295E-1   -7.827008552117546E-1    5.748890876684301E-1   -7.939006210268962E-1   -1.176666832991406E-1   -4.193463761875584E-2
 2.067000000000000E8    -7.882117528142440E-2   -9.918241860349969E-2    5.690274685385398E-1   -7.926809706581436E-1    5.601010281360616E-1   -8.032989028641893E-1   -1.204533526629566E-1   -3.879139766882006E-2
 2.106000000000000E8    -8.181340247222933E-2   -1.005007585554406E-1    5.543870874146097E-1   -8.028579573902208E-1    5.449545736088998E-1   -8.126719957493230E-1   -1.251316513675049E-1   -3.792035957041452E-2
 2.145000000000000E8    -8.624033843382803E-2   -1.010532770897164E-1    5.394900036842017E-1   -8.125586813633618E-1    5.299487108050134E-1   -8.211018941666736E-1   -1.300368268676993E-1   -3.455316890193822E-2
 2.184000000000000E8    -9.037205824720100E-2   -1.013859850834000E-1    5.245119974019299E-1   -8.219987831489916E-1    5.153339468620668E-1   -8.298583280611034E-1   -1.335633628364529E-1   -3.099318485734533E-2
 2.223000000000000E8    -9.370093708838978E-2   -1.021815954216980E-1    5.090138252775920E-1   -8.312843422327395E-1    4.999373530685463E-1   -8.383496446048931E-1   -1.379592810277784E-1   -2.949427127533617E-2
 2.262000000000000E8    -9.734661372953597E-2   -1.037055473633687E-1    4.932153468729497E-1   -8.399040616543388E-1    4.850061983515788E-1   -8.465750213228207E-1   -1.419634213920997E-1   -2.592792029185095E-2
 2.301000000000000E8    -1.018740339704504E-1   -1.043882397732886E-1    4.773789410277163E-1   -8.481121802768580E-1    4.695512596653193E-1   -8.545263679899378E-1   -1.456524660687334E-1   -2.247643234090272E-2
 2.340000000000000E8    -1.062519649114673E-1   -1.055872545913009E-1    4.614477673087900E-1   -8.559207623680802E-1    4.540641332081768E-1   -8.624665818345933E-1   -1.499805490624201E-1   -1.915581531699584E-2
 2.379000000000000E8    -1.101618638398114E-1   -1.060625459420131E-1    4.456914245681272E-1   -8.633363909645694E-1    4.383576397346657E-1   -8.700422497995837E-1   -1.535250358374930E-1   -1.638726042668461E-2
 2.418000000000000E8    -1.136105256765261E-1   -1.079652124323719E-1    4.293922336371900E-1   -8.704668128641201E-1    4.224935242665986E-1   -8.775082276195136E-1   -1.571644127506792E-1   -1.314479841292337E-2
 2.457000000000000E8    -1.181979669972774E-1   -1.084228142050416E-1    4.134025213984436E-1   -8.773446472458782E-1    4.062896751615413E-1   -8.846234203550633E-1   -1.609157361445375E-1   -1.062777893685493E-2
 2.496000000000000E8    -1.214521650372314E-1   -1.098809567988798E-1    3.972176730622247E-1   -8.839135588435577E-1    3.899838640050079E-1   -8.913615253958670E-1   -1.644513216349534E-1   -7.692861635286638E-3
 2.535000000000000E8    -1.244378868138069E-1   -1.116227065982714E-1    3.807408856827458E-1   -8.899029328026905E-1    3.736367287144927E-1   -8.975193620475238E-1   -1.679490468958930E-1   -4.521482591633354E-3
 2.574000000000000E8    -1.298441315784402E-1   -1.115567395710052E-1    3.646537534873878E-1   -8.954655928361341E-1    3.570282788747534E-1   -9.035465262221800E-1   -1.709313669437877E-1   -1.568341544171493E-3
 2.613000000000000E8    -1.325407344466891E-1   -1.126054212491223E-1    3.480145891328601E-1   -9.011281093949909E-1    3.404056390651589E-1   -9.092098042648061E-1   -1.737158673022497E-1    1.347844693271406E-3
 2.652000000000000E8    -1.369795705405742E-1   -1.118505584656887E-1    3.319441871940143E-1   -9.062242362723434E-1    3.235596944854077E-1   -9.142125949238576E-1   -1.774119928026661E-1    5.008255879535198E-3
 2.691000000000000E8    -1.417417633542312E-1   -1.122287252882578E-1    3.153501349318104E-1   -9.110075670272835E-1    3.068877361539992E-1   -9.192196485295585E-1   -1.794113975449116E-1    8.456833271096918E-3
 2.730000000000000E8    -1.447579116846949E-1   -1.124936464056458E-1    2.987384908808040E-1   -9.158866323261169E-1    2.896513794950010E-1   -9.238178197842177E-1   -1.824600871445626E-1    1.100793108405294E-2
 2.769000000000000E8    -1.485592048603693E-1   -1.112103844167591E-1    2.822377186730726E-1   -9.201994856339127E-1    2.729314109751776E-1   -9.279404209135810E-1   -1.848471222267740E-1    1.534347323715804E-2
 2.808000000000000E8    -1.519819967899683E-1   -1.108172233408377E-1    2.653743631370439E-1   -9.244305447555995E-1    2.558530328286810E-1   -9.319706648146927E-1   -1.866769994983495E-1    1.948360137206605E-2
 2.847000000000000E8    -1.557947986276257E-1   -1.091963843383847E-1    2.486750640166207E-1   -9.284109063042932E-1    2.390509591694372E-1   -9.356092885571682E-1   -1.883503850369236E-1    2.387949686065896E-2
 2.886000000000000E8    -1.608757203596761E-1   -1.091999114014950E-1    2.318199379819891E-1   -9.315881621110553E-1    2.216813538176622E-1   -9.389486370373152E-1   -1.913585197390505E-1    2.688621374906457E-2
 2.925000000000000E8    -1.648122472600587E-1   -1.071034864905323E-1    2.147773360394750E-1   -9.348892063919739E-1    2.047853708035243E-1   -9.418440983288592E-1   -1.930017510563758E-1    3.265518096391731E-2
 2.964000000000000E8    -1.692635824490168E-1   -1.063443960724543E-1    1.976286194918917E-1   -9.377038710387968E-1    1.877619941583814E-1   -9.446451483940705E-1   -1.949248837228109E-1    3.758396389925159E-2
 3.003000000000000E8    -1.738550553140405E-1   -1.050070820505623E-1    1.806371238002872E-1   -9.403593238417035E-1    1.702703383283219E-1   -9.470826216732761E-1   -1.970495762847928E-1    4.202868263851758E-2
 3.042000000000000E8    -1.783407640148520E-1   -1.025419970988492E-1    1.636540032281687E-1   -9.428342014089965E-1    1.533714055536919E-1   -9.491859830732320E-1   -1.989006263492024E-1    4.801207224121018E-2
 3.081000000000000E8    -1.832909687455824E-1   -1.011769951659802E-1    1.463196476896596E-1   -9.447458454036964E-1    1.356991803589674E-1   -9.508496822660040E-1   -2.015027983101614E-1    5.298846213488772E-2
 3.120000000000000E8    -1.886982993811838E-1   -9.998777969126191E-2    1.291232925936108E-1   -9.460459263641534E-1    1.185381008007332E-1   -9.520887317697053E-1   -2.040082686351696E-1    5.853970537063884E-2
 3.159000000000000E8    -1.930118236036837E-1   -9.821035850078096E-2    1.119502072019306E-1   -9.474933599666843E-1    1.009750397763931E-1   -9.533388841759340E-1   -2.059030066478761E-1    6.352432929518975E-2
 3.198000000000000E8    -1.987618949337359E-1   -9.774978040476215E-2    9.424939321494855E-2   -9.481044274210763E-1    8.384977262333680E-2   -9.537554828394871E-1   -2.086613598666695E-1    7.084410718245580E-2
 3.237000000000000E8    -2.042698261956676E-1   -9.521272222834076E-2    7.758357530016254E-2   -9.488314156521800E-1    6.645360638571240E-2   -9.545048991376454E-1   -2.104607084438192E-1    7.615931811982871E-2
 3.276000000000000E8    -2.084483881096243E-1   -9.385732801727974E-2    6.026507737270845E-2   -9.494852990249945E-1    4.929340472660416E-2   -9.545526355989835E-1   -2.133120018685621E-1    8.273770280033990E-2
 3.315000000000000E8    -2.143438494797201E-1   -9.271946543112396E-2    4.320460229569906E-2   -9.487830189712281E-1    3.200316154479685E-2   -9.539255772307244E-1   -2.160162243011578E-1    8.824167747319152E-2
 3.354000000000000E8    -2.194698543965076E-1   -8.993850199649359E-2    2.647668455015586E-2   -9.486432529819006E-1    1.510486557492774E-2   -9.532942388866076E-1   -2.178300732080715E-1    9.517809748726669E-2
 3.393000000000000E8    -2.235699162448273E-1   -8.834509189108380E-2    9.337897167774913E-3   -9.481670481452281E-1   -2.257673770207425E-3   -9.526754581403862E-1   -2.188908521760896E-1    1.006439929359725E-1
 3.432000000000000E8    -2.290121934873392E-1   -8.610677292193918E-2   -7.308504160494077E-3   -9.468852588587735E-1   -1.927881450101309E-2   -9.510376288075978E-1   -2.222415335170574E-1    1.069489147760091E-1
 3.471000000000000E8    -2.332568704186817E-1   -8.502094128795226E-2   -2.432549586579935E-2   -9.454415682421744E-1   -3.632730557427710E-2   -9.494576937666311E-1   -2.234147223404460E-1    1.121884441223398E-1
 3.510000000000000E8    -2.380416889563363E-1   -8.319499975434751E-2   -4.096605709396466E-2   -9.437093639033474E-1   -5.260190863631815E-2   -9.476414063639035E-1   -2.242110942953017E-1    1.189747905997952E-1
 3.549000000000000E8    -2.421710266863447E-1   -8.030384408566107E-2   -5.760053084891937E-2   -9.416695179415915E-1   -6.985170017628407E-2   -9.452249846726639E-1   -2.252850949664379E-1    1.237385273750817E-1
