# HZ S RI R 50
3900000 -0.036774716739410115 0.0026686564667999734 1.000863113030942 -0.018605121814077454 0 0 0 0
7800000 -0.03556569708542893 0.004263607087021344 0.9999787778283012 -0.03524885289166568 0 0 0 0
11700000 -0.03309660257209952 0.005534451278677824 0.9988124146805983 -0.052653759243049165 0 0 0 0
15600000 -0.031692330705310544 0.006797261493327532 0.9968472766321689 -0.07005026048248736 0 0 0 0
19500000 -0.02810106318856028 0.008186643215319353 0.996136377958026 -0.08569908649434609 0 0 0 0
23400000 -0.025054929443024607 0.008568447811173599 0.9931072855490762 -0.10328502849282645 0 0 0 0
27300000 -0.02229466061114336 0.008405224890431398 0.9913069708281014 -0.11934896581911006 0 0 0 0
31200000 -0.018639295102794395 0.007777951288714779 0.9893156192594446 -0.136380629591901 0 0 0 0
35100000 -0.015035684026286751 0.006740945181480509 0.9861865788446613 -0.152768766442759 0 0 0 0
39000000 -0.011314354491499132 0.00527881226207305 0.9838390266753106 -0.16940679650988355 0 0 0 0
42900000 -0.007781211418812968 0.0029640455075977353 0.9799531164574583 -0.18537150714326278 0 0 0 0
46800000 -0.0035429479930635015 0.0008942980379239823 0.9772695364424693 -0.20156714563834544 0 0 0 0
50700000 0.0004320659068803549 -0.0022289596001614513 0.9739417865966287 -0.2169553521193217 0 0 0 0
54600000 0.004155781483174348 -0.005452109783648612 0.9696329461832198 -0.2339917286912512 0 0 0 0
58500000 0.007882026098357527 -0.00958184325867161 0.9656327576150737 -0.25010342924251816 0 0 0 0
62400000 0.011147902280089817 -0.014072191286745323 0.9616017145810042 -0.26645090672902133 0 0 0 0
66300000 0.014170614235375061 -0.018507341410037455 0.9570910515325627 -0.2834014129773843 0 0 0 0
70200000 0.01693565393872578 -0.02391626221474456 0.9526376694343127 -0.2991665746877975 0 0 0 0
74100000 0.01932248272250009 -0.02934999985275493 0.9463679872803553 -0.3160834196882554 0 0 0 0
78000000 0.021847309079565586 -0.035667771363744105 0.9420630092098399 -0.33166784254333226 0 0 0 0
81900000 0.02260068457863894 -0.04301350204160043 0.9360822498000214 -0.3484761956975267 0 0 0 0
85800000 0.02303600866725393 -0.049429626159517376 0.9292767201580381 -0.36433006618396846 0 0 0 0
89700000 0.023897304371513717 -0.05623884952677518 0.9232909126841773 -0.3799687244201425 0 0 0 0
93600000 0.0236734012063581 -0.06362122513825673 0.9163689799293036 -0.3963478510426766 0 0 0 0
97500000 0.022431086654818192 -0.07022316791603335 0.9084000962426405 -0.4109375119986239 0 0 0 0
101400000 0.02041005930684503 -0.07686444153919826 0.9008885177544598 -0.42615843499408673 0 0 0 0
105300000 0.018256779273962617 -0.08351005530534372 0.8925474272425392 -0.44128691587703966 0 0 0 0
109200000 0.016002402570407668 -0.0906313133862794 0.8840612325135813 -0.45601268067875544 0 0 0 0
113100000 0.012395864322452939 -0.09766792527607285 0.8740712785980924 -0.47168883993172933 0 0 0 0
117000000 0.008716642185931241 -0.10429995352479007 0.8653337552074372 -0.4864421803940506 0 0 0 0
120900000 0.004521774821923878 -0.11063195653242215 0.8555492359866901 -0.5001502758481083 0 0 0 0
124800000 -0.0005254673088048046 -0.11648793314182757 0.8460367948552955 -0.5133834055574932 0 0 0 0
128700000 -0.006040218571725041 -0.1220616181169361 0.8368225801021438 -0.5263653615465272 0 0 0 0
132600000 -0.01194441315537411 -0.12685934801438198 0.8253431094291245 -0.5397628364427585 0 0 0 0
136500000 -0.017734799602894424 -0.1317784233892451 0.8160148349759303 -0.5536254034324727 0 0 0 0
140400000 -0.02501627012400163 -0.13607537278684365 0.8066095963531711 -0.5663704406527903 0 0 0 0
144300000 -0.031202411180486066 -0.13963888425754792 0.7968655598786522 -0.5788399884063713 0 0 0 0
148200000 -0.03863210983672126 -0.1430265069071638 0.7859754645329957 -0.5903951945411213 0 0 0 0
152100000 -0.04558977284138302 -0.14529663940392032 0.7753224609984819 -0.602928410003702 0 0 0 0
156000000 -0.0529400140418157 -0.14678717282898823 0.7657920709137296 -0.6155925078458496 0 0 0 0
159900000 -0.060373004194358114 -0.1483456450396253 0.7546966259160164 -0.626613310683064 0 0 0 0
163800000 -0.06781535709743404 -0.14948091464692173 0.7453292274604988 -0.6392656142141414 0 0 0 0
167700000 -0.07543261463508363 -0.14891522022369735 0.7348785488813865 -0.6511909560063575 0 0 0 0
171600000 -0.08244266354243374 -0.14949647154048842 0.7237253381876972 -0.6621344518932832 0 0 0 0
175500000 -0.08895365954100022 -0.14839406651483814 0.7123507119030507 -0.6734448961993011 0 0 0 0
179400000 -0.09559639544781004 -0.14747381302803508 0.7018216829008299 -0.685858357718436 0 0 0 0
183300000 -0.10230136818097178 -0.14593386212473872 0.6904840569709547 -0.6977529654822685 0 0 0 0
187200000 -0.10809747793171463 -0.14326719408492244 0.6790456989383816 -0.7090156269316527 0 0 0 0
191100000 -0.11405635812570941 -0.14132911395934164 0.6659243914588968 -0.7214925877516114 0 0 0 0
195000000 -0.11941713203227367 -0.1389654254948354 0.6542889867246119 -0.7322915271221434 0 0 0 0
198900000 -0.12424346264491518 -0.1360077619730769 0.6417253120570419 -0.742854339134772 0 0 0 0
202800000 -0.12905623435763117 -0.13281207542364631 0.6273215032824471 -0.7540741389038165 0 0 0 0
206700000 -0.13306904370498565 -0.1301952250968478 0.6136106019484343 -0.7641368800703457 0 0 0 0
210600000 -0.1364249325865566 -0.12678843458017108 0.600670692425418 -0.774457411479571 0 0 0 0
214500000 -0.1396313536721444 -0.12344394035700984 0.587057477154216 -0.7842680057160252 0 0 0 0
218400000 -0.14188053451236002 -0.12027658586833821 0.5719431109032409 -0.7938629982323604 0 0 0 0
222300000 -0.143882560357784 -0.11742688765956934 0.5572637740067057 -0.8013477244940619 0 0 0 0
226200000 -0.1452888343170709 -0.1146220224390288 0.5423784858316665 -0.8102270440022906 0 0 0 0
230100000 -0.1465055450236306 -0.11242260589129925 0.5293992262222725 -0.8176145905777691 0 0 0 0
234000000 -0.1471934828238095 -0.10980060944108312 0.5137239542104545 -0.8257842984668124 0 0 0 0
237900000 -0.14778389427650462 -0.10772555854979636 0.49909590600023923 -0.8332861326812798 0 0 0 0
241800000 -0.14717592995378137 -0.10632001429222591 0.4854451679331476 -0.8405140652892518 0 0 0 0
245700000 -0.14764377817943639 -0.10473448205918577 0.4698905613365857 -0.8462747152003928 0 0 0 0
249600000 -0.14726676508765957 -0.10416196238940942 0.45660157713423877 -0.8539967951338914 0 0 0 0
253500000 -0.14681877184356007 -0.10413897592633432 0.44295275733007594 -0.8590500964706546 0 0 0 0
257400000 -0.1456839562905779 -0.10427365891703672 0.4292641654506781 -0.8654201059688372 0 0 0 0
261300000 -0.14535208969941163 -0.10495119997129775 0.4148200672027661 -0.8723720258033412 0 0 0 0
265200000 -0.14423865449938408 -0.10665155701024012 0.4012309606441081 -0.8776913517240443 0 0 0 0
269100000 -0.14408240360514893 -0.10817975581264781 0.3862497231952565 -0.884026033819807 0 0 0 0
273000000 -0.14402043142516613 -0.11042340131475024 0.37279978561802074 -0.8885842700759857 0 0 0 0
276900000 -0.14357042330196648 -0.11333911065011029 0.35702469513133983 -0.8948055081303855 0 0 0 0
280800000 -0.14338848145430635 -0.1166951302168575 0.34328217652169807 -0.8998329537506592 0 0 0 0
284700000 -0.14433632470649768 -0.11968454665298552 0.32824007292570856 -0.9069746301244396 0 0 0 0
288600000 -0.1447839808919329 -0.123340959119811 0.3141439938319513 -0.9124358426445457 0 0 0 0
292500000 -0.14584242904365383 -0.12772370566083008 0.29975034851961313 -0.9172457135282822 0 0 0 0
296400000 -0.14775756200725862 -0.13246054019417408 0.2826578187517299 -0.9222966270305977 0 0 0 0
300300000 -0.1497270534296831 -0.13723625092385616 0.2669627407226212 -0.9286768376568609 0 0 0 0
304200000 -0.15282554181917615 -0.14206986949246972 0.2510918211214631 -0.9333480603766409 0 0 0 0
308100000 -0.15597560896476298 -0.14751394720385347 0.2346537374380187 -0.9382875915842557 0 0 0 0
312000000 -0.15986197510229233 -0.15199616421458534 0.21822957213266875 -0.9423469379249899 0 0 0 0
315900000 -0.16381146423922202 -0.15680906119544402 0.20001735539028087 -0.9450124925636791 0 0 0 0
319800000 -0.16975637002023652 -0.16200224546469702 0.18221558686605985 -0.9485350260097178 0 0 0 0
323700000 -0.17505045323493312 -0.16631880597389803 0.16529303235952333 -0.9499410246921647 0 0 0 0
327600000 -0.18133612747409122 -0.1710811512044066 0.14623533941711964 -0.9531041449564022 0 0 0 0
331500000 -0.18764842696686523 -0.17445560476893157 0.12721999057884054 -0.9549896013361671 0 0 0 0
335400000 -0.19483745312872547 -0.17809060110219063 0.11087214476035664 -0.9546816866941912 0 0 0 0
339300000 -0.20241856496817967 -0.1814851094943773 0.09247605626506146 -0.9541221594492794 0 0 0 0
343200000 -0.21069131863474017 -0.18377202565701875 0.07529018521768849 -0.9543248523305088 0 0 0 0
347100000 -0.21883789786641294 -0.18625006173334654 0.059685459947113294 -0.9522110348269232 0 0 0 0
351000000 -0.22739285927489578 -0.18711629610482017 0.04086951189453847 -0.9513120777196452 0 0 0 0
354900000 -0.23684913321264495 -0.1885120565537374 0.023072595643027355 -0.9492700694142158 0 0 0 0
358800000 -0.24616989984679458 -0.18885122195649354 0.0064357840189466255 -0.9472685881219195 0 0 0 0
362700000 -0.25466409778008664 -0.1889106126870406 -0.007657504009658006 -0.9447082570875153 0 0 0 0
366600000 -0.26360755642477374 -0.18794709516430738 -0.02317490296732663 -0.9412697171170102 0 0 0 0
370500000 -0.27290047801890926 -0.1857410263381584 -0.039131100557010016 -0.9381900735435944 0 0 0 0
374400000 -0.2825911782767361 -0.18326557666179233 -0.055978984232392996 -0.9355870916871 0 0 0 0
378300000 -0.2910715075724994 -0.17969679695369326 -0.0700873836547834 -0.9311324816644403 0 0 0 0
382200000 -0.30008925066973857 -0.17564156183078006 -0.08410911257063657 -0.9278409862174619 0 0 0 0
386100000 -0.30908081512585467 -0.17073421606859748 -0.09810486725854786 -0.9241616834764372 0 0 0 0
390000000 -0.3177020824806419 -0.16531397556692567 -0.11291973037248042 -0.9197515634425865 0 0 0 0
393900000 -0.32576614818556376 -0.1594548622464958 -0.1261490098392721 -0.9156068025979157 0 0 0 0
397800000 -0.33378591780435524 -0.15197680930546031 -0.14095001131518975 -0.9121589115676724 0 0 0 0
401700000 -0.3416103622440688 -0.14495282282886285 -0.15533450978879454 -0.9083989289108693 0 0 0 0
405600000 -0.3489170634218418 -0.1370743497858312 -0.16937008206265736 -0.9036182303705993 0 0 0 0
409500000 -0.355429103978844 -0.12915906279529962 -0.18381023066507005 -0.8991404785520422 0 0 0 0
413400000 -0.3620875436885687 -0.1204502292340215 -0.19837959081486042 -0.8946875044035377 0 0 0 0
417300000 -0.367523829716842 -0.11153683861261367 -0.21082819997576768 -0.8906722618823332 0 0 0 0
421200000 -0.3727198590545322 -0.10270794030640952 -0.2247549825933535 -0.8843273970167177 0 0 0 0
425100000 -0.37699450431794856 -0.09284370574121563 -0.23854957259834908 -0.8795472390610366 0 0 0 0
429000000 -0.38199120605003123 -0.08370044031841653 -0.25180240637662377 -0.8759218828683912 0 0 0 0
432900000 -0.3858857809145398 -0.07458709439720403 -0.26490071881688143 -0.8696295585673933 0 0 0 0
436800000 -0.38926640075205676 -0.06410011711358438 -0.27935812976847996 -0.8636218190674573 0 0 0 0
440700000 -0.3917764803579441 -0.055014936243783806 -0.29180556633779486 -0.8570444140034864 0 0 0 0
444600000 -0.39379644070431924 -0.046044650428811965 -0.3030050483430619 -0.8514636048025891 0 0 0 0
448500000 -0.39566415753743983 -0.03573680414191305 -0.3162128911720782 -0.8448535305016485 0 0 0 0
452400000 -0.3969166377191061 -0.026905963301952204 -0.32939708797628586 -0.8382698475186255 0 0 0 0
456300000 -0.39711121361917345 -0.01774558870898971 -0.34255195755904383 -0.8276154144935621 0 0 0 0
460200000 -0.39846393884725073 -0.010133541747801626 -0.35093036374118386 -0.8264733996741073 0 0 0 0
464100000 -0.39869095477281646 -0.0005253949332239233 -0.36573606864944025 -0.8168806210210805 0 0 0 0
468000000 -0.3989987201289917 0.006979836485998705 -0.3764409385922778 -0.8123371101344554 0 0 0 0
471900000 -0.39872937992371194 0.01404435451411103 -0.3884794045267023 -0.8038110691733923 0 0 0 0
475800000 -0.39828262983549806 0.021798151887653987 -0.39934715043614455 -0.796676988998763 0 0 0 0
479700000 -0.3976891562522449 0.027564491467624557 -0.40962600328614274 -0.7918416413991631 0 0 0 0
483600000 -0.39734520757015723 0.03377727443889636 -0.42182468258573796 -0.7837442032836077 0 0 0 0
487500000 -0.3972274926987679 0.039752576042125023 -0.4343519971514676 -0.7761437222778335 0 0 0 0
491400000 -0.3969562002694038 0.04513293410813405 -0.44584420983811235 -0.7685564889414862 0 0 0 0
495300000 -0.3969190530514784 0.049305997968951173 -0.45609527924501186 -0.7629347084963859 0 0 0 0
499200000 -0.3966203632371609 0.054622221707170925 -0.4682282160787489 -0.7550101145320902 0 0 0 0
503100000 -0.3966502870559037 0.05729197275782018 -0.4789591501381971 -0.7490486372001146 0 0 0 0
507000000 -0.39698827311094975 0.060687028302294506 -0.49164992687445397 -0.7407650041627188 0 0 0 0
510900000 -0.3973696175611331 0.06344699476373537 -0.5026671248578038 -0.7330149533389249 0 0 0 0
514800000 -0.39845669771079406 0.06637345706640237 -0.5148842915183556 -0.7247161236000961 0 0 0 0
518700000 -0.3993999182435678 0.06887746252145135 -0.5254917758767559 -0.7178867752105673 0 0 0 0
522600000 -0.40094878709872567 0.07172526091940806 -0.5390578913478777 -0.7091709584886084 0 0 0 0
526500000 -0.40313353915412303 0.07387126033340047 -0.5519166086613336 -0.6994203615660509 0 0 0 0
530400000 -0.40562478263690976 0.07504124782657558 -0.5649915680977561 -0.6897181844315419 0 0 0 0
534300000 -0.40877819255357256 0.07671736497818837 -0.5759046224650369 -0.6814539724158087 0 0 0 0
538200000 -0.41192443866607953 0.07894787691019754 -0.5902805627410005 -0.6703843985165175 0 0 0 0
542100000 -0.41612903938212886 0.08147981000513917 -0.6022062501272685 -0.6593148838121656 0 0 0 0
546000000 -0.4200831753441531 0.08387110056224206 -0.6140331749974007 -0.6480741726481565 0 0 0 0
549900000 -0.4248349551761821 0.08613508558903717 -0.6243599490577056 -0.6336944105217124 0 0 0 0
553800000 -0.42836460419174516 0.08937657443659214 -0.63516267464787 -0.620416874752124 0 0 0 0
557700000 -0.43503890330973344 0.09124105599596172 -0.6482335523877141 -0.6090399167297406 0 0 0 0
561600000 -0.44027282746515245 0.09481785004231352 -0.6580446443442615 -0.5958475509131737 0 0 0 0
565500000 -0.44506314887114135 0.09849310158787311 -0.6677414709338054 -0.5824764711349908 0 0 0 0
569400000 -0.4512303955716283 0.1044505607343922 -0.6775861122715232 -0.5639305838988843 0 0 0 0
573300000 -0.4576979102208763 0.10703185415706429 -0.6860309861679286 -0.551190931902493 0 0 0 0
577200000 -0.4636611016227098 0.11211440620348112 -0.6935107102555543 -0.5371656446922508 0 0 0 0
581100000 -0.46951964753484926 0.11827519175446823 -0.7007867115094188 -0.5206789131624417 0 0 0 0
585000000 -0.4751279490545806 0.12371744953061757 -0.706835347777008 -0.5037036783212079 0 0 0 0
588900000 -0.4811053045043426 0.13098359077682412 -0.7133552003312486 -0.48887279175883247 0 0 0 0
592800000 -0.48630993608319734 0.1386718683311679 -0.7185939844991062 -0.47478912853525757 0 0 0 0
596700000 -0.49073691575576667 0.1462116468654045 -0.7232907295219877 -0.4576413391148335 0 0 0 0
600600000 -0.4954455091757097 0.15476713429345587 -0.7279048317638458 -0.44211257830125616 0 0 0 0
604500000 -0.5001434980823442 0.16378078681271108 -0.731071642905981 -0.42779238726713914 0 0 0 0
608400000 -0.5036559816883676 0.17290044261520665 -0.7345782347616749 -0.41402983126573073 0 0 0 0
612300000 -0.5073845644023475 0.18363779481891349 -0.7360458416511871 -0.40057022983967494 0 0 0 0
616200000 -0.5101046681064721 0.1919467922304625 -0.7394556865945989 -0.38367256056570803 0 0 0 0
620100000 -0.5118257549677047 0.2043722251782587 -0.7398005410019025 -0.3696313962638801 0 0 0 0
624000000 -0.5146610026875712 0.21468131100825605 -0.7429154497629115 -0.3570491418906506 0 0 0 0
627900000 -0.5167616186790538 0.22583004539866788 -0.7433177006338376 -0.3452554652066782 0 0 0 0
631800000 -0.5157659923057373 0.2367708026719988 -0.7431471108179454 -0.33213872905754394 0 0 0 0
635700000 -0.5151502688328146 0.2482752055365088 -0.7438714670036582 -0.31926048324792444 0 0 0 0
639600000 -0.5137095871603483 0.261441388106225 -0.7451869550246468 -0.3045705041056077 0 0 0 0
643500000 -0.5104674199788368 0.2717999735926472 -0.743568521252025 -0.29604715167940016 0 0 0 0
647400000 -0.5084070126895428 0.28612368479592454 -0.7474095685838521 -0.28329255415872034 0 0 0 0
651300000 -0.5047953687597494 0.2981900245615584 -0.745607167169605 -0.2709641918193339 0 0 0 0
655200000 -0.5007650483374299 0.31078056933703196 -0.7454612441460324 -0.25969419913549635 0 0 0 0
659100000 -0.4975538106876326 0.3224487162203415 -0.7452916969094862 -0.25089854934892997 0 0 0 0
663000000 -0.4916018392524981 0.33432720650377773 -0.7441320837905484 -0.23906872655019873 0 0 0 0
666900000 -0.486958713154691 0.3457949257758082 -0.7462033429115322 -0.2297681274709922 0 0 0 0
670800000 -0.4802689204038941 0.3580110153231088 -0.7457578487140322 -0.21883518636925142 0 0 0 0
674700000 -0.47352825501733986 0.3699566340702424 -0.74398753159264 -0.20921898525366228 0 0 0 0
678600000 -0.46559581732021577 0.38090248436963625 -0.745698290180616 -0.2014333959390007 0 0 0 0
682500000 -0.456112367742798 0.39301406866357935 -0.7464636743427314 -0.1903542922279744 0 0 0 0
686400000 -0.4480057136240294 0.4034033276022945 -0.7466295223721332 -0.18161258793162952 0 0 0 0
690300000 -0.4398919460724778 0.41577297758698634 -0.7467859198336931 -0.16939193120792695 0 0 0 0
694200000 -0.43078235188245606 0.42539800775083186 -0.7506347219956327 -0.16567809337728184 0 0 0 0
698100000 -0.4205612256371703 0.4336378948873182 -0.747934399883381 -0.15315208422830717 0 0 0 0
702000000 -0.41368690481711345 0.44316784309809476 -0.7529263167845464 -0.14717904944659718 0 0 0 0
705900000 -0.39981977664026724 0.4534078194511896 -0.7538602539876614 -0.13799403134165014 0 0 0 0
709800000 -0.3883932028821438 0.460655985115799 -0.7502518133418355 -0.12435835556572852 0 0 0 0
713700000 -0.37746064506313026 0.468163573435927 -0.7488885480748863 -0.11629144288431273 0 0 0 0
717600000 -0.3675254089444629 0.4767335893028 -0.7530906641791221 -0.10578895270548522 0 0 0 0
721500000 -0.35707001586814413 0.4829865454978802 -0.7559369841109539 -0.09992092132046182 0 0 0 0
725400000 -0.3465947774430267 0.4903589478383929 -0.75415640254912 -0.0872729431317445 0 0 0 0
729300000 -0.3362597846021402 0.49564123732979204 -0.7569041850710456 -0.07942116582219692 0 0 0 0
733200000 -0.3267843476998267 0.502115707926392 -0.7609042104291646 -0.07054321149873512 0 0 0 0
737100000 -0.31538054080478894 0.508865826320547 -0.762315141310546 -0.06107540861081483 0 0 0 0
741000000 -0.30452261725661534 0.5130300598396055 -0.7627647236552666 -0.048893127089615976 0 0 0 0
744900000 -0.2963275442034516 0.5183355489482192 -0.766074365419511 -0.038973293547404315 0 0 0 0
748800000 -0.2871291842498984 0.5235350809200476 -0.7674407676992996 -0.029388984818131715 0 0 0 0
752700000 -0.27900072688128036 0.527728022171619 -0.7681479840913603 -0.018196127534250324 0 0 0 0
756600000 -0.2711618958108954 0.5318044199152859 -0.769868695270384 -0.006002070295788697 0 0 0 0
760500000 -0.2646897316944677 0.5368178791400371 -0.7736708231581056 0.003144074874056227 0 0 0 0
764400000 -0.2568161720977748 0.5405935662434825 -0.7746982309124438 0.016684799623237406 0 0 0 0
768300000 -0.25096689827112606 0.545579864863922 -0.7764689860157068 0.028531629528766176 0 0 0 0
772200000 -0.24160661195984945 0.5467361226287042 -0.7772011928927077 0.04172922268396951 0 0 0 0
776100000 -0.23588154874981954 0.5510678302181521 -0.7778454075416259 0.05774657504379274 0 0 0 0
780000000 -0.22877983807207228 0.5541579334945715 -0.7776921251420611 0.07133966324039695 0 0 0 0
