# HZ S RI R 50
3900000 -0.036086376228707764 0.006052634309857613 1.0022420209022647 -0.02552587806722252 0 0 0 0
7800000 -0.03444569232472322 0.011527240251871457 1.001245804880805 -0.04910558143950681 0 0 0 0
11700000 -0.031228182279207005 0.01569760023978188 0.9996131526055766 -0.07415489700411591 0 0 0 0
15600000 -0.029127106986662106 0.019282012819182598 0.9969959016936275 -0.09806045036169715 0 0 0 0
19500000 -0.024993060372266535 0.023076845336653294 0.9941982378717906 -0.12082767447785797 0 0 0 0
23400000 -0.0205185618080465 0.02616528116486701 0.9900699067735705 -0.14582081967489777 0 0 0 0
27300000 -0.016485385729179142 0.02908964405461829 0.9866294905013505 -0.16868230417355326 0 0 0 0
31200000 -0.011594182984130853 0.0310390345502819 0.9824717575647061 -0.19237552267039196 0 0 0 0
35100000 -0.00658006302197147 0.03249847094708726 0.9767403915680375 -0.21490593188417575 0 0 0 0
39000000 -0.001576609785006712 0.032824584288158244 0.9717260820383569 -0.23840366697771564 0 0 0 0
42900000 0.003172812678593076 0.03221807212039729 0.9659068686067714 -0.26085629969823637 0 0 0 0
46800000 0.00867240020105837 0.03181585905914441 0.9602396228009338 -0.28253545719371087 0 0 0 0
50700000 0.013698896431617208 0.030477755432288617 0.9531049877814218 -0.30513430758482246 0 0 0 0
54600000 0.018813836654990153 0.02829349686094406 0.9458635931156238 -0.3283896157873386 0 0 0 0
58500000 0.023117104535644417 0.024811056259900908 0.9378571396549007 -0.35124113230890386 0 0 0 0
62400000 0.027098994908398365 0.02167027897649308 0.9300271732335851 -0.3738989844557876 0 0 0 0
66300000 0.030876267425959142 0.017972436080540707 0.9211716561757222 -0.39655327462405016 0 0 0 0
70200000 0.03425277103771822 0.014279678836048365 0.9119310632659559 -0.41913745134423047 0 0 0 0
74100000 0.03691155584094398 0.00973259052374106 0.9013703788132557 -0.4414102753086457 0 0 0 0
78000000 0.03940628800056153 0.004456034005843942 0.8910558578484609 -0.4627603450526567 0 0 0 0
81900000 0.04069752364847878 -0.0013269079135777336 0.8798184213953473 -0.485317480765261 0 0 0 0
85800000 0.04100062938878588 -0.0062236892685388024 0.8673222088214471 -0.5069873386016556 0 0 0 0
89700000 0.041157754185998485 -0.011885363900708419 0.8547276450372626 -0.5275718425111852 0 0 0 0
93600000 0.040476394863421625 -0.017669000123151188 0.8411567530463473 -0.5489298930180805 0 0 0 0
97500000 0.03851498902588924 -0.022720484118405375 0.8269107911058635 -0.5698900466353768 0 0 0 0
101400000 0.035516508169175065 -0.027626997653294565 0.8127421088880152 -0.5884044204231154 0 0 0 0
105300000 0.033040791152891325 -0.032247508391896496 0.7973993071734838 -0.6079942551671923 0 0 0 0
109200000 0.02964900229316256 -0.03662952443307579 0.7818840105465832 -0.6263528127434217 0 0 0 0
113100000 0.0253226732095807 -0.04062626782827204 0.7646696683473932 -0.6451238165981809 0 0 0 0
117000000 0.02058769970299268 -0.0444003176359872 0.7487110317082681 -0.6627959016258186 0 0 0 0
120900000 0.015719942933780217 -0.047126948250457615 0.7313278483913978 -0.6787473320379794 0 0 0 0
124800000 0.010684425741196251 -0.049038786539085756 0.7154638360358807 -0.6947678137982728 0 0 0 0
128700000 0.005117205738767941 -0.050659706984386946 0.6986296557160692 -0.7112056356675571 0 0 0 0
132600000 -0.0012175175360891958 -0.05141176576990813 0.6803995549249846 -0.726429869140599 0 0 0 0
136500000 -0.0068319488341509966 -0.05186546376908199 0.6628992362947898 -0.7425793747979373 0 0 0 0
140400000 -0.013292918151067661 -0.051232813324134416 0.6457234303076983 -0.7566134423993347 0 0 0 0
144300000 -0.019136717071303593 -0.05011520524115521 0.6277645141785466 -0.7715891158992172 0 0 0 0
148200000 -0.025284165740075595 -0.04804090316095273 0.6094954726085693 -0.7845750581335902 0 0 0 0
152100000 -0.03060645591153241 -0.04544372371949023 0.5914203391091248 -0.7994099769265427 0 0 0 0
156000000 -0.035994752664181465 -0.04206723495874391 0.5738513730109798 -0.8133324810052609 0 0 0 0
159900000 -0.04097490372477079 -0.03856781333406624 0.5541499427298803 -0.8249758561842563 0 0 0 0
163800000 -0.04534487777862849 -0.0342433074505292 0.5361704713322838 -0.8393999799480144 0 0 0 0
167700000 -0.049412943077468935 -0.029185513549958523 0.5166104058788671 -0.8528533489846254 0 0 0 0
171600000 -0.05295329454381513 -0.02439717531459806 0.497786620100169 -0.8655941923240947 0 0 0 0
175500000 -0.0556952995612415 -0.018688804806249282 0.47718064097417173 -0.877668100700188 0 0 0 0
179400000 -0.05767538372128252 -0.013227933072905469 0.45646125098887924 -0.8908281244232487 0 0 0 0
183300000 -0.059224610639628285 -0.007283111718548092 0.4348078086961428 -0.9030055171006465 0 0 0 0
187200000 -0.059865711116808606 -0.0013892621220709157 0.41339340033566496 -0.9139480830783545 0 0 0 0
191100000 -0.05976000914276653 0.004276315856731619 0.3895938866849711 -0.92466192975304 0 0 0 0
195000000 -0.059347324483871436 0.009859435760307995 0.36680899842932696 -0.9343406047133096 0 0 0 0
198900000 -0.058004384854978344 0.014886934865542413 0.3439475573529779 -0.9424488725498416 0 0 0 0
202800000 -0.0563336497259787 0.020180958170532153 0.319834055555499 -0.9520585809849794 0 0 0 0
206700000 -0.053510574108888646 0.024720855606935547 0.29629063356696483 -0.9591937818841667 0 0 0 0
210600000 -0.050140217471883186 0.028827258669620447 0.2724510430141174 -0.966718201805976 0 0 0 0
214500000 -0.04629208543886887 0.032632543819814765 0.24761689810654153 -0.9720362978691522 0 0 0 0
218400000 -0.04229060708372935 0.03530056728888559 0.22246375449363545 -0.9767425774505161 0 0 0 0
222300000 -0.03807386480991433 0.037906697221237996 0.19918625421070055 -0.980397926401793 0 0 0 0
226200000 -0.03324853298586233 0.03983416311368863 0.17423560238430802 -0.9846174025178319 0 0 0 0
230100000 -0.02847336708548543 0.04046740232298181 0.1506871604231938 -0.9867738188863954 0 0 0 0
234000000 -0.023840655692340333 0.04102874506303741 0.127793811959035 -0.9891630091798422 0 0 0 0
237900000 -0.01895819653292562 0.04020708026171278 0.10460839335247926 -0.9903506035468312 0 0 0 0
241800000 -0.014142240759009899 0.03900030996337353 0.08093735333395008 -0.9915985415064577 0 0 0 0
245700000 -0.010102882618363585 0.036799052525488 0.05753026567336947 -0.9917122283480381 0 0 0 0
249600000 -0.005667542135664642 0.034415067379080864 0.03526071337143089 -0.9923792495043613 0 0 0 0
253500000 -0.0019233359697357793 0.030940650295983953 0.01190846447702775 -0.9921084533143094 0 0 0 0
257400000 0.0015933522782712324 0.02708084914485669 -0.00946452753537716 -0.9936483227965669 0 0 0 0
261300000 0.004199442238347459 0.022572776059102774 -0.032388916644126686 -0.9927338959946345 0 0 0 0
265200000 0.00625633473266932 0.017946185382850737 -0.05548274045489933 -0.9916736589554747 0 0 0 0
269100000 0.0075522208775437695 0.01267986979463653 -0.07766237371851166 -0.9909744080178226 0 0 0 0
273000000 0.008337810513030102 0.007362118236464317 -0.1003629937752369 -0.9890006836665951 0 0 0 0
276900000 0.008522637747107119 0.0016923419521298743 -0.12450615664795077 -0.9873114534446827 0 0 0 0
280800000 0.008488339530423756 -0.004138132665633964 -0.14750274023373766 -0.9839949200453058 0 0 0 0
284700000 0.006558247606688096 -0.009655336677736248 -0.17087693083111385 -0.9829290647775286 0 0 0 0
288600000 0.004775259033331248 -0.01499724926334396 -0.194413887647424 -0.9794450088704366 0 0 0 0
292500000 0.0022099612127972107 -0.020246876415355032 -0.2185667292864946 -0.9754296019906701 0 0 0 0
296400000 -0.0013203979234062055 -0.02506642223682761 -0.24171557428566137 -0.9702734281575538 0 0 0 0
300300000 -0.005190656622481911 -0.02964440327913339 -0.26629802393992363 -0.9648720824075895 0 0 0 0
304200000 -0.010202699093282492 -0.03342186022531937 -0.290271475932973 -0.9581523822564452 0 0 0 0
308100000 -0.014778259777640437 -0.0369753202211816 -0.3150620114270728 -0.9511316830287204 0 0 0 0
312000000 -0.020529733105334787 -0.039550225649036874 -0.3379973582233848 -0.9442444428068701 0 0 0 0
315900000 -0.02610475111235237 -0.04164996895009068 -0.36110840132171634 -0.9344527587668764 0 0 0 0
319800000 -0.032467071430467814 -0.04284750969710805 -0.38441499972005144 -0.9247687406167916 0 0 0 0
323700000 -0.03861778769306904 -0.04317587641219519 -0.4073179803135678 -0.914636957737275 0 0 0 0
327600000 -0.045165618705785636 -0.04295470009072245 -0.430573990118062 -0.9046717978172963 0 0 0 0
331500000 -0.05082710635438981 -0.041114251159281204 -0.4527974228079892 -0.8925316817486199 0 0 0 0
335400000 -0.057261663160878946 -0.03930622528016716 -0.4722275329118798 -0.8804605456366951 0 0 0 0
339300000 -0.06298095955630177 -0.03624490972184613 -0.49280562267021755 -0.8672704485936368 0 0 0 0
343200000 -0.06827726864775618 -0.03245317151585024 -0.5133902333155209 -0.8550856773497725 0 0 0 0
347100000 -0.07325456005984106 -0.028561310085611573 -0.5321990063836282 -0.8408888835939405 0 0 0 0
351000000 -0.07787172616151544 -0.02292046290508086 -0.5523725688020112 -0.8273986473262332 0 0 0 0
354900000 -0.08159109998991469 -0.017292900870039516 -0.5718329103724831 -0.813304165274526 0 0 0 0
358800000 -0.08453653587818895 -0.011147344526475315 -0.5903959693611474 -0.7998172056900871 0 0 0 0
362700000 -0.08662043577316686 -0.004373082625753548 -0.6079508328208442 -0.7845350346758593 0 0 0 0
366600000 -0.08805153079042015 0.0022859550782372206 -0.6250969681227091 -0.7696437355518568 0 0 0 0
370500000 -0.08860581186005165 0.010297401618460425 -0.6436155096235262 -0.7561507934364062 0 0 0 0
374400000 -0.08838062458912928 0.01812057195949558 -0.6621985478444437 -0.7399330735265287 0 0 0 0
378300000 -0.0874504558417413 0.02628723915954494 -0.6786647235526335 -0.7245471986259531 0 0 0 0
382200000 -0.08524624387840328 0.03420710715666878 -0.6952723456523267 -0.7081069571018621 0 0 0 0
386100000 -0.08278768979117426 0.042454194350534456 -0.7104768186324728 -0.6917704237623715 0 0 0 0
390000000 -0.07963454037624842 0.049934444823656304 -0.7273298525693843 -0.6745904124901483 0 0 0 0
393900000 -0.07480943088656317 0.05756717674959273 -0.7438777005414897 -0.6590216955063721 0 0 0 0
397800000 -0.0697272457253251 0.0646559824149002 -0.758779223489868 -0.6410706902350819 0 0 0 0
401700000 -0.06398676488996195 0.07125648920893864 -0.7750349664623469 -0.622318732838645 0 0 0 0
405600000 -0.057888786007027286 0.07696826110650944 -0.7895570455505325 -0.6035137773138802 0 0 0 0
409500000 -0.05108061704591078 0.08271493382357556 -0.8033594650333169 -0.5843564890788723 0 0 0 0
413400000 -0.044050079738657 0.08724260321516687 -0.8172890966273008 -0.5634667334570003 0 0 0 0
417300000 -0.03701497185443975 0.09125207651100692 -0.830518826392835 -0.5470425031990063 0 0 0 0
421200000 -0.02945046915276495 0.09427429300870968 -0.8437432808597275 -0.5257942589794272 0 0 0 0
425100000 -0.021124768245726264 0.09663441536633463 -0.8564708756148177 -0.5035786876399005 0 0 0 0
429000000 -0.013514627351327529 0.09819171648754135 -0.8676545508460005 -0.4835105053547987 0 0 0 0
432900000 -0.005590011978207675 0.09869151796492004 -0.8791782082639364 -0.4612317146565513 0 0 0 0
436800000 0.0013691969692651257 0.09867204875138628 -0.8894539753183062 -0.4414066540605678 0 0 0 0
440700000 0.008926018715167867 0.09753392539683035 -0.8993302810411895 -0.4181940346726678 0 0 0 0
444600000 0.015363664911570974 0.09573003694638253 -0.9075816899798077 -0.3976053992719139 0 0 0 0
448500000 0.02156395852254289 0.09305700264960334 -0.9156887996010054 -0.37660181714133895 0 0 0 0
452400000 0.02732868776798435 0.08988189399449675 -0.9250351381445372 -0.3533914499315335 0 0 0 0
456300000 0.03224527126946101 0.08611449586944475 -0.9326760010908725 -0.329877224798188 0 0 0 0
460200000 0.03628641057882251 0.08178079209956364 -0.9406016240954193 -0.31196675282644093 0 0 0 0
464100000 0.03989436935409582 0.07708510494330204 -0.9459556131277496 -0.2880611731538365 0 0 0 0
468000000 0.04224551726255165 0.07153398301738259 -0.9547345078321863 -0.26828202999971296 0 0 0 0
471900000 0.04376011396931795 0.06634779387866441 -0.9593900353853467 -0.24348785628412925 0 0 0 0
475800000 0.04457161565161352 0.060977295138082054 -0.9648878377253052 -0.22262379393482867 0 0 0 0
479700000 0.04429076692641976 0.054558628885324395 -0.9689844031884837 -0.2027731112720858 0 0 0 0
483600000 0.04311134393333482 0.04964538225037621 -0.9756408591087968 -0.17716385473437773 0 0 0 0
487500000 0.04141227966495367 0.044064096387119764 -0.9806430045949192 -0.15321036942104224 0 0 0 0
491400000 0.03817749832847343 0.03874232278701541 -0.9834750940695385 -0.12990299920075843 0 0 0 0
495300000 0.03520067119890164 0.034589243420519986 -0.987552021891677 -0.10800749134863144 0 0 0 0
499200000 0.03084139436773981 0.03024681666053849 -0.9888608735995826 -0.0838200197638875 0 0 0 0
503100000 0.025879268982688417 0.026197418958831774 -0.9932503971327002 -0.059990601221832675 0 0 0 0
507000000 0.02038696601544445 0.02316649439372429 -0.9933013298772618 -0.03636743632304346 0 0 0 0
510900000 0.014466656941529486 0.020607889074101486 -0.9947646393040759 -0.011807717163939881 0 0 0 0
514800000 0.00789885254414459 0.01882033071624321 -0.9945216713395391 0.012710234634079816 0 0 0 0
518700000 0.0015263447659680754 0.017667816228718363 -0.9948603797177241 0.0356421907954669 0 0 0 0
522600000 -0.0053462398991880634 0.017283430053983858 -0.9927344514377706 0.06048127664754925 0 0 0 0
526500000 -0.011886530779568086 0.01772830254350617 -0.9920489789972647 0.08400545910838156 0 0 0 0
530400000 -0.01859686024174916 0.018788040702144296 -0.9901759727396131 0.10863273890935055 0 0 0 0
534300000 -0.025074590027173823 0.021036920559823116 -0.9868176965417916 0.13124754025739857 0 0 0 0
538200000 -0.03115503945365809 0.023819922596087128 -0.9835830970004157 0.1564810902742378 0 0 0 0
542100000 -0.036692644926320725 0.02747701929294797 -0.9801886044854943 0.17886008653712154 0 0 0 0
546000000 -0.041907073902320166 0.031097378675121364 -0.975022284618963 0.20317059458526612 0 0 0 0
549900000 -0.04652715227582376 0.03590579679756667 -0.9705006303030158 0.2258137611479336 0 0 0 0
553800000 -0.0496520942791995 0.04143072134666266 -0.9633112629532938 0.24933127407367908 0 0 0 0
557700000 -0.052807670193346486 0.04664377775314989 -0.9566299177364849 0.272074649032612 0 0 0 0
561600000 -0.05446912945695039 0.052874340146139814 -0.9495176327373978 0.2950199753010545 0 0 0 0
565500000 -0.05561570145876487 0.058751971375770394 -0.9423980470844234 0.3189054712290855 0 0 0 0
569400000 -0.05587009565208671 0.06516148895788881 -0.9348412674837195 0.34234783072976555 0 0 0 0
573300000 -0.05498113363871056 0.07062380312115431 -0.9238925738266409 0.36424227335909587 0 0 0 0
577200000 -0.05323265091896345 0.07688351543132263 -0.9174709796153114 0.38332788586830663 0 0 0 0
581100000 -0.050494988051268 0.08234288905303994 -0.9086314989795974 0.4058084154751199 0 0 0 0
585000000 -0.046786744795225856 0.08797616748442956 -0.8951115724782797 0.43102814737036965 0 0 0 0
588900000 -0.04212323417030458 0.09300016480201292 -0.8858242209581775 0.4506043374152375 0 0 0 0
592800000 -0.03622595977911934 0.09714612781319246 -0.8736077311169309 0.4721335171809177 0 0 0 0
596700000 -0.03003306307513207 0.10052048595968627 -0.8608366658249471 0.4918523253238705 0 0 0 0
600600000 -0.023064255312346762 0.10337689749341898 -0.8501153885107647 0.5134061034761889 0 0 0 0
604500000 -0.014842632551117903 0.1057806159198213 -0.8350217913620738 0.5357974454902037 0 0 0 0
608400000 -0.006961313334836118 0.1063041188265659 -0.8230524335945475 0.5540100191636196 0 0 0 0
612300000 0.0014585393021332247 0.1067450007574228 -0.8101813252204907 0.5703746896225005 0 0 0 0
616200000 0.010150319272541924 0.10586553732207793 -0.796188970955021 0.591941986666633 0 0 0 0
620100000 0.01934967656552894 0.10430207024144503 -0.779413433130969 0.6085330415868762 0 0 0 0
624000000 0.029159994107230625 0.10121771409877998 -0.7614228822296947 0.6302206730556126 0 0 0 0
627900000 0.03754638502623936 0.09708822859817161 -0.7477937256475783 0.6430548862743733 0 0 0 0
631800000 0.04697340790543032 0.09246277978857499 -0.7331429274870668 0.6642558259669391 0 0 0 0
635700000 0.05517870096567394 0.08650638449657237 -0.7141995639971667 0.6776097362199226 0 0 0 0
639600000 0.06350598049916031 0.0798160428465239 -0.6997599306343907 0.6941763844415803 0 0 0 0
643500000 0.07132987017360504 0.07308094977114071 -0.6859754532913975 0.7090797351842416 0 0 0 0
647400000 0.07868937398193525 0.0637185023225546 -0.6690718411084233 0.7276702469523861 0 0 0 0
651300000 0.08454808382883394 0.05535362115067446 -0.6499641535172016 0.7395341610297579 0 0 0 0
655200000 0.09023161142565014 0.045725673044850944 -0.6297690077334028 0.7547908396011246 0 0 0 0
659100000 0.09504991289185664 0.035883883373121345 -0.6156198199680986 0.7680819784634898 0 0 0 0
663000000 0.09834958309784794 0.02497463695667478 -0.5958440518970476 0.7829022760774248 0 0 0 0
666900000 0.10100117555896984 0.015274849863363301 -0.5802374072699683 0.7974883213363687 0 0 0 0
670800000 0.10299962147062611 0.004470045670952104 -0.5586331814423674 0.8098483796748324 0 0 0 0
674700000 0.1037238002590103 -0.004810226269035054 -0.5443627632196878 0.8202305473309744 0 0 0 0
678600000 0.10286514243695864 -0.015634216396134708 -0.5244464724868445 0.8357963275072864 0 0 0 0
682500000 0.10133459028669049 -0.025835213750535557 -0.5052793686979455 0.8478429309389155 0 0 0 0
686400000 0.09914487972892831 -0.03524579121599336 -0.48438117747839626 0.8610270681930324 0 0 0 0
690300000 0.09511786330552485 -0.04476083627415041 -0.4610918641084966 0.8711495284671262 0 0 0 0
694200000 0.091352455209518 -0.05242912518489002 -0.44502225274390683 0.8861441223452292 0 0 0 0
698100000 0.08529954082982767 -0.06002601875350172 -0.42223298810018933 0.8954876658230648 0 0 0 0
702000000 0.07894234901965907 -0.06667080298312834 -0.40261630958879957 0.9082404418088257 0 0 0 0
705900000 0.0725056703225903 -0.07258369678256422 -0.38159459451334343 0.91870905294428 0 0 0 0
709800000 0.06489324652706152 -0.07729763724199179 -0.3554018104580191 0.92767501387454 0 0 0 0
713700000 0.057155971265255845 -0.08046011226979383 -0.33419874654135995 0.9341382207786066 0 0 0 0
717600000 0.0490290375586567 -0.08256078806122456 -0.3112757941521474 0.9429428290552744 0 0 0 0
721500000 0.04077629239913922 -0.0836638909845125 -0.2864529853064352 0.9516013429905825 0 0 0 0
725400000 0.03225225113904799 -0.08380724950191007 -0.26242147735717875 0.9553419771015097 0 0 0 0
729300000 0.02345233292402001 -0.08305782847002302 -0.239301646016793 0.9622599035461491 0 0 0 0
733200000 0.0151391819820395 -0.08012332042078632 -0.21684223939016956 0.9689131061428122 0 0 0 0
737100000 0.0071547399320817644 -0.07671867407574476 -0.19429962760500522 0.973150937136482 0 0 0 0
741000000 -0.0010513645856906908 -0.07306630297992288 -0.16885576229070778 0.9788300417394101 0 0 0 0
744900000 -0.008433400551828518 -0.06747347164624717 -0.14461068820437423 0.9812778071090305 0 0 0 0
748800000 -0.015058460041048301 -0.0609949659678066 -0.11998357554725435 0.9824963274342691 0 0 0 0
752700000 -0.021440420515610906 -0.053758169350251864 -0.09822953472806535 0.983386819079622 0 0 0 0
756600000 -0.027148982694457733 -0.04607624176153933 -0.07370113975988939 0.985860818068199 0 0 0 0
760500000 -0.031980719005351835 -0.03735718380588063 -0.051115667420699826 0.9871451858941117 0 0 0 0
764400000 -0.03576677895009645 -0.02825150709429446 -0.027208922712294435 0.9863027566096744 0 0 0 0
768300000 -0.03893592590821148 -0.018959760650270358 -0.0024961782857928563 0.9864128440017302 0 0 0 0
772200000 -0.03994199756095081 -0.010020893726169683 0.018392200455008965 0.9853897002523897 0 0 0 0
776100000 -0.04194361875382912 -2.3999883000483612e-05 0.040134950124633445 0.9862764301128497 0 0 0 0
