#  HZ   S   RI   R     50.00 
! Rohde & Schwarz Vector Network Analyzer 
! Rohde-Schwarz,ZNL20-2Port,1323001220101312,1.72.1.6-23.02.1.246
! Created: UTC 10/8/2024, 6:55:11 PM
! freq[Hz]                re:S11                  im:S11                  re:S21                  im:S21                  re:S12                  im:S12                  re:S22                  im:S22
 3.900000000000000E6     6.243297969034998E-3    1.028764841569742E-3    1.002106234989957      -1.880614698224675E-2    9.919856610133675E-1   -2.988233688131281E-2    8.844966910569362E-3    1.047460406496264E-3
 7.800000000000000E6     6.663174529460868E-3    3.677195124849129E-3    1.002017886887162      -4.447101831319430E-2    9.880273317289422E-1   -4.919981625821055E-2    6.338778131172756E-3    2.302503889312083E-3
 1.170000000000000E7     4.642575141041379E-3    5.542168185405001E-3    9.950155418748391E-1   -7.044219437930492E-2    9.939226463531573E-1   -7.876477214078297E-2    5.125543887906044E-3    4.077243547801362E-3
 1.560000000000000E7     4.383300380762047E-3    6.632192541486535E-3    9.918525667218074E-1   -9.574175850429364E-2    9.908414102995892E-1   -1.037533724939370E-1    4.077385292654855E-3    5.586429483947226E-3
 1.950000000000000E7     4.242887084157796E-3    6.966499429740314E-3    9.880460284812359E-1   -1.206265328067598E-1    9.874377688633621E-1   -1.283438842377963E-1    4.776612417354772E-3    7.140137341293751E-3
 2.340000000000000E7     3.202656491869247E-3    7.543420371516046E-3    9.840108070139174E-1   -1.450909832644681E-1    9.834338384958552E-1   -1.528266086260619E-1    4.883405907536126E-3    7.766369542917873E-3
 2.730000000000000E7     4.016606599945330E-3    7.559832435534198E-3    9.796349760226338E-1   -1.693710949469681E-1    9.794309070880721E-1   -1.767994472310273E-1    3.684852441700035E-3    7.417379884815500E-3
 3.120000000000000E7     2.302937300960919E-3    8.962137402492729E-3    9.747944561467403E-1   -1.934340889431733E-1    9.743586515746072E-1   -2.012729835389437E-1    3.789914237756986E-3    7.617050872961374E-3
 3.510000000000000E7     2.708446262193711E-3    9.579313819870861E-3    9.694482331712765E-1   -2.178177366465609E-1    9.689625796926810E-1   -2.255306198836989E-1    3.736964309345028E-3    7.922640385743165E-3
 3.900000000000000E7     1.387849823408734E-3    9.323588120437119E-3    9.636367271873972E-1   -2.417548329703791E-1    9.630458037736681E-1   -2.495237591382193E-1    3.519524300545442E-3    8.700240657338796E-3
 4.290000000000000E7     2.121994877284438E-3    1.027891314885789E-2    9.569813104157995E-1   -2.659306880604457E-1    9.562958815428293E-1   -2.735989186041786E-1    4.929326365612701E-3    7.526528071191380E-3
 4.680000000000000E7     2.431083660019744E-3    8.496785236080006E-3    9.499412539206421E-1   -2.897890837010021E-1    9.490672706052754E-1   -2.973510686158660E-1    4.628863101619963E-3    7.763263300335999E-3
 5.070000000000000E7     3.364175321430182E-3    7.737478354734281E-3    9.420425771735439E-1   -3.132319037842872E-1    9.412126215221337E-1   -3.209522279902168E-1    4.900700481370878E-3    8.477435650922590E-3
 5.460000000000000E7     2.790584761974649E-3    8.565565161383210E-3    9.341032646950493E-1   -3.363646098632366E-1    9.330093529995060E-1   -3.440410103724029E-1    5.675396039002471E-3    7.633993886362423E-3
 5.850000000000000E7     4.784434612207338E-3    7.813409137212023E-3    9.254728094876051E-1   -3.591155185094621E-1    9.240962437557693E-1   -3.668302953199766E-1    5.447790369691688E-3    7.581051516785977E-3
 6.240000000000000E7     5.407672764236365E-3    6.340365553369288E-3    9.162504829445640E-1   -3.820269581867133E-1    9.147578357270819E-1   -3.897379337802778E-1    6.208180156767994E-3    7.566543337057714E-3
 6.630000000000000E7     7.347117959344426E-3    7.544114871663912E-3    9.063391938133903E-1   -4.046220368338512E-1    9.044601155932130E-1   -4.122183449177370E-1    7.860850330198553E-3    7.106940346847133E-3
 7.020000000000000E7     7.695966238875980E-3    7.549518384850656E-3    8.960215461514762E-1   -4.269693113590476E-1    8.936338284354701E-1   -4.345058676351575E-1    9.260981459197726E-3    6.625903071588161E-3
 7.410000000000000E7     9.269837778274871E-3    7.673430217328761E-3    8.849313631103873E-1   -4.488659416480772E-1    8.826157507394835E-1   -4.562807769173885E-1    8.987484732493944E-3    6.267904799328374E-3
 7.800000000000000E7     9.872312955334524E-3    6.422280213963207E-3    8.736611616526831E-1   -4.705881684275298E-1    8.710844656107131E-1   -4.780915116404101E-1    9.904608023815240E-3    7.302243759383454E-3
 8.190000000000000E7     1.065220548424150E-2    6.834279280865069E-3    8.615449813120778E-1   -4.922652755408261E-1    8.587680295859722E-1   -4.994539141483393E-1    1.198365682873382E-2    6.890445309630892E-3
 8.580000000000000E7     1.265440155780832E-2    7.270485073116715E-3    8.491728007075879E-1   -5.133145700199920E-1    8.461824978453333E-1   -5.205692870110837E-1    1.242946636886336E-2    6.458403524516470E-3
 8.970000000000000E7     1.433695029909610E-2    7.618192253827482E-3    8.361463046584043E-1   -5.342741266263128E-1    8.330325717533938E-1   -5.414176404608443E-1    1.372400336511825E-2    7.281204952344888E-3
 9.360000000000000E7     1.402474873466384E-2    8.563909589366130E-3    8.225150248838313E-1   -5.547581776359863E-1    8.192985801181060E-1   -5.619307230427196E-1    1.356868906427174E-2    8.079723854740839E-3
 9.750000000000000E7     1.586830660584647E-2    8.244579784603481E-3    8.085935650002180E-1   -5.749767986132726E-1    8.051162557208861E-1   -5.819976206783075E-1    1.373453339651574E-2    8.322059112546689E-3
 1.014000000000000E8     1.587968860147189E-2    9.343042641135280E-3    7.940964160200360E-1   -5.947637099397131E-1    7.905805453127783E-1   -6.015672647936849E-1    1.430462820143378E-2    9.112571939414576E-3
 1.053000000000000E8     1.518672702296150E-2    1.077212141154862E-2    7.788719382191208E-1   -6.140502451170373E-1    7.751495357521658E-1   -6.209938053302498E-1    1.519882306984341E-2    9.716359845739188E-3
 1.092000000000000E8     1.602326350405337E-2    9.999551121655023E-3    7.635176980519114E-1   -6.330141724221879E-1    7.596585516052762E-1   -6.400411575734545E-1    1.570897346881756E-2    9.112795564001214E-3
 1.131000000000000E8     1.718411392659789E-2    1.171957136981910E-2    7.475211802655225E-1   -6.515544955183392E-1    7.435303667012643E-1   -6.583760197719000E-1    1.593437019171479E-2    9.840901947806107E-3
 1.170000000000000E8     1.568240505306900E-2    1.174889967970113E-2    7.310384661643234E-1   -6.698447682368931E-1    7.268732829792716E-1   -6.767176391422286E-1    1.605194855476415E-2    1.028365434697129E-2
 1.209000000000000E8     1.638311873370510E-2    1.128189187215780E-2    7.142428859281366E-1   -6.876043887213283E-1    7.099482945166010E-1   -6.942818128827027E-1    1.583227276126679E-2    9.746253268938982E-3
 1.248000000000000E8     1.724735714024971E-2    1.161392454814168E-2    6.968915239506468E-1   -7.052595712199239E-1    6.923848822024018E-1   -7.117964808490744E-1    1.794427334293384E-2    1.038336470146923E-2
 1.287000000000000E8     1.658868419019377E-2    1.169536689063008E-2    6.790157995738831E-1   -7.221304302584022E-1    6.744264948020658E-1   -7.284939743138173E-1    1.750316640885911E-2    1.025793393790112E-2
 1.326000000000000E8     1.661659359499456E-2    1.060093022193341E-2    6.605814319600557E-1   -7.384392962457139E-1    6.557078194138377E-1   -7.447766916824107E-1    1.768914376455135E-2    9.411508862218178E-3
 1.365000000000000E8     1.587678699878912E-2    1.064549648362875E-2    6.426524208910699E-1   -7.544718506753304E-1    6.378211145211721E-1   -7.606759574382060E-1    1.612775294175053E-2    8.932308010503615E-3
 1.404000000000000E8     1.602435178858935E-2    9.499151197237005E-3    6.238569659713438E-1   -7.704894431080965E-1    6.189021396492203E-1   -7.765573819767151E-1    1.698531376600796E-2    9.280964508371667E-3
 1.443000000000000E8     1.563027349576689E-2    9.366261300406523E-3    6.044281418694132E-1   -7.858187832718724E-1    5.993058513829745E-1   -7.917823520030124E-1    1.659075453858689E-2    9.171888180919404E-3
 1.482000000000000E8     1.712350688413087E-2    8.983717477681384E-3    5.843451254868165E-1   -8.006990831070255E-1    5.793300003659001E-1   -8.064705074240687E-1    1.534002479908079E-2    7.002275595654122E-3
 1.521000000000000E8     1.612052397665815E-2    7.375144240867005E-3    5.642924595531392E-1   -8.148220976909953E-1    5.591463964963238E-1   -8.206213864601164E-1    1.626146703843181E-2    6.411967058463415E-3
 1.560000000000000E8     1.719141443213143E-2    6.405236512504855E-3    5.439936902149741E-1   -8.284339712441685E-1    5.387651611721929E-1   -8.341015447531392E-1    1.601554707311328E-2    5.697130951467256E-3
 1.599000000000000E8     1.741811115999159E-2    6.148214191554575E-3    5.232344857490562E-1   -8.416959254507487E-1    5.179831658836538E-1   -8.472700492728035E-1    1.698677072456355E-2    5.573886526657220E-3
 1.638000000000000E8     1.817160939145782E-2    4.927496901174840E-3    5.022626049717083E-1   -8.541386734772449E-1    4.968729221182079E-1   -8.595949904301026E-1    1.581143264937460E-2    4.318918385784194E-3
 1.677000000000000E8     1.817193363155188E-2    5.085631838871079E-3    4.810242116704407E-1   -8.660650481760730E-1    4.754691350371196E-1   -8.715755592399906E-1    1.574254483753665E-2    4.344009305754185E-3
 1.716000000000000E8     1.889671189246417E-2    4.459414173436179E-3    4.594032208032445E-1   -8.776651367545464E-1    4.537141274466585E-1   -8.831537409117428E-1    1.724626619192611E-2    3.448428145294072E-3
 1.755000000000000E8     1.918423070092179E-2    2.457606773050224E-3    4.375093965942110E-1   -8.885932036371951E-1    4.318310576917689E-1   -8.939314162129132E-1    1.712265061075843E-2    1.556058569788349E-3
 1.794000000000000E8     1.995065648735558E-2    3.417758219764557E-3    4.154125021730461E-1   -8.990295329374846E-1    4.093375885263314E-1   -9.045465542777422E-1    1.696300416448611E-2    1.581468902588467E-3
 1.833000000000000E8     2.013728484566133E-2    2.061266444459614E-3    3.932408478287291E-1   -9.089549346106874E-1    3.867528545862958E-1   -9.142402539773171E-1    1.735843110468858E-2    9.252853289960323E-4
 1.872000000000000E8     2.095582468688879E-2    1.721880325309260E-3    3.707025706181966E-1   -9.183901642797027E-1    3.637449836232776E-1   -9.236899277006929E-1    1.789410786006695E-2    9.247031288048871E-4
 1.911000000000000E8     2.058913824488447E-2    1.932110104048456E-3    3.480356187096120E-1   -9.272709276426810E-1    3.408856864280448E-1   -9.324307659033824E-1    1.777827816377708E-2   -5.719466077567115E-5
 1.950000000000000E8     2.106813027262789E-2    2.312972956669282E-3    3.251182481896634E-1   -9.354544723666784E-1    3.175192210729720E-1   -9.404858495210277E-1    1.878163742869718E-2   -5.767851800818815E-4
 1.989000000000000E8     2.077861960601241E-2    2.174544630695325E-3    3.021735942944131E-1   -9.434412308733819E-1    2.940614393218680E-1   -9.480669219082921E-1    1.882629251696032E-2   -1.046706240839416E-3
 2.028000000000000E8     2.154797864055424E-2    9.367944103705270E-4    2.788526814328914E-1   -9.509051495169549E-1    2.704639539534336E-1   -9.550381908285920E-1    1.763456643887135E-2   -8.932454327175987E-4
 2.067000000000000E8     1.957489994330426E-2    2.123853188427165E-3    2.552697691349822E-1   -9.577342073828023E-1    2.466968989716458E-1   -9.610412513121269E-1    1.855835439549403E-2   -9.107044025893126E-4
 2.106000000000000E8     1.903610382744418E-2    9.943396070596494E-4    2.314817506904945E-1   -9.640180567967468E-1    2.227241671804190E-1   -9.668717183869199E-1    1.634927414029411E-2   -1.571724035399978E-3
 2.145000000000000E8     1.804153032401384E-2    1.299017418902742E-3    2.074214212335197E-1   -9.696119889139524E-1    1.988004396393939E-1   -9.715677729402163E-1    1.549230530115330E-2   -3.837209508123444E-4
 2.184000000000000E8     1.743842097246823E-2    1.443094763560089E-3    1.832847755314402E-1   -9.746623979798041E-1    1.749905103467053E-1   -9.761608095651405E-1    1.580155050719162E-2   -8.036257456803990E-5
 2.223000000000000E8     1.714594305773148E-2    4.751776486777992E-4    1.588434038566586E-1   -9.789890848659086E-1    1.508330636038217E-1   -9.800329051436034E-1    1.386075558715788E-2   -8.470173800522395E-4
 2.262000000000000E8     1.613577660467223E-2   -8.259319251382171E-4    1.343451870484070E-1   -9.825001520791943E-1    1.269356153313658E-1   -9.834203568259076E-1    1.359255790899753E-2   -3.847103453581318E-4
 2.301000000000000E8     1.509808842738120E-2   -9.213367637403626E-4    1.096668629812715E-1   -9.853629551842097E-1    1.025583471703533E-1   -9.860652430515907E-1    1.350333598816853E-2   -3.719315321653038E-4
 2.340000000000000E8     1.384976225995488E-2   -1.500519233069944E-3    8.510429984326663E-2   -9.876624554880186E-1    7.819607721696679E-2   -9.884520629246204E-1    1.274482042347597E-2   -4.657198168978027E-5
 2.379000000000000E8     1.355524281717770E-2   -1.866804051956529E-3    6.070937593711653E-2   -9.892378709227760E-1    5.385132884481963E-2   -9.900623960276983E-1    1.211687357670662E-2   -7.293309383249215E-4
 2.418000000000000E8     1.247941910843881E-2   -3.543211206886308E-3    3.602105808281027E-2   -9.901967554480419E-1    2.930839379185269E-2   -9.912442515896169E-1    1.172170699015527E-2   -9.985168834624920E-4
 2.457000000000000E8     1.165039163370227E-2   -3.341168518398538E-3    1.139002410011699E-2   -9.907537130964895E-1    4.723159173710145E-3   -9.917867141434826E-1    1.059473637441402E-2   -1.673679130921178E-3
 2.496000000000000E8     1.099477812790019E-2   -4.798578636147792E-3   -1.302819826917159E-2   -9.906866293969110E-1   -1.984972258722799E-2   -9.916871173155662E-1    9.868035500695658E-3   -2.157323000941840E-3
 2.535000000000000E8     1.012817203558719E-2   -6.695715666940754E-3   -3.742956259891489E-2   -9.896551028717592E-1   -4.435662816627314E-2   -9.908031506093863E-1    9.207780535355245E-3   -2.365699334401984E-3
 2.574000000000000E8     9.021680866105518E-3   -5.278189987603134E-3   -6.190206177947975E-2   -9.882859122226714E-1   -6.895351596023301E-2   -9.894039325696276E-1    8.561896425846014E-3   -3.078977418442628E-3
 2.613000000000000E8     8.687433528623958E-3   -6.861804106912974E-3   -8.640694062059187E-2   -9.862544673485076E-1   -9.339662153201496E-2   -9.873705920260438E-1    7.880151563767687E-3   -3.872120688081305E-3
 2.652000000000000E8     8.573267429056553E-3   -5.860507859176464E-3   -1.105516519625592E-1   -9.836789644859427E-1   -1.179266009706273E-1   -9.846157136565941E-1    6.924704552299873E-3   -3.359307389852204E-3
 2.691000000000000E8     7.123264379390985E-3   -5.330663171660237E-3   -1.348297515168068E-1   -9.805599893509923E-1   -1.422498252593395E-1   -9.813766507340976E-1    6.719581479843424E-3   -4.147070738712445E-3
 2.730000000000000E8     6.736668119442926E-3   -6.186874924565963E-3   -1.589894356061876E-1   -9.769962782792045E-1   -1.666836974575366E-1   -9.775048166417036E-1    4.890739649723547E-3   -4.612980906778009E-3
 2.769000000000000E8     6.934209673384272E-3   -5.461419435577918E-3   -1.830025358366027E-1   -9.726313297698247E-1   -1.907121034601997E-1   -9.729882437654859E-1    4.754557842036265E-3   -4.361731724518272E-3
 2.808000000000000E8     6.429359531059395E-3   -5.662242536225007E-3   -2.070663886006317E-1   -9.677815866347609E-1   -2.149372048344415E-1   -9.678088218521057E-1    4.583490774973885E-3   -4.736778322737663E-3
 2.847000000000000E8     6.547665693869005E-3   -4.947330299473387E-3   -2.309370372702212E-1   -9.623747043593387E-1   -2.387202839716064E-1   -9.621755847235554E-1    4.370928790945049E-3   -4.936220114559443E-3
 2.886000000000000E8     4.315642125391862E-3   -4.097706988373920E-3   -2.544851441536396E-1   -9.563157843352775E-1   -2.625204638616635E-1   -9.559698723734000E-1    1.892617148050147E-3   -4.717498929340085E-3
 2.925000000000000E8     4.420370535856078E-3   -3.278762299740404E-3   -2.780840324722434E-1   -9.495171640497669E-1   -2.860479934625625E-1   -9.489882533067139E-1    2.492882598239347E-3   -4.088570691631222E-3
 2.964000000000000E8     2.928980062285055E-3   -2.813633464584707E-3   -3.014108606225696E-1   -9.422902038298810E-1   -3.093679601568720E-1   -9.416295435358147E-1    1.905804877941153E-3   -3.736498827132032E-3
 3.003000000000000E8     1.733270755500262E-3   -2.139141003763480E-3   -3.245383532466889E-1   -9.345680001410700E-1   -3.326275310567781E-1   -9.335550701390959E-1    4.667506297145879E-4   -3.466773699894423E-3
 3.042000000000000E8     1.566056408625331E-3   -1.181785354100309E-3   -3.475198049191496E-1   -9.263232304476411E-1   -3.554169595544415E-1   -9.250688861032808E-1    3.847701788766405E-4   -2.616044772095856E-3
 3.081000000000000E8     1.293744842030056E-4   -5.308357772122498E-4   -3.702935723808293E-1   -9.172570045266137E-1   -3.782971529164288E-1   -9.157818191433343E-1   -1.296330892164780E-3   -1.665698098812445E-3
 3.120000000000000E8    -1.787237440057682E-3    3.441609830710742E-4   -3.926528576971411E-1   -9.076625484628872E-1   -4.005752583034234E-1   -9.061046800692947E-1   -2.362007884704830E-3   -5.550986015037673E-4
 3.159000000000000E8    -2.632763107394073E-3    4.102770021679148E-4   -4.148071985785382E-1   -8.976602978549091E-1   -4.228664779571710E-1   -8.958088425423594E-1   -4.051140106386946E-3   -3.871381221798344E-4
 3.198000000000000E8    -5.367380236134100E-3    1.185845993368233E-3   -4.370012989288272E-1   -8.870202456951132E-1   -4.447706794343405E-1   -8.850350050873045E-1   -4.012397571200966E-3    1.897152243106461E-3
 3.237000000000000E8    -5.888757713461684E-3    2.627822602329175E-3   -4.586559479975367E-1   -8.762484274617945E-1   -4.666817972228876E-1   -8.740057546022253E-1   -5.340703546536273E-3    2.224747414904702E-3
 3.276000000000000E8    -6.898223321513746E-3    2.260486680106946E-3   -4.804346216506858E-1   -8.648718106169969E-1   -4.881915871151606E-1   -8.623445967910238E-1   -6.030719296789708E-3    4.117202644030864E-3
 3.315000000000000E8    -8.931305280114564E-3    3.345885204224967E-3   -5.014094152528207E-1   -8.524037263686074E-1   -5.091461548727536E-1   -8.498237853608303E-1   -7.661768480778455E-3    5.362923182897449E-3
 3.354000000000000E8    -8.909176330562060E-3    4.393863642573468E-3   -5.223737923501166E-1   -8.399240146895296E-1   -5.299687113109061E-1   -8.369626656810109E-1   -7.558477368066668E-3    6.519933385015829E-3
 3.393000000000000E8    -9.644607688785884E-3    4.056765857383744E-3   -5.430824732987470E-1   -8.267627003020442E-1   -5.507005506509693E-1   -8.235457947671294E-1   -8.516081344068990E-3    6.350031964332464E-3
 3.432000000000000E8    -1.045942525827872E-2    5.314245383799314E-3   -5.631575343168789E-1   -8.131417838946601E-1   -5.708398822257719E-1   -8.097519757988978E-1   -9.584986733901138E-3    9.037598482094410E-3
 3.471000000000000E8    -1.191569189009773E-2    4.999474002165306E-3   -5.829122397108139E-1   -7.989657050769569E-1   -5.905459556331049E-1   -7.953222427091664E-1   -1.083120966905309E-2    9.320796340658410E-3
 3.510000000000000E8    -1.298760255616855E-2    5.736923038293712E-3   -6.023624149333034E-1   -7.844239068044293E-1   -6.097810716834542E-1   -7.807676656056901E-1   -1.029181326038821E-2    1.010227140012666E-2
 3.549000000000000E8    -1.280387530785150E-2    6.349620427462462E-3   -6.214716017781782E-1   -7.691745701276876E-1   -6.288349938305225E-1   -7.651487158468518E-1   -1.199403032891412E-2    1.066201831951528E-2
