# HZ S RI R 50
3900000 0.5417788445796896 -0.0012402380727606014 1.904535388402738 -0.005244950901540885 0 0 0 0
7800000 0.5380184238367294 -0.0008033459878087972 1.908570320168609 -0.062007758230720515 0 0 0 0
11700000 0.5361018593525757 -0.0013778070079612278 1.921405696532723 -0.12126997901737954 0 0 0 0
15600000 0.5336067936398482 -0.0019815190625208823 1.939280695516451 -0.1565392941683021 0 0 0 0
19500000 0.5309007518813552 -0.002634274789638081 1.9713485358374305 -0.23904768396635614 0 0 0 0
23400000 0.5291273354519899 -0.003396204888538809 2.00459231883962 -0.31664738114865504 0 0 0 0
27300000 0.5267613802616173 -0.004091611661738483 2.003111822578378 -0.38649174305156037 0 0 0 0
31200000 0.5242674199433449 -0.004313634487843636 2.0210850735164447 -0.41562123369311965 0 0 0 0
35100000 0.5235551316688992 -0.006109996544305022 1.9951211207039838 -0.47404469511359343 0 0 0 0
39000000 0.5216547161378492 -0.006740804680942713 1.9899247975448513 -0.5432140072322766 0 0 0 0
42900000 0.5202542255014028 -0.008167214598161771 2.0168851328103883 -0.6150136311384492 0 0 0 0
46800000 0.5180374104282796 -0.009194711711913713 1.9883110119952325 -0.7268652076526453 0 0 0 0
50700000 0.5167459315065779 -0.00986217127038269 1.968978544345044 -0.7328079263034349 0 0 0 0
54600000 0.5154163665829788 -0.011123730619956201 1.9723080309802898 -0.8121917467405557 0 0 0 0
58500000 0.5149163719396604 -0.011891231728202532 1.9616390945191 -0.9034912745295163 0 0 0 0
62400000 0.513506829140861 -0.01312199656417255 1.9395910130912768 -0.925184896242859 0 0 0 0
66300000 0.5122340300456716 -0.014354980352853987 1.9497765782854632 -0.9747200289114533 0 0 0 0
70200000 0.5110030055841761 -0.016335840328128518 1.928974481749156 -1.0779983116345944 0 0 0 0
74100000 0.5099085042839555 -0.01795393719523744 1.8977235128473398 -1.1087829378564948 0 0 0 0
78000000 0.5088702197960232 -0.019343032606109516 1.7813534550953907 -1.1713633261523617 0 0 0 0
81900000 0.5084871546009759 -0.02162304795232896 1.767337855131158 -1.1653219471070768 0 0 0 0
85800000 0.5076625581721833 -0.023101512136570815 1.6873961382451808 -1.2132751269883284 0 0 0 0
89700000 0.5070130146897162 -0.02440764107614296 1.503294792304459 -1.3605346030017218 0 0 0 0
93600000 0.5060460060722589 -0.026955741757706243 1.4977459402998146 -1.3657700202562186 0 0 0 0
97500000 0.5052788379784776 -0.02864758538624427 1.436383598284821 -1.4239833856796729 0 0 0 0
101400000 0.5028769000806622 -0.030366542436287846 1.3981018408237718 -1.4682221465443714 0 0 0 0
105300000 0.5027451729201995 -0.03306690940676802 1.3407288684687904 -1.5406314448908198 0 0 0 0
109200000 0.5018702389565748 -0.035817564660121926 1.19077751087069 -1.724377327638156 0 0 0 0
113100000 0.5007511022279073 -0.03888528633414651 1.21416594624619 -1.7206513670237786 0 0 0 0
117000000 0.5001276294150152 -0.04195161622557765 1.1817506094699721 -1.7888408494724604 0 0 0 0
120900000 0.49835526978050443 -0.04421234289249478 1.0640602547746325 -1.9779791229397465 0 0 0 0
124800000 0.4966971556875896 -0.0464057315033967 1.1067244222175967 -1.962607903230728 0 0 0 0
128700000 0.4956325890544791 -0.04982786519045783 1.0531375012153559 -2.0862961140991265 0 0 0 0
132600000 0.49365752324822243 -0.052196533546091495 1.0796417919442354 -2.096853779904306 0 0 0 0
136500000 0.4919171696917208 -0.054884729130003924 0.8716076168600417 -2.3187783489057776 0 0 0 0
140400000 0.5413724792605589 -0.06716464806651432 0.46708638768101807 -1.786012403477222 0 0 0 0
144300000 0.5395681729664926 -0.06848239883154042 0.32138114454429034 -1.8212714374722092 0 0 0 0
148200000 0.539249856299807 -0.07160007939881112 0.2660446436351406 -1.8132703862849644 0 0 0 0
152100000 0.5382538099894838 -0.07407060770614625 0.2899374529507019 -1.835134223811691 0 0 0 0
156000000 0.5365204136994332 -0.07693446330640914 0.0774367730864741 -1.8418001551657148 0 0 0 0
159900000 0.5361328930888466 -0.07973470043553087 0.0853700567696974 -1.8410791169172473 0 0 0 0
163800000 0.5354760676135152 -0.08155056349917704 0.16267831379663455 -1.8589287591418964 0 0 0 0
167700000 0.5349750183543702 -0.08485051215451529 -0.14563964677001592 -1.8418669305746163 0 0 0 0
171600000 0.5342902635818022 -0.08596807435535962 -0.1787214425336282 -1.8353066126354534 0 0 0 0
175500000 0.533371689711486 -0.08867601657869024 -0.18910398432990205 -1.834757943637702 0 0 0 0
179400000 0.5328002991672389 -0.09047323206999171 -0.28466257744299933 -1.8490333196426043 0 0 0 0
183300000 0.5311847420256084 -0.09278878609068578 -0.45445006726504555 -1.8146448064699292 0 0 0 0
187200000 0.5314914043862836 -0.09468032853981007 -0.3978860209453669 -1.8173512540407497 0 0 0 0
191100000 0.530867433628708 -0.09635325898820311 -0.45430139478927173 -1.8137207622828961 0 0 0 0
195000000 0.5309987168138819 -0.09756925512801179 -0.6480261147116865 -1.7568224084243977 0 0 0 0
198900000 0.531314722451495 -0.09911895378024442 -0.7054641102264524 -1.7443525693327473 0 0 0 0
202800000 0.5311748943377698 -0.1010473575128761 -0.7504056238707525 -1.7283536101165808 0 0 0 0
206700000 0.5315742306260234 -0.1023995387186115 -0.7889020535028345 -1.6737333860499053 0 0 0 0
210600000 0.5315678935651938 -0.10470361839837833 -0.7900871706386171 -1.693903206312657 0 0 0 0
214500000 0.5315344965306815 -0.10701177809157392 -0.9314952142765038 -1.609332025250518 0 0 0 0
218400000 0.5306241043889476 -0.10872850116240566 -1.0980225941299657 -1.4805775435756783 0 0 0 0
222300000 0.5316186575559297 -0.1111231120042117 -1.0958578729248811 -1.481324118839483 0 0 0 0
226200000 0.5304981752869041 -0.11354345598938068 -1.0644014900018086 -1.5198597943374854 0 0 0 0
230100000 0.5308290889897735 -0.11550699517574747 -1.189919788655309 -1.4174390674818151 0 0 0 0
234000000 0.5282980011124598 -0.11635396590852015 -1.1635205896876457 -1.4522538102542568 0 0 0 0
237900000 0.5280892695698891 -0.1187094421147091 -1.2173652051406865 -1.4036271576432706 0 0 0 0
241800000 0.52785341592142 -0.12107856021848644 -1.4157754233045274 -1.194859286126876 0 0 0 0
245700000 0.5273769481146395 -0.12303922547120709 -1.4548590872267808 -1.126575539156997 0 0 0 0
249600000 0.5276833676251841 -0.12551660558236602 -1.4839454106297914 -1.1274261214864068 0 0 0 0
253500000 0.5273570214787136 -0.1273017969063085 -1.498245679788281 -1.0593802746641432 0 0 0 0
257400000 0.5277438156204478 -0.12951458372076308 -1.5005810151121777 -1.0729532878599581 0 0 0 0
261300000 0.5271633693667487 -0.13171986995916604 -1.5190602839467682 -1.01839894747793 0 0 0 0
265200000 0.5269869766237139 -0.13326746215835492 -1.51772408559285 -1.0001454812767308 0 0 0 0
269100000 0.526642007817147 -0.13558775251544541 -1.6147461554489642 -0.8489178972403879 0 0 0 0
273000000 0.5267275452336869 -0.13851471956233305 -1.6899656717777294 -0.6334703900957911 0 0 0 0
276900000 0.527002675325221 -0.13925864832758597 -1.7062102676637874 -0.5334784483569669 0 0 0 0
280800000 0.5261016345874604 -0.14189925459226166 -1.7048731486735262 -0.5729296432679839 0 0 0 0
284700000 0.5257040585724112 -0.14364335054456234 -1.674804558397796 -0.6364344202380634 0 0 0 0
288600000 0.5265729369069249 -0.14558422908559368 -1.6976399888950595 -0.5201313936262877 0 0 0 0
292500000 0.5264458730367683 -0.1473380574521239 -1.7319223471415082 -0.38374268569582537 0 0 0 0
296400000 0.5265187127417928 -0.14940627321175853 -1.7158271930150122 -0.42091056919749664 0 0 0 0
300300000 0.5255290349258627 -0.1511885789754434 -1.7168344330645984 -0.42956677828257217 0 0 0 0
304200000 0.5257971469368002 -0.15407577002271972 -1.6985528936778491 -0.4836082403006141 0 0 0 0
308100000 0.5249465371046222 -0.15552745311416272 -1.766334514474166 0.036317119246832695 0 0 0 0
312000000 0.5247966111148195 -0.15767330643581365 -1.761752315089541 0.09068764751104047 0 0 0 0
315900000 0.5246832914808951 -0.16021185306382804 -1.751705533332885 0.20302142029918646 0 0 0 0
319800000 0.5231919424246769 -0.16214640058576965 -1.7415825719336433 0.2830502608487134 0 0 0 0
323700000 0.5229173460176577 -0.16562175231607276 -1.71853984436445 0.3425730351428883 0 0 0 0
327600000 0.5224471880450269 -0.16674607531059374 -1.7009430559266085 0.37451092309109796 0 0 0 0
331500000 0.5225370381403008 -0.17008431095082796 -1.6795685884163705 0.41751226330354535 0 0 0 0
335400000 0.522035798881289 -0.17203935114386337 -1.6747381734610673 0.4431476444204232 0 0 0 0
339300000 0.5205510012683965 -0.17479564894477861 -1.6521874066445252 0.5025116281044882 0 0 0 0
343200000 0.519349193322782 -0.17604964718252034 -1.6442130567360176 0.5231215749528021 0 0 0 0
347100000 0.5191950732003265 -0.17911925990212096 -1.6375125744731776 0.5196364934134801 0 0 0 0
351000000 0.51821002451812 -0.1808346447451788 -1.6460375294090246 0.5551203124736782 0 0 0 0
354900000 0.5162233274439737 -0.18201466166291363 -1.598364782680065 0.6431947049125226 0 0 0 0
358800000 0.5155626371029284 -0.18347129249160768 -1.5542862145602123 0.7380475934287842 0 0 0 0
362700000 0.5135622679936719 -0.18492453819004626 -1.5439712741009683 0.8134295129518471 0 0 0 0
366600000 0.5128883658549603 -0.18737771652551907 -1.503712621556816 0.8939198202002107 0 0 0 0
370500000 0.5115162205027077 -0.18942500854871033 -1.4542884752191056 0.9608643986667564 0 0 0 0
374400000 0.5104961801617576 -0.1911684846356284 -1.4096473165290804 0.9948358099930025 0 0 0 0
378300000 0.5101414840472349 -0.19227443013195472 -1.4579687552543295 0.9612827348084843 0 0 0 0
382200000 0.5086491438875598 -0.19475003757593728 -1.4576323239900846 0.9550404047898787 0 0 0 0
386100000 0.5074544376907091 -0.19738090094692215 -1.4176627315176962 1.0258187969065 0 0 0 0
390000000 0.5062032432207089 -0.19939057801544352 -1.3949673129729891 1.0553027500780876 0 0 0 0
393900000 0.5055468082613064 -0.20143754725978233 -1.3748081524431706 1.0964688177234785 0 0 0 0
397800000 0.5037784711183125 -0.20226063181070256 -1.33944929683344 1.140792924128943 0 0 0 0
401700000 0.5035309734258904 -0.20415789432948617 -1.305260356393998 1.161886036019023 0 0 0 0
405600000 0.5019896673118153 -0.20582381465647556 -1.3244863953894765 1.1648621405820412 0 0 0 0
409500000 0.5014256121922014 -0.20738806482971103 -1.3274343222914335 1.1797649484703543 0 0 0 0
413400000 0.5002468474593406 -0.20932953199681825 -1.308570471807353 1.2000737356707096 0 0 0 0
417300000 0.4987278762980651 -0.21100988748420899 -1.2989026385385314 1.2179078072593108 0 0 0 0
421200000 0.4966681736373817 -0.21144604058499603 -1.2388158264499565 1.2666999658012252 0 0 0 0
425100000 0.49440412752120483 -0.21362267827857132 -0.5511187963980053 1.6803563801644825 0 0 0 0
429000000 0.4935404921645671 -0.21544471392904888 -0.4469204995770529 1.7136226821044755 0 0 0 0
432900000 0.4926246915561834 -0.2173720291320803 -0.3701635463316907 1.734058951917826 0 0 0 0
436800000 0.4907912190505223 -0.21830935757771422 -0.25572207562253535 1.720769140559932 0 0 0 0
440700000 0.4895224769790161 -0.22010782157550018 -0.19711405686266298 1.7134316643339282 0 0 0 0
444600000 0.48858468117171433 -0.22293350631931413 -0.1082230240690359 1.7279185679449325 0 0 0 0
448500000 0.48772656629706607 -0.22384458801364554 -0.05108417977660113 1.7161261208107392 0 0 0 0
452400000 0.48651872734882495 -0.22541014673306642 0.013871517133899561 1.757650937072891 0 0 0 0
456300000 0.4868485655791319 -0.22722576451530685 0.07877391168542434 1.7593830648976367 0 0 0 0
460200000 0.48497677475086926 -0.23016262424908673 0.15002527711863325 1.746723803213671 0 0 0 0
464100000 0.48279321739214637 -0.23008257899715895 0.22369084219899393 1.718860606577811 0 0 0 0
468000000 0.4816681330454858 -0.2327904385888623 0.28833420138816 1.7142703229616418 0 0 0 0
471900000 0.48114552465977284 -0.2336854170678593 0.35163176107044836 1.6926204125969695 0 0 0 0
475800000 0.4800396762586314 -0.23592862045166557 0.4070300317233744 1.6561166942163907 0 0 0 0
479700000 0.4800438063585037 -0.23848959624203794 0.46459566656308127 1.6316797145744801 0 0 0 0
483600000 0.47846214476795945 -0.23909907343390177 0.5211564275377818 1.607544280722064 0 0 0 0
487500000 0.4780501793195264 -0.2410780780962138 0.5705781888214212 1.577818792574903 0 0 0 0
491400000 0.4763671485306738 -0.24367976982705813 0.6240839168056546 1.5422228651765928 0 0 0 0
495300000 0.4757545139768851 -0.24522835229159046 0.6714245036499328 1.5073576312931707 0 0 0 0
499200000 0.4751572597959151 -0.2475923249478768 0.721934978831834 1.470798889480012 0 0 0 0
503100000 0.4750755629357857 -0.2487042604698762 0.7665466033526658 1.434999044671551 0 0 0 0
507000000 0.4740877025181641 -0.25141600328031877 0.8108279860916859 1.3900437042060498 0 0 0 0
510900000 0.4737073372721799 -0.25359424005150144 0.8518627448763384 1.3535820467541126 0 0 0 0
514800000 0.4725876552662894 -0.2553786063575548 0.8830180128570156 1.3163609397065315 0 0 0 0
518700000 0.4734712194972279 -0.2570968126885709 0.9133473517825822 1.2843026875238441 0 0 0 0
522600000 0.4724489635879679 -0.25991734595582033 0.9455432496302866 1.2482544203468249 0 0 0 0
526500000 0.470693418139899 -0.2611795663404976 0.9823934620256919 1.2047747869509193 0 0 0 0
530400000 0.47060454297203863 -0.2629627089436248 1.02460248602487 1.150301195872752 0 0 0 0
534300000 0.4695044421721382 -0.26649106183644056 1.0633503642007809 1.0911359100259737 0 0 0 0
538200000 0.46932252675079056 -0.2679117411460218 1.0949726659582202 1.040069118532154 0 0 0 0
542100000 0.46741443153529105 -0.2711999019345158 1.1252918726598071 0.9850763683620402 0 0 0 0
546000000 0.4667436009714561 -0.272736179334587 1.1479643750485675 0.9365775717855778 0 0 0 0
549900000 0.4647870348313731 -0.2747563996007912 1.1749982673845512 0.8847037602015695 0 0 0 0
553800000 0.4639632939098482 -0.27775977707108357 1.1884551773569645 0.8369147119548903 0 0 0 0
557700000 0.4629963197108561 -0.2786770465458717 1.2111315568735173 0.7837147046062728 0 0 0 0
561600000 0.46295157887043303 -0.28103366275175024 1.2270218212470096 0.7366574743553334 0 0 0 0
565500000 0.4613546635449481 -0.2852321041234706 1.238182702574501 0.6812346215441093 0 0 0 0
569400000 0.4599704801659021 -0.2868906348107038 1.2568743577896917 0.6412266098616112 0 0 0 0
573300000 0.45782765222688404 -0.28895855479746363 1.2647203216560947 0.5832091226390151 0 0 0 0
577200000 0.458293788993922 -0.2904078708539153 1.2739170030147178 0.5356017577006078 0 0 0 0
581100000 0.45571859472058823 -0.2927755194496384 1.2816031395169203 0.48742854917532785 0 0 0 0
585000000 0.4554340721099965 -0.29407575374180983 1.2843716202625284 0.4377245633194074 0 0 0 0
588900000 0.455574865743848 -0.2960949918515175 1.2911020344093724 0.3858178164013851 0 0 0 0
592800000 0.45297858218906123 -0.2977415243872325 1.2959132643853368 0.33580977321573097 0 0 0 0
596700000 0.4522195528859606 -0.2993362139544191 1.2938845317798342 0.28155210516558626 0 0 0 0
600600000 0.4517275442094752 -0.30193219661919585 1.2967269510275021 0.23157242349814414 0 0 0 0
604500000 0.44907678292284764 -0.3031246478588882 1.2933379787109005 0.18282387126679972 0 0 0 0
608400000 0.44830918414850635 -0.3048634841603743 1.2890339927005763 0.1363097250185404 0 0 0 0
612300000 0.44718746875477616 -0.3069448778192357 1.2789279962369557 0.09154877551693776 0 0 0 0
616200000 0.44709770829080675 -0.30944055336561993 1.2800273982078658 0.04475548545629046 0 0 0 0
620100000 0.4448531803931017 -0.31097998800504006 1.269936021404312 -0.006909150810291212 0 0 0 0
624000000 0.4442015156899366 -0.31322113409178465 1.2576661115122019 -0.05585738026076034 0 0 0 0
627900000 0.4419831659843363 -0.3128208402598712 1.2431480497064848 -0.10397874141022372 0 0 0 0
631800000 0.4424871390662433 -0.3144298746151004 1.2398476986079403 -0.1491629398030249 0 0 0 0
635700000 0.44080488223004466 -0.3150325072091721 1.219389440418299 -0.1988438050010608 0 0 0 0
639600000 0.4381209488993994 -0.31787763944562863 1.205353659358203 -0.2443089577167558 0 0 0 0
643500000 0.43597020277824056 -0.317088858216829 1.1901488442185935 -0.279605066654321 0 0 0 0
647400000 0.4346570152133933 -0.32064548202880505 1.1707658757651074 -0.3229053184618791 0 0 0 0
651300000 0.43297118937147466 -0.321636156545923 1.15483376039188 -0.3604545445919631 0 0 0 0
655200000 0.43025305783000883 -0.32265334602492934 1.1349971258528961 -0.3982817891570466 0 0 0 0
659100000 0.4292830087000107 -0.3239693400050841 1.1159472706486402 -0.43272045017676525 0 0 0 0
663000000 0.42752083647977535 -0.3247988574605957 1.0965636096429219 -0.46891944932343255 0 0 0 0
666900000 0.4265503638332932 -0.3249531266425325 1.0715562215031573 -0.5077800444689059 0 0 0 0
670800000 0.42411237882874037 -0.3263707309750542 1.0467022700562045 -0.5461260745426912 0 0 0 0
674700000 0.42385048195132335 -0.325871078415747 1.022571945591482 -0.5818727020643029 0 0 0 0
678600000 0.4223736424279574 -0.3284447959702394 0.9991387202939253 -0.614427413574727 0 0 0 0
682500000 0.42035027074943926 -0.32825911244738076 0.9708865498182059 -0.6469245329313593 0 0 0 0
686400000 0.4195299022430741 -0.32790365741261 0.9424142528833244 -0.6818575301722712 0 0 0 0
690300000 0.41851697847640873 -0.32924002640845407 0.9134913930072364 -0.7109737554909364 0 0 0 0
694200000 0.4184350224981285 -0.32890058476535566 0.8863251970293717 -0.7372427845678586 0 0 0 0
698100000 0.41733645795211105 -0.32874266368603916 0.8581867719641336 -0.7660510009780735 0 0 0 0
702000000 0.41534343089020803 -0.32950325943748027 0.8304834220133184 -0.7919656398875701 0 0 0 0
705900000 0.41603574039523583 -0.3297998252374188 0.80500307746155 -0.8176670877964556 0 0 0 0
709800000 0.41435147186110927 -0.3303864627008431 0.7704933957014217 -0.841803406713665 0 0 0 0
713700000 0.41452933857262203 -0.3315986577445887 0.7369221139258069 -0.8627923709480607 0 0 0 0
717600000 0.41241797258501234 -0.3322642270344007 0.7058280691961469 -0.8883918387026352 0 0 0 0
721500000 0.4139464237556935 -0.33151044942995356 0.6728399531990087 -0.9088735613040575 0 0 0 0
725400000 0.4136957815904349 -0.32926184464314956 0.6456433507789866 -0.9381787204634399 0 0 0 0
729300000 0.4130945851585238 -0.33162867287224906 0.6074740132580195 -0.957186368587085 0 0 0 0
733200000 0.41360008328129944 -0.33068288833921333 0.5702841697132532 -0.9772131741337543 0 0 0 0
737100000 0.41225813770480874 -0.3313013538768219 0.5258583543879969 -0.9956865404776966 0 0 0 0
741000000 0.41143347639888234 -0.3344351692036949 0.48765071445562547 -1.014701359833059 0 0 0 0
744900000 0.4119511579166824 -0.33473565645423103 0.4486263673689167 -1.0269452500197347 0 0 0 0
748800000 0.4099053786576034 -0.3350882304872309 0.4077817674519907 -1.03874944327273 0 0 0 0
752700000 0.41160219113473173 -0.33713844074835947 0.3718343723114496 -1.051549707731276 0 0 0 0
756600000 0.40959708052419014 -0.3381453285345111 0.3316552908937943 -1.0613048278620738 0 0 0 0
760500000 0.40865756835358147 -0.339917603040506 0.2906518981372841 -1.0727693737489459 0 0 0 0
764400000 0.4069647952057595 -0.33938448728451526 0.2502339057027852 -1.0784779591617781 0 0 0 0
768300000 0.4056110006902133 -0.3385038308058387 0.21132522290709493 -1.080342479754592 0 0 0 0
772200000 0.4028333898969672 -0.3425508210399024 0.16675247869187299 -1.0864315528172317 0 0 0 0
776100000 0.4024145026970504 -0.34455137549035886 0.12104843439072288 -1.0903337663669523 0 0 0 0
780000000 0.39914326663551025 -0.3446615158611003 0.08088227226308059 -1.0921593318565472 0 0 0 0
783900000 0.39824919077686466 -0.34602502679325786 0.03614636216946943 -1.088319395441397 0 0 0 0
787800000 0.39577701972206497 -0.3452331783539348 -0.0004726569979740594 -1.0864381745606615 0 0 0 0
791700000 0.39418499697996495 -0.3507632747349824 -0.0508916020507157 -1.0850398809962123 0 0 0 0
795600000 0.39371513702093663 -0.3482270880254325 -0.08526033953862845 -1.0764589238321796 0 0 0 0
