# HZ S RI R 50
3900000 0.009835430760288531 0.0002392555406426173 0.32529555348489386 -0.001409340345124253 0 0 0 0
7800000 0.00857859315652694 0.0005502981456360864 0.32534152895015783 -0.003049459823927486 0 0 0 0
11700000 0.009448855863681146 0.0013370534293956201 0.325464891577583 -0.005006839455369698 0 0 0 0
15600000 0.010820703525286829 0.001180677211754193 0.32523964890712476 -0.006161988795690466 0 0 0 0
19500000 0.010163941095078996 0.0019295815318129937 0.32558357003237104 -0.007683727738069807 0 0 0 0
23400000 0.010911260474936936 0.0021241743804361964 0.32540197497306117 -0.009427302329622236 0 0 0 0
27300000 0.010847302480401055 0.0023591802684976566 0.32545391433274634 -0.010981356235533134 0 0 0 0
31200000 0.0091631357148343 0.0025438309580648245 0.3256907049455839 -0.012212808246406382 0 0 0 0
35100000 0.009405604410114019 0.0026084982250574582 0.32550788062862923 -0.014282531293333093 0 0 0 0
39000000 0.010266179256963711 0.0026914989354771034 0.326177787346763 -0.01564656532577785 0 0 0 0
42900000 0.010529407826274139 0.0032315990497392174 0.3257723018601389 -0.017691597030158854 0 0 0 0
46800000 0.009888761484067973 0.003289291908752965 0.32598173047835177 -0.018863107421678925 0 0 0 0
50700000 0.010879115285033871 0.004142134845044846 0.3258606814366511 -0.02084902080966309 0 0 0 0
54600000 0.011118637592797952 0.004310359414341638 0.3258767045368033 -0.022159205079126967 0 0 0 0
58500000 0.011366840543495644 0.004831173787919779 0.32580401355407795 -0.02387595116142926 0 0 0 0
62400000 0.011725621659117304 0.005039429917630309 0.3260410394895262 -0.02552386373459455 0 0 0 0
66300000 0.01132346732346071 0.005051718101975702 0.32611214098280766 -0.027189702055211196 0 0 0 0
70200000 0.01133497543610055 0.004510224618922874 0.32582293408392177 -0.028967927977015456 0 0 0 0
74100000 0.01167670520175043 0.004496922727027062 0.32532053086711227 -0.03090755277471379 0 0 0 0
78000000 0.011559211836086622 0.004625735797399484 0.3252442127818012 -0.03263841239481389 0 0 0 0
81900000 0.012043767228133138 0.005035045734140198 0.32546363526869476 -0.03442995751366794 0 0 0 0
85800000 0.012564022604282042 0.005473422080433646 0.325065895040364 -0.03623014148926585 0 0 0 0
89700000 0.012819245684736379 0.006255280632877414 0.3250136185160272 -0.03826231356126011 0 0 0 0
93600000 0.012560770286361215 0.006114761259096782 0.32500445079189516 -0.040214496463240386 0 0 0 0
97500000 0.013071227395816206 0.006051944949870626 0.32464488038332595 -0.04160771446701907 0 0 0 0
101400000 0.013126054009929949 0.00619050204903353 0.3242948872461383 -0.04330481408482288 0 0 0 0
105300000 0.013284061009921192 0.0061082344546095945 0.3241996165685044 -0.045288981140331384 0 0 0 0
109200000 0.013380688112554794 0.005825992003187764 0.3237373390544839 -0.04734694533860638 0 0 0 0
113100000 0.014256763482121735 0.005771746582331396 0.3235664314797203 -0.04907086876084566 0 0 0 0
117000000 0.014229124543939584 0.006127849176242787 0.32311807742248855 -0.050857596348816515 0 0 0 0
120900000 0.014108816753431268 0.006017179259235875 0.3227547032687084 -0.05230076884460088 0 0 0 0
124800000 0.014306492295693836 0.006251358950877233 0.3223625281987861 -0.054250848090527305 0 0 0 0
128700000 0.014309832257449681 0.006182400737522662 0.3216260682340076 -0.055935431228202756 0 0 0 0
132600000 0.015165593477540637 0.006461338415036356 0.3214610703853658 -0.057013265755587635 0 0 0 0
136500000 0.015248510531905934 0.006431076619808575 0.3211126058047851 -0.05902598403468875 0 0 0 0
140400000 0.015394556866393634 0.006618165754584459 0.32175466309448053 -0.06053976239591337 0 0 0 0
144300000 0.015586683988588479 0.006920846690486035 0.321059381804503 -0.061975160802349674 0 0 0 0
148200000 0.0157261917284948 0.006802290227493944 0.3205836584896202 -0.06384906062485904 0 0 0 0
152100000 0.01601108680932399 0.006975451948109435 0.3202445622869967 -0.06576979848778217 0 0 0 0
156000000 0.016097380295729578 0.006672417578664536 0.3197545594812697 -0.06729284215588405 0 0 0 0
159900000 0.016352784843604088 0.006397467903628766 0.31933498045476966 -0.06849800293731469 0 0 0 0
163800000 0.016611842175555124 0.006606890094993379 0.31889983971220043 -0.07032949461139412 0 0 0 0
167700000 0.016492938474354284 0.006527713610969465 0.31808753364483694 -0.07203357529483072 0 0 0 0
171600000 0.016899985996513253 0.006418560172494867 0.3178002674733516 -0.07338758533151031 0 0 0 0
175500000 0.01684677673913597 0.006809562709410265 0.31752942451719407 -0.07491562274936792 0 0 0 0
179400000 0.016911230082249668 0.006924154951831996 0.3166738973781307 -0.07601572848360527 0 0 0 0
183300000 0.017290571082970236 0.006157773032733839 0.3160945495876779 -0.07786295803893944 0 0 0 0
187200000 0.017270316762824468 0.006277188291764299 0.31568734884103494 -0.07949850826524348 0 0 0 0
191100000 0.017229448699758815 0.006333792640214636 0.3156038176088147 -0.08097150982129955 0 0 0 0
195000000 0.017180119900660592 0.006627747744669656 0.3146560603605301 -0.08218625311956358 0 0 0 0
198900000 0.017284925607928908 0.006493110708922525 0.3147983675227538 -0.08363054113726151 0 0 0 0
202800000 0.017483327249871335 0.006292930672632666 0.3142856058245533 -0.0853103988128314 0 0 0 0
206700000 0.017385377663269978 0.006331064038810199 0.3135274746197751 -0.0864467677756956 0 0 0 0
210600000 0.017472572959396967 0.006349728587978072 0.3132326555821378 -0.0878427500749852 0 0 0 0
214500000 0.01761704507884204 0.006577324431403703 0.31304698333794706 -0.08961369307220728 0 0 0 0
218400000 0.017531955431508605 0.00631868369896654 0.31245182344901423 -0.09095387332390902 0 0 0 0
222300000 0.017588348574556798 0.006254857118184004 0.311967695195487 -0.09244765887164286 0 0 0 0
226200000 0.017704289081649012 0.006290430663289084 0.31175352481298885 -0.0939518188834117 0 0 0 0
230100000 0.017735619224575713 0.0065220860310541 0.3112585452838947 -0.09518944210840909 0 0 0 0
234000000 0.017852919058436653 0.006212134627172307 0.3105513956330547 -0.09681292379941923 0 0 0 0
237900000 0.017800136038021844 0.006464865440499673 0.3102234671123409 -0.09831922492243228 0 0 0 0
241800000 0.017470921003353037 0.006292331195566827 0.30989946481492564 -0.10017463469984923 0 0 0 0
245700000 0.017571800367281315 0.006654174312978682 0.30936095514483286 -0.10157332600973716 0 0 0 0
249600000 0.017575363723454855 0.006422009157413108 0.3094149452986688 -0.10302893321698844 0 0 0 0
253500000 0.01765130243194983 0.0066052629267024845 0.3085409118875752 -0.10476815678049464 0 0 0 0
257400000 0.017507649723324133 0.006422837006536212 0.30820206072732786 -0.10607453573946815 0 0 0 0
261300000 0.017725886941776084 0.006829554102942787 0.3079397676114494 -0.10768207320068021 0 0 0 0
265200000 0.017477681895571324 0.006806499050242902 0.30752194739133865 -0.10943707839826385 0 0 0 0
269100000 0.01724324140415836 0.0071625477305847516 0.3067695440133629 -0.1110330290887844 0 0 0 0
273000000 0.017444404666372558 0.006744035297735644 0.30613154829163897 -0.11275545522942196 0 0 0 0
276900000 0.017674618978084207 0.007479442975594199 0.3056349891202107 -0.11434072405013192 0 0 0 0
280800000 0.01738380780592386 0.007504866293080786 0.30554362993555073 -0.11600432671897185 0 0 0 0
284700000 0.017301025297559995 0.00785391630237977 0.3046208037201943 -0.1174542793638566 0 0 0 0
288600000 0.017099945070302266 0.007941567824958659 0.3042817361021775 -0.11938278796345055 0 0 0 0
292500000 0.017354488041810383 0.008148546572406195 0.30372775542672076 -0.12060797039353692 0 0 0 0
296400000 0.017042233700461432 0.00834554969062543 0.3030502612122842 -0.12205443256505183 0 0 0 0
300300000 0.017215943664194794 0.008649815535079198 0.30230625992649096 -0.12417646346796025 0 0 0 0
304200000 0.01682076703412939 0.009005411684047998 0.3012841436821979 -0.12573789500791008 0 0 0 0
308100000 0.01738013933109072 0.00895243000916623 0.3009629833854204 -0.1271738963269825 0 0 0 0
312000000 0.01705213472319151 0.009431580001939263 0.3003794785426029 -0.1288432783514693 0 0 0 0
315900000 0.017469781769513786 0.009742681799414073 0.2997554872609792 -0.13025598662332202 0 0 0 0
319800000 0.016805856922145382 0.010091335966643633 0.2986495890052847 -0.1321530136892171 0 0 0 0
323700000 0.017345677401534254 0.010507494150332747 0.29819362115389375 -0.1334734327010492 0 0 0 0
327600000 0.017354488098583004 0.01098903429401507 0.2971773330137438 -0.13491434516971645 0 0 0 0
331500000 0.017050506149466984 0.011113109049066879 0.2963572777454991 -0.13689277518638032 0 0 0 0
335400000 0.017194053022757897 0.011435085712578784 0.2956830845199031 -0.1378261207726924 0 0 0 0
339300000 0.01728227427052467 0.012110652555350987 0.2947669389579871 -0.13955651292806612 0 0 0 0
343200000 0.017293171661365424 0.012561572589822649 0.2939031944526976 -0.14102366695674945 0 0 0 0
347100000 0.0175118318372985 0.012410553649491469 0.29332353407810335 -0.14265595393375427 0 0 0 0
351000000 0.017729971632550245 0.013237196016320564 0.292807597874044 -0.14390021189566976 0 0 0 0
354900000 0.017951615353054375 0.013599426150955215 0.29158234283949125 -0.14555855321748531 0 0 0 0
358800000 0.01783677536206764 0.014193153726261789 0.290837562083354 -0.14666016771654083 0 0 0 0
362700000 0.018154704692095007 0.014816550047635203 0.289866183922897 -0.14835712975967927 0 0 0 0
366600000 0.018109312476424572 0.015153378667943465 0.2891252826460127 -0.1498772536339549 0 0 0 0
370500000 0.018177782703339054 0.015594179648783877 0.2881517253480888 -0.15129073692511838 0 0 0 0
374400000 0.01841131447096098 0.016270901666480472 0.28743880902225 -0.15293752879091554 0 0 0 0
378300000 0.018227676876561124 0.016374723227105457 0.28687205923780595 -0.15387363621903524 0 0 0 0
382200000 0.018909036552461313 0.01724591017406583 0.2858039516367341 -0.1553434470641413 0 0 0 0
386100000 0.019067900522896978 0.017640287512442735 0.28505584344714174 -0.15662182210497366 0 0 0 0
390000000 0.019509023427126522 0.017718001958532705 0.28429539626632516 -0.1580848073794014 0 0 0 0
393900000 0.019763517453663237 0.01867024523592356 0.28355028409704197 -0.15924918965126977 0 0 0 0
397800000 0.020069094768601525 0.019205260942846098 0.28235503230197556 -0.16053838740568013 0 0 0 0
401700000 0.02038911004102452 0.01993150541264676 0.28141731694649896 -0.16224711578449375 0 0 0 0
405600000 0.02106332970958927 0.019989477281991814 0.28084851212695777 -0.16353553727925332 0 0 0 0
409500000 0.02139576038234947 0.020647287540390896 0.27993705286833986 -0.16512405545458123 0 0 0 0
413400000 0.021609533957666544 0.021161753923698377 0.2790748025671961 -0.16630613338332897 0 0 0 0
417300000 0.022019247275384474 0.021688322641346038 0.2779360873980498 -0.1678370519044155 0 0 0 0
421200000 0.022397011936320103 0.02260033271813524 0.27748129700251367 -0.1689138144592525 0 0 0 0
425100000 0.023349097796182206 0.02275097365213559 0.2766040606030881 -0.17016990590298972 0 0 0 0
429000000 0.023297331889947342 0.02318846862154022 0.2757252585868361 -0.17195545442329596 0 0 0 0
432900000 0.0239063409154603 0.02363325651302476 0.27502233276231525 -0.17320762907442278 0 0 0 0
436800000 0.02428447259504653 0.024276279727275207 0.274323612650996 -0.1741461223452864 0 0 0 0
440700000 0.02499527911834695 0.02432675646377628 0.2730925857133729 -0.1756882206004275 0 0 0 0
444600000 0.02571692033749928 0.024794694487661324 0.27218106756516613 -0.17723598038022448 0 0 0 0
448500000 0.02594981472160725 0.025598118773436564 0.27148919460666776 -0.17833003211897241 0 0 0 0
452400000 0.02648121285300425 0.02587171908378297 0.2704922284525268 -0.18003679180456905 0 0 0 0
456300000 0.026918084059323766 0.026795039783075247 0.27045424488129843 -0.18137350518939413 0 0 0 0
460200000 0.02788939833981303 0.026859162306674258 0.2689147601621062 -0.18202944068419144 0 0 0 0
464100000 0.028075078696653842 0.027351582410225353 0.2670788961196763 -0.18377952422030167 0 0 0 0
468000000 0.028790784047440697 0.027807874723613672 0.26612783933478473 -0.18533223930697254 0 0 0 0
471900000 0.029460641788111176 0.028388927060127304 0.265692129856204 -0.18626939002595283 0 0 0 0
475800000 0.03034779539075375 0.02864234186575448 0.26443285374578207 -0.18782053591598308 0 0 0 0
479700000 0.03080767189982828 0.02824108336030956 0.2636334036017388 -0.18855161686183086 0 0 0 0
483600000 0.03140642465477778 0.029118595421666876 0.26212825582757726 -0.19032991954191017 0 0 0 0
487500000 0.03267356047451681 0.029523412733880667 0.2613990336629862 -0.1915535405897417 0 0 0 0
491400000 0.03318795943928096 0.02983471998677075 0.2600608674481987 -0.1928047282593975 0 0 0 0
495300000 0.0335640141497829 0.030215068974853806 0.25893673369478654 -0.19366145980636806 0 0 0 0
499200000 0.034368331267637206 0.030802516101399148 0.2583445473901152 -0.1951626621237023 0 0 0 0
503100000 0.0354504563722061 0.030418095869647145 0.257252520687455 -0.1963947827773152 0 0 0 0
507000000 0.03584583875135433 0.0306973902461537 0.2556738314251339 -0.1977154333561521 0 0 0 0
510900000 0.03661503209381386 0.030436459865280683 0.2541732602002224 -0.19934068010225015 0 0 0 0
514800000 0.03758424826972106 0.031013349224964813 0.2536785933045491 -0.20005469328927325 0 0 0 0
518700000 0.037745931219890505 0.03107896664772627 0.25271313493555575 -0.20114269288283923 0 0 0 0
522600000 0.03864454065396771 0.031325458191858155 0.251597766706027 -0.20236030433454272 0 0 0 0
526500000 0.0391412352487906 0.03150821613700534 0.250636733133903 -0.2032332340284855 0 0 0 0
530400000 0.0402231585193613 0.03164896930707811 0.24955383016021296 -0.20440308706835852 0 0 0 0
534300000 0.04084022778238716 0.03196757590391501 0.24813621216018583 -0.20548075744892358 0 0 0 0
538200000 0.04216986315255468 0.03201001769559568 0.24712990900952875 -0.2066980191298121 0 0 0 0
542100000 0.042707177535838935 0.03222309508039115 0.24597496429289134 -0.20785597508533452 0 0 0 0
546000000 0.04296820785545791 0.03228466468702481 0.2452342931765343 -0.2089546590439093 0 0 0 0
549900000 0.044001493595384106 0.03228970928317574 0.24352103587707372 -0.21037903425205567 0 0 0 0
553800000 0.04416997854383106 0.03187842485408134 0.2434762442376404 -0.21150246528091063 0 0 0 0
557700000 0.04533959822220247 0.032143531454869124 0.24187580126739033 -0.21294281355582262 0 0 0 0
561600000 0.046175664439227715 0.032353718566771994 0.24116952644558928 -0.21288961438907303 0 0 0 0
565500000 0.046940515149472284 0.03231906879395199 0.23857315082294425 -0.21417509627509337 0 0 0 0
569400000 0.04717263918566521 0.0321788941491236 0.24049759658988198 -0.21514980445536647 0 0 0 0
573300000 0.047404978403595865 0.03167712417781894 0.23768254834250022 -0.21657506903043947 0 0 0 0
577200000 0.04870766334213073 0.03171579212330664 0.2366697062426499 -0.21752002523294942 0 0 0 0
581100000 0.0489744721421705 0.03185538923578907 0.23616173317731284 -0.21863617946726774 0 0 0 0
585000000 0.05046336760743416 0.03166869136341073 0.23493460160818933 -0.21873040780278374 0 0 0 0
588900000 0.05056597078142844 0.0314446120663074 0.23447612152704578 -0.22084049868966507 0 0 0 0
592800000 0.05037965330985697 0.030951671575184997 0.23361258731101414 -0.22136624831023566 0 0 0 0
596700000 0.0511179393134919 0.030887334737850516 0.23192891764814916 -0.22259713991897598 0 0 0 0
600600000 0.05226895467142923 0.030412033883115162 0.23118549819211873 -0.22368006306859728 0 0 0 0
604500000 0.05246671077110204 0.03028805341865527 0.2307489463319493 -0.2246565585806478 0 0 0 0
608400000 0.053055565070558613 0.03026673343277247 0.22960943776459042 -0.22588941799352352 0 0 0 0
612300000 0.05378466090690451 0.03036727697430324 0.22847974719532588 -0.22653894811886888 0 0 0 0
616200000 0.05385841904065893 0.030207973538374382 0.2277337047853415 -0.22774750936136984 0 0 0 0
620100000 0.05460313060156225 0.029688822597130432 0.22638536877015372 -0.22973463834242938 0 0 0 0
624000000 0.05444623394024239 0.029192155993697587 0.22496343911637431 -0.23097011628499814 0 0 0 0
627900000 0.05488366204051725 0.029241594733091833 0.22427467239072357 -0.230963646780274 0 0 0 0
631800000 0.055493970394047694 0.02861363956601148 0.2240634652213596 -0.23314177897796884 0 0 0 0
635700000 0.05577397397839847 0.028806494206713423 0.22118767140118725 -0.23440094380538246 0 0 0 0
639600000 0.055567006048010584 0.028605223555178 0.22140137284152336 -0.23548302344806216 0 0 0 0
643500000 0.05641099915174538 0.02860493220038747 0.22056209048093464 -0.23668517356639113 0 0 0 0
647400000 0.056438376528934214 0.0279288956714034 0.2183748745620007 -0.23709279707044878 0 0 0 0
651300000 0.057083544419534844 0.028151548429222514 0.21779831013972276 -0.23859953439169626 0 0 0 0
655200000 0.056666984200170925 0.027668259998245563 0.216111995281436 -0.2401020659974118 0 0 0 0
659100000 0.057311417647077124 0.027380915473991182 0.21576881485649316 -0.241351450161906 0 0 0 0
663000000 0.05712152050894137 0.027420641161691114 0.21499997957681344 -0.24211383250192664 0 0 0 0
666900000 0.05743759680729967 0.027476316246925373 0.21383244340812452 -0.243559146038994 0 0 0 0
670800000 0.0566457221840841 0.026898256338596067 0.21159099120338504 -0.24467243967583363 0 0 0 0
674700000 0.05726843594469791 0.026588646151481394 0.21025631214575408 -0.2461585453287233 0 0 0 0
678600000 0.0575882095194295 0.02650675298426592 0.2095836349204699 -0.24708026305404437 0 0 0 0
682500000 0.058082812534208175 0.026341141294046685 0.20809438848368808 -0.24814400653275415 0 0 0 0
686400000 0.05764699504083394 0.026231801932114784 0.20653883442419052 -0.24970829418064955 0 0 0 0
690300000 0.05727148815318801 0.026010569705656187 0.20550929384509517 -0.24975629783123665 0 0 0 0
694200000 0.05716661480770604 0.026050843659635708 0.20434792725766215 -0.2505077456801177 0 0 0 0
698100000 0.057121988180292 0.02580107212154841 0.20300167229234817 -0.2525940447326047 0 0 0 0
702000000 0.05709603361017442 0.025769579694128974 0.20259458388132526 -0.25371357133490374 0 0 0 0
705900000 0.05678693054956452 0.02576139189137674 0.20108153822009814 -0.2551922221481213 0 0 0 0
709800000 0.05714662818913231 0.02551530531851824 0.1986747047557377 -0.2567566762309753 0 0 0 0
713700000 0.056777490579845005 0.02544477895074342 0.19705690380404825 -0.25603124496023555 0 0 0 0
717600000 0.056619683641082164 0.02555526506010284 0.1969354938466278 -0.25738063193687866 0 0 0 0
721500000 0.056757044670183776 0.025254026476936104 0.19596540155105854 -0.258312572935868 0 0 0 0
725400000 0.05651713451352224 0.02534456868002788 0.1940912717905148 -0.25974768424363964 0 0 0 0
729300000 0.056090468758237366 0.025561691142798437 0.19295816676679967 -0.26019251675560084 0 0 0 0
733200000 0.05626189017257075 0.025553026535002573 0.19217032720909782 -0.26119924263107136 0 0 0 0
737100000 0.055832905585369165 0.026156501913108764 0.19012505710463593 -0.2616829554529304 0 0 0 0
741000000 0.05543459730469146 0.025666620499849475 0.1886923563962821 -0.26313935072152733 0 0 0 0
744900000 0.05522438861544359 0.0262426439163248 0.18731653146289146 -0.26448734968547655 0 0 0 0
748800000 0.05504213171484446 0.02666767406221323 0.1857825543271195 -0.2657063122128408 0 0 0 0
752700000 0.05478720808569975 0.026107563636556568 0.18524503003537543 -0.26611404649680936 0 0 0 0
756600000 0.054584839015447736 0.0261909643335565 0.1839630405649634 -0.26684274653649753 0 0 0 0
760500000 0.054120665932083575 0.026616700146659178 0.18207729130972514 -0.2678913472508889 0 0 0 0
764400000 0.053732200574895084 0.027059984118141086 0.18169637406481629 -0.26879687265084384 0 0 0 0
768300000 0.05337249145715016 0.027320807639201757 0.18161672358416547 -0.2688568813318321 0 0 0 0
772200000 0.0532060367385481 0.027646231597709972 0.17830211027713722 -0.2695039137191355 0 0 0 0
