# HZ S RI R 50
3900000 0.008663802746449047 0.00023445227640566237 0.10696457461610134 0.0030693273095772147 0 0 0 0
7800000 0.007917508460443498 6.155727867887267e-05 0.10704266535857748 0.0025687909652492204 0 0 0 0
11700000 0.00795646756075781 0.0005654789216255185 0.10705951787270536 0.002208986323785363 0 0 0 0
15600000 0.008235378922314244 0.0003443987368250764 0.10708775979145958 0.0017622884905378307 0 0 0 0
19500000 0.007934747114016908 0.0003086832957668313 0.10710807650154142 0.0012954210738380567 0 0 0 0
23400000 0.008842240342379052 0.0005236670783402105 0.10711464476537483 0.0009266662753451173 0 0 0 0
27300000 0.008467723953084264 0.0007372066919040954 0.10716706391783759 0.00036649301139478016 0 0 0 0
31200000 0.007334267290577907 0.0005628672268833564 0.10716421151864246 -5.9317927454916314e-05 0 0 0 0
35100000 0.007826550566758593 0.0007989097597111141 0.10719035083270975 -0.0005295751741985452 0 0 0 0
39000000 0.009003673429230008 0.0011252542491598885 0.10744482209842639 -0.0011186077111509474 0 0 0 0
42900000 0.009150574829839376 0.001757446835031881 0.10731144625364802 -0.0016390532453405676 0 0 0 0
46800000 0.008512296714821397 0.0012738555900399977 0.10747516650673787 -0.0019940341880105906 0 0 0 0
50700000 0.009046368349220683 0.0019757741468526047 0.10730234110498468 -0.002509015110914858 0 0 0 0
54600000 0.009100231788307264 0.0017076772999705199 0.1074906648752652 -0.0029383515863486797 0 0 0 0
58500000 0.00837722984889246 0.0021968903229140444 0.10729857841080928 -0.0034445627733652915 0 0 0 0
62400000 0.008313046479611192 0.001806118869535993 0.10745638330065056 -0.003933603971317037 0 0 0 0
66300000 0.008003763215747316 0.0017533164215612028 0.10748493734467496 -0.004558742119963715 0 0 0 0
70200000 0.00826001905930599 0.001572497726161041 0.10735547699604103 -0.005059227145896392 0 0 0 0
74100000 0.008547973828651363 0.0015348463000000798 0.10730252184262373 -0.005581727291022808 0 0 0 0
78000000 0.0080620975575904 0.001550352931047954 0.10733864691357071 -0.006080299999898478 0 0 0 0
81900000 0.008316837242255732 0.0019396196028317815 0.10753124597953341 -0.006790750356408645 0 0 0 0
85800000 0.008664824941318434 0.0023908906297481006 0.10739611571830626 -0.00726353054100641 0 0 0 0
89700000 0.00904547302263841 0.00328692672364516 0.10744929243420712 -0.007806198884580644 0 0 0 0
93600000 0.00899310892483861 0.003116823214834038 0.10738257355390485 -0.008201572811476902 0 0 0 0
97500000 0.00923226491038795 0.003622098486812285 0.10738063185916913 -0.008826849732816826 0 0 0 0
101400000 0.009185026848791763 0.0032283623839278624 0.10729234315233768 -0.009263559630081403 0 0 0 0
105300000 0.009015972424360422 0.003247281200535053 0.10722212116748439 -0.009931949975764244 0 0 0 0
109200000 0.008954152517828455 0.003164271892531391 0.10720198605105646 -0.010579576583016826 0 0 0 0
113100000 0.009406149051976405 0.002819896547212968 0.10704062875806586 -0.010969446967548457 0 0 0 0
117000000 0.009652503447549417 0.0030457489603665706 0.10678964838774287 -0.01148607120819622 0 0 0 0
120900000 0.009429763819875599 0.0034456257146195037 0.10659218664794354 -0.012046239475489265 0 0 0 0
124800000 0.009613864643836 0.0034483946319834556 0.10677084563218969 -0.012566568540261001 0 0 0 0
128700000 0.00957342006344199 0.003709396425628446 0.1065653161452919 -0.013010948447988696 0 0 0 0
132600000 0.009929029744646036 0.004041449270890866 0.10639599101260168 -0.013580281005879113 0 0 0 0
136500000 0.009493367312710931 0.00388879725242706 0.10642295770551051 -0.013985144069434774 0 0 0 0
140400000 0.010005383578752016 0.0044848463809762104 0.10656303388729703 -0.014388770854476493 0 0 0 0
144300000 0.010402309401110806 0.004746765508451308 0.10651852894149674 -0.01493868830908363 0 0 0 0
148200000 0.010081881674053881 0.0050716874886633295 0.10638415333740238 -0.015539679623814813 0 0 0 0
152100000 0.010424298567428871 0.0054503820785370685 0.10618381609773546 -0.015848809937738878 0 0 0 0
156000000 0.01051362527908006 0.005283542824014199 0.1060587817792697 -0.016257091209952595 0 0 0 0
159900000 0.010533620386386264 0.005189624325443295 0.10603372427552339 -0.016777822672415364 0 0 0 0
163800000 0.010787187553472653 0.005268214684083331 0.10590991742017528 -0.017254138742469404 0 0 0 0
167700000 0.010497446303648685 0.005445585627469799 0.10594671856368415 -0.01780595661268091 0 0 0 0
171600000 0.010790378252500659 0.0056290259900989405 0.10561909729054222 -0.018195174718499803 0 0 0 0
175500000 0.010939760914765182 0.006145725685002868 0.10552468824525665 -0.01867865631508846 0 0 0 0
179400000 0.011046184494648994 0.006294960588285675 0.10538572802203479 -0.019038897772151564 0 0 0 0
183300000 0.01130599763950407 0.006026437476117468 0.10511156909211078 -0.019493449211412568 0 0 0 0
187200000 0.01128955181916314 0.006422980106122807 0.10518829821145793 -0.01990454423400199 0 0 0 0
191100000 0.01159649603513228 0.006392616799303985 0.10513713286527954 -0.020292265554076795 0 0 0 0
195000000 0.011332592819260611 0.0069653090092207355 0.1049441168429912 -0.020682595479262048 0 0 0 0
198900000 0.011629079753231722 0.0067300008984708505 0.10490499164754272 -0.02107776616072079 0 0 0 0
202800000 0.011643474792546427 0.007170247393779747 0.10479222066709076 -0.02165759001395042 0 0 0 0
206700000 0.011862418733543472 0.0072776327909302935 0.10468839397588771 -0.021960520352526432 0 0 0 0
210600000 0.011903987454441269 0.007386026568249769 0.1045398020342836 -0.02227315893987161 0 0 0 0
214500000 0.012045604710928364 0.007894847763404454 0.10454827639627881 -0.02299391054778811 0 0 0 0
218400000 0.01216132061097313 0.00803833866947114 0.10434395085263677 -0.023272882380490974 0 0 0 0
222300000 0.012425200685080257 0.008175242146776196 0.10416333927512597 -0.02369460062523374 0 0 0 0
226200000 0.012219982570896697 0.008142077684308243 0.10431975104092653 -0.024198085173131014 0 0 0 0
230100000 0.0124054685897276 0.00846981775450222 0.10411221893291621 -0.024498256026385924 0 0 0 0
234000000 0.012673107798057385 0.00872552513533586 0.1040198977643831 -0.02501159299724707 0 0 0 0
237900000 0.012797462274333985 0.008862866423889375 0.10393850731406352 -0.02550710108642032 0 0 0 0
241800000 0.012615171437064384 0.008887503901748663 0.10383252382934587 -0.0259937800488409 0 0 0 0
245700000 0.012748459494881986 0.009589759091839928 0.10381519245112981 -0.02620788746214176 0 0 0 0
249600000 0.012868743499479049 0.00923859778228617 0.10383075888921038 -0.026684872105415907 0 0 0 0
253500000 0.013118265742187732 0.00973105542112036 0.10353771842286644 -0.02724754605045655 0 0 0 0
257400000 0.013317249744114718 0.009614323028216522 0.1036700344438103 -0.027610786101375042 0 0 0 0
261300000 0.013530848304455514 0.009948069997262153 0.10340880115529873 -0.028150431068129332 0 0 0 0
265200000 0.01319992794476498 0.010075964142964213 0.10344205485907346 -0.02853931022547974 0 0 0 0
269100000 0.013433506045615605 0.010421998741197602 0.10329008809236352 -0.029184306120824913 0 0 0 0
273000000 0.013456031376752844 0.010185779109430615 0.10313706825304526 -0.029546724330849265 0 0 0 0
276900000 0.014042168301716186 0.01080227490967018 0.10301550009040362 -0.03004772193175208 0 0 0 0
280800000 0.01385718527910542 0.011125106788103318 0.10298171056932294 -0.030603028828478488 0 0 0 0
284700000 0.014060876280201348 0.011456979678554894 0.10272955307302374 -0.031084206843042764 0 0 0 0
288600000 0.014298081170127494 0.01167974427545273 0.10254832595159971 -0.03158204974207645 0 0 0 0
292500000 0.014317510676038356 0.011661366949710792 0.10253231057200406 -0.032070018285459745 0 0 0 0
296400000 0.014013250344032994 0.011815552790809043 0.10243844674159237 -0.03246726618490579 0 0 0 0
300300000 0.014435064499619493 0.012230899380223918 0.10224622568408209 -0.03304109965352965 0 0 0 0
304200000 0.014265909024024147 0.012080771246736417 0.10189874467852897 -0.033625965392911884 0 0 0 0
308100000 0.014554068173542238 0.012529521487968895 0.1019107633843361 -0.03401092285082057 0 0 0 0
312000000 0.01461363391365915 0.01269842532864202 0.10171079381468193 -0.03453787439089737 0 0 0 0
315900000 0.015071663758107406 0.012974814994424528 0.10153829547040766 -0.03500882114728121 0 0 0 0
319800000 0.01491472106054138 0.01310783019236053 0.10152017643467176 -0.035486130160328255 0 0 0 0
323700000 0.01528727686806724 0.01344593235897458 0.10097490878907343 -0.03583317905489853 0 0 0 0
327600000 0.015278532168720676 0.013795700076730574 0.10091737230103417 -0.036262537812936195 0 0 0 0
331500000 0.01534706591733536 0.013954953244853404 0.1008626310767461 -0.03678633388843137 0 0 0 0
335400000 0.015565893051133307 0.014099974070553382 0.10049102778786564 -0.03731506516062647 0 0 0 0
339300000 0.015787408895391 0.014434728878128673 0.10037369862461479 -0.03780559817938047 0 0 0 0
343200000 0.015721807403988774 0.014548946034726718 0.10018115595765084 -0.038128338432210154 0 0 0 0
347100000 0.015962119097178942 0.014351296366356488 0.10008777268812975 -0.03860261833926024 0 0 0 0
351000000 0.015846518908175993 0.014786279398877398 0.09977201547521365 -0.03904887917303367 0 0 0 0
354900000 0.0161137897905518 0.015105993424351837 0.09957369741493728 -0.03956639639864735 0 0 0 0
358800000 0.01620353136274209 0.015618523396306042 0.09952625632321031 -0.03975016461021618 0 0 0 0
362700000 0.016499397215378103 0.01565963274677115 0.0992632921933113 -0.04036185893498662 0 0 0 0
366600000 0.016156746366519262 0.01588178948277851 0.09907992685587995 -0.04084000124809369 0 0 0 0
370500000 0.016382092860362643 0.0162214302583489 0.09888266692375597 -0.04117171394085134 0 0 0 0
374400000 0.016453030567746246 0.01655520963920264 0.09853060147891876 -0.041515550907034016 0 0 0 0
378300000 0.01673510445825145 0.016429396292178267 0.09843167437917524 -0.04191576271916332 0 0 0 0
382200000 0.016428920210022794 0.016674807866269497 0.09814017666264364 -0.042582240893223815 0 0 0 0
386100000 0.01703462495643717 0.01721976272445445 0.09799706874149652 -0.04291200080742727 0 0 0 0
390000000 0.01721156998725482 0.01726240715030755 0.09782862582505436 -0.04333312439061157 0 0 0 0
393900000 0.01735351891377905 0.017503263516851338 0.09775099762512048 -0.043589807020899506 0 0 0 0
397800000 0.017241437815404374 0.01765165695597461 0.09726661013502734 -0.04411001186846077 0 0 0 0
401700000 0.017627117683573258 0.017964867861171227 0.09711005024846674 -0.044454815562699965 0 0 0 0
405600000 0.018131626271430154 0.01807314313123438 0.09701832578082706 -0.04492171360371813 0 0 0 0
409500000 0.018473332663231305 0.01813873154181914 0.09673412832877788 -0.045394109612955494 0 0 0 0
413400000 0.018392482445472962 0.018325341111871656 0.09657573801664099 -0.04586341486488472 0 0 0 0
417300000 0.01855865470762092 0.018560403702656363 0.09625986367478379 -0.04630845072477754 0 0 0 0
421200000 0.019015122070908805 0.019173615486602062 0.09636375475966187 -0.04652061683951318 0 0 0 0
425100000 0.01924610681052986 0.01882463472604903 0.09614952240631867 -0.047029509284467516 0 0 0 0
429000000 0.019218855497956853 0.01917002959514153 0.09582946048308581 -0.047461195896047574 0 0 0 0
432900000 0.01921800071097248 0.019612488117216626 0.09563168710750942 -0.04786683864769153 0 0 0 0
436800000 0.019628173151169808 0.019500323940701746 0.09530867233089947 -0.048196158313066687 0 0 0 0
440700000 0.019711558060693288 0.01977485779272664 0.09526420090471611 -0.04845438231219305 0 0 0 0
444600000 0.020375574294193278 0.019744755316786253 0.09506387959822232 -0.04905546742929457 0 0 0 0
448500000 0.020276463141447702 0.020264543451671935 0.09473919857751581 -0.04959722402609628 0 0 0 0
452400000 0.020502128753899503 0.02029267251220738 0.09438415677574485 -0.05011160665671044 0 0 0 0
456300000 0.02108605042410987 0.020035167840752433 0.09373270350642807 -0.05010664846548435 0 0 0 0
460200000 0.0210317183845846 0.02056263145023687 0.09417033374708131 -0.05063813011632542 0 0 0 0
464100000 0.021340603722455408 0.021013337988919693 0.09373312989496599 -0.05119515327133987 0 0 0 0
468000000 0.021788449443945524 0.02127850570554863 0.09349538177099019 -0.051655985183777266 0 0 0 0
471900000 0.02193119612101358 0.02167216016373854 0.09331953423061867 -0.051763753410499186 0 0 0 0
475800000 0.022285367894354258 0.02135482499427735 0.09299057237455301 -0.05234186878471949 0 0 0 0
479700000 0.021925927703320643 0.021151104572638198 0.09324178608623492 -0.05280613280945035 0 0 0 0
483600000 0.022780355474851143 0.021991536060551906 0.09244735481652662 -0.0533134953000798 0 0 0 0
487500000 0.02330985854086085 0.02196080692326555 0.09227296594853573 -0.05373321809149949 0 0 0 0
491400000 0.023342986969916678 0.022347239856923582 0.09197332285101338 -0.05403885773295177 0 0 0 0
495300000 0.023708483728448766 0.02272580203369414 0.09177793259470862 -0.05438220972934908 0 0 0 0
499200000 0.024390257447675142 0.022654783192021286 0.09151891123269056 -0.054781781470212794 0 0 0 0
503100000 0.024580585294150577 0.022758201262842448 0.09123933955720619 -0.054944763078784375 0 0 0 0
507000000 0.024587230297772586 0.023117897648517283 0.09100818429312751 -0.05555759667160428 0 0 0 0
510900000 0.025126645197365672 0.02299134677887196 0.09061890015552453 -0.05583563303853158 0 0 0 0
514800000 0.025719930996445067 0.02314709463152734 0.09040563644708359 -0.05621660839647985 0 0 0 0
518700000 0.02585730387837835 0.023328116612729734 0.09024541377026869 -0.0566057612431485 0 0 0 0
522600000 0.026165271339120975 0.02361760090655466 0.08977034821020476 -0.05708388477925427 0 0 0 0
526500000 0.026497925862873556 0.024068311244741823 0.08974593058559209 -0.057271059875953274 0 0 0 0
530400000 0.026900848252899255 0.023996580397918046 0.0893546336762128 -0.05778311703182057 0 0 0 0
534300000 0.02760086900984155 0.024128073380673555 0.08895595621001673 -0.0581444160727888 0 0 0 0
538200000 0.0278738566695819 0.0243225590302588 0.08880432797063896 -0.058340716698804654 0 0 0 0
542100000 0.02844106612380581 0.02441959676861944 0.08828093150978017 -0.058915461712891665 0 0 0 0
546000000 0.028907390537660012 0.02507115704759999 0.08824325190913422 -0.0592785957751499 0 0 0 0
549900000 0.029167079231898048 0.025431874619295587 0.08825980401349143 -0.05971359851994862 0 0 0 0
553800000 0.029182011672399522 0.02513128642104836 0.08799207480904628 -0.05974399948891601 0 0 0 0
557700000 0.03020246973588667 0.02563028340992337 0.08745802243628938 -0.06016889450122807 0 0 0 0
561600000 0.030700804972596845 0.02568347805312655 0.08712397543795473 -0.060590062920521555 0 0 0 0
565500000 0.031288645843698004 0.02605969040823098 0.08664104085446227 -0.060689354100793694 0 0 0 0
569400000 0.03144382809127211 0.026163242161266292 0.08716396078737834 -0.06125145393467221 0 0 0 0
573300000 0.03157798904128535 0.026628397601743188 0.08645664629523583 -0.06161766316741622 0 0 0 0
577200000 0.032270973254315154 0.026864132467815088 0.0861456526145255 -0.06203170251530416 0 0 0 0
581100000 0.032909365207851066 0.026969124463903253 0.08614267091779201 -0.06216640536680203 0 0 0 0
585000000 0.03377592364547535 0.02698693458595777 0.085810163961072 -0.06251075775557764 0 0 0 0
588900000 0.03382277639550511 0.02725295778236202 0.0857680701311787 -0.06302017377056854 0 0 0 0
592800000 0.03414906774825582 0.027324107520788392 0.08526869422071326 -0.0633190929920059 0 0 0 0
596700000 0.03474729331450926 0.027588227334963702 0.08487757104143741 -0.06381960011775187 0 0 0 0
600600000 0.035362871288435974 0.028204472310904873 0.08498256028840223 -0.06401464606482958 0 0 0 0
604500000 0.03591658821919668 0.028070988820393356 0.08466511813378973 -0.06448488926627123 0 0 0 0
608400000 0.03605008263338089 0.028757619252215674 0.08438499210584573 -0.06468413658864007 0 0 0 0
612300000 0.03687735071032955 0.028745366419190323 0.08381521847395607 -0.06477773341648572 0 0 0 0
616200000 0.03704106257804903 0.029240616360083484 0.08392868915044042 -0.06545859352022958 0 0 0 0
620100000 0.037157228398586775 0.029451533275752565 0.08369593586677045 -0.066037495828498 0 0 0 0
624000000 0.038354700196677846 0.029616969550456028 0.08338579086518177 -0.066193611912736 0 0 0 0
627900000 0.03872253755400765 0.029816219375574098 0.08294832760617114 -0.06645717314397154 0 0 0 0
631800000 0.038631882428047014 0.029919985200463795 0.08311723444096254 -0.06711539299594028 0 0 0 0
635700000 0.03947332013176116 0.03075501584339779 0.08241420661476456 -0.06763587279905339 0 0 0 0
639600000 0.03940097959183049 0.030905537789791385 0.08249071626984171 -0.06784952792219809 0 0 0 0
643500000 0.04040557158866428 0.03123634538280265 0.08231790847222221 -0.06827305363402263 0 0 0 0
647400000 0.04057385693294943 0.03175015293003082 0.08174474161595051 -0.06865242000579694 0 0 0 0
651300000 0.04133481207814045 0.03233325084140432 0.08167462886998418 -0.06904039643842629 0 0 0 0
655200000 0.04134545286561871 0.03248897304020623 0.08120138134557436 -0.06953029723060818 0 0 0 0
659100000 0.042512433930742825 0.032685086756469084 0.08106490339417653 -0.06968459823033629 0 0 0 0
663000000 0.04298670696995292 0.03372581529885871 0.08079496565190822 -0.07020406413571637 0 0 0 0
666900000 0.0434865270028947 0.03417542809907444 0.08037134614412074 -0.07069350689991297 0 0 0 0
670800000 0.04300063830650961 0.034080076727432046 0.07998378387151624 -0.07099329478793723 0 0 0 0
674700000 0.04378765491814826 0.03427466885748097 0.07967400738508057 -0.07146677867634836 0 0 0 0
678600000 0.04478190858760351 0.034552913763052 0.07945363209052106 -0.07196746649791862 0 0 0 0
682500000 0.04508378636231827 0.03538745953837689 0.07913202839243419 -0.07223138528887182 0 0 0 0
686400000 0.04564231414546905 0.035770457386725574 0.07870798205466435 -0.07261867807943005 0 0 0 0
690300000 0.045436302390619736 0.03624600392136194 0.07834315924722621 -0.0728175339897734 0 0 0 0
694200000 0.04615435542294824 0.03679461519048908 0.07801765777507141 -0.07302721028260793 0 0 0 0
698100000 0.04635319792403943 0.037064267079241014 0.07784389465862135 -0.07359062862929178 0 0 0 0
702000000 0.046698616917092844 0.037419878789654325 0.07764346879438128 -0.07413035397307483 0 0 0 0
705900000 0.047084472130200936 0.038519820178581306 0.0773173172059082 -0.07454124453613091 0 0 0 0
709800000 0.048116771055774936 0.0386275975996427 0.07656119192277287 -0.07496466023421204 0 0 0 0
713700000 0.048328779929807344 0.03934398959182949 0.0761147251604148 -0.07490745638219123 0 0 0 0
717600000 0.048781507644122805 0.04025644701308449 0.07614925794008781 -0.07539310370187285 0 0 0 0
721500000 0.04928668053235282 0.04000414055451068 0.07578412706008947 -0.0755530476349823 0 0 0 0
725400000 0.04968102993816457 0.041341130633544804 0.07549567349628214 -0.07632161468562824 0 0 0 0
729300000 0.04956671632482242 0.04150400667184288 0.07502075312467135 -0.07624450140291684 0 0 0 0
733200000 0.050276440381968615 0.0425168462497846 0.0748989161698344 -0.07657714256433161 0 0 0 0
737100000 0.05041577627388122 0.04314352009996568 0.07441721100356963 -0.07701379539399582 0 0 0 0
741000000 0.05086234365961895 0.04321900928178796 0.07413186365310834 -0.07763559833087741 0 0 0 0
744900000 0.0510007119849349 0.04422884536354656 0.0735679077126964 -0.07773215245123279 0 0 0 0
748800000 0.05162427530909696 0.04493065315266215 0.07331881364358203 -0.07812529004635861 0 0 0 0
752700000 0.052080286086923964 0.04490458461529293 0.07313677330947087 -0.07843816519897273 0 0 0 0
756600000 0.052348095631979466 0.04551385913533182 0.07269849109692424 -0.07874770416023472 0 0 0 0
760500000 0.052225844731892526 0.04632068605840328 0.07251385197078399 -0.07901624503595008 0 0 0 0
764400000 0.05251938381417025 0.047220156717808305 0.07240394198618078 -0.07911394126093675 0 0 0 0
