# HZ S RI R 50
3900000 0.9997861826790204 -0.002965113153042471 0.0696177096458471 0.0010217242952454194 0 0 0 0
7800000 1.0002171154845647 -0.004821182635856262 0.06953628825926793 -0.00027919485439808155 0 0 0 0
11700000 0.9995600924468533 -0.007120764249140901 0.06941759740107124 -0.0015925709209073046 0 0 0 0
15600000 1.000000556646636 -0.009583314905162494 0.0694211140411961 -0.0026910115050451833 0 0 0 0
19500000 0.9992016720586887 -0.011896415265860098 0.06949167601286406 -0.003977462513190964 0 0 0 0
23400000 0.9990965762332905 -0.014111083198842233 0.06916940566852259 -0.005082381879374368 0 0 0 0
27300000 1.000395161656969 -0.016891359976878587 0.0692761938637706 -0.006318305690464138 0 0 0 0
31200000 1.0002920750339965 -0.019714905438106896 0.06907575476246805 -0.007554400872925237 0 0 0 0
35100000 0.9998742712112045 -0.02140486446289098 0.06901312538188369 -0.008791511046514492 0 0 0 0
39000000 0.9996527095339177 -0.024094081182729578 0.06874244750789014 -0.009992734908313757 0 0 0 0
42900000 1.000252026700106 -0.026929866935095904 0.06859806010278624 -0.011242090463511968 0 0 0 0
46800000 1.0000306451981769 -0.029304830971445144 0.06855623141079199 -0.012325314335330146 0 0 0 0
50700000 1.0007938179491855 -0.032138541885539565 0.06824040685692329 -0.013550922799664728 0 0 0 0
54600000 1.0006810857776716 -0.034173909293284115 0.06811286024722805 -0.014753638328077915 0 0 0 0
58500000 1.0017349781449383 -0.03731056607134427 0.06778963191423407 -0.01611043757375403 0 0 0 0
62400000 1.001523196168194 -0.039616660848192875 0.06741463812685916 -0.017186725685042245 0 0 0 0
66300000 1.0011718726101626 -0.0415473855966761 0.06715310753270896 -0.018414344951783353 0 0 0 0
70200000 1.0014624669735133 -0.04517497257537264 0.06666105155931444 -0.019535374198410886 0 0 0 0
74100000 1.000893676577384 -0.046511717605564745 0.06641109150985008 -0.02065056119642717 0 0 0 0
78000000 1.0018921042430822 -0.048647583910687006 0.06615535835682029 -0.02188374326936579 0 0 0 0
81900000 1.0029807914413542 -0.05142445436421498 0.06596480899540033 -0.02317063384212235 0 0 0 0
85800000 1.0035964186842683 -0.05444697831989169 0.06532314360073338 -0.024335805318573364 0 0 0 0
89700000 1.0037281595773417 -0.056382802026390406 0.06479689638314214 -0.025441451374018785 0 0 0 0
93600000 1.0034046297723622 -0.06023428036444464 0.06432260755410879 -0.02674089135956318 0 0 0 0
97500000 1.0034666724912338 -0.06104267025804902 0.0639780276176524 -0.02792037854547167 0 0 0 0
101400000 1.0030367861750649 -0.06432528485170128 0.06345209422215864 -0.028971319399591987 0 0 0 0
105300000 1.0034494933868343 -0.06621646405489352 0.06295611954352381 -0.030107075295623554 0 0 0 0
109200000 1.0041795368114763 -0.06851516531396541 0.06241162412508998 -0.03113657997393298 0 0 0 0
113100000 1.005580517574412 -0.0723839734723764 0.06182567272971323 -0.03244180114040361 0 0 0 0
117000000 1.0052091827610439 -0.07616267228593966 0.06109069208686217 -0.03357610984252881 0 0 0 0
120900000 1.0067196896993253 -0.07601418937376253 0.0604355032799781 -0.03453538159531786 0 0 0 0
124800000 1.0061339205526838 -0.07991680971822232 0.05977901826149317 -0.035806156509610415 0 0 0 0
128700000 1.006559339180344 -0.08197210049985076 0.05917681363770275 -0.0367457168845752 0 0 0 0
132600000 1.0067909058906248 -0.08413518521207251 0.05865597052472376 -0.037926338331315854 0 0 0 0
136500000 1.0070947324025576 -0.0875136768191167 0.05786082244478146 -0.038855374105955305 0 0 0 0
140400000 1.0073320143563174 -0.09005071136759056 0.057504820654694935 -0.04099825850311801 0 0 0 0
144300000 1.0035293574012285 -0.09106596571820968 0.05985940246197164 -0.036895744239071236 0 0 0 0
148200000 1.0064919102182104 -0.09492495504984097 0.05819444277655949 -0.03869664920286815 0 0 0 0
152100000 1.0070934177378308 -0.09846960271446596 0.05714495832285708 -0.03900640254725278 0 0 0 0
156000000 1.0091411105876011 -0.10026617647746898 0.05354946393997134 -0.04676500667607927 0 0 0 0
159900000 1.0091941198015422 -0.10328712615832185 0.05365168757683371 -0.04694529067127509 0 0 0 0
163800000 1.0095916185676204 -0.10656932644061189 0.053816102724051025 -0.044460230025592316 0 0 0 0
167700000 1.0095342934941516 -0.10805787371821646 0.05445642162101517 -0.043193054080255165 0 0 0 0
171600000 1.0095051849768089 -0.11189219932518374 0.05280865750832092 -0.04500175999953853 0 0 0 0
175500000 1.0090691712427124 -0.11330627957512854 0.05515716967576722 -0.04179880614484647 0 0 0 0
179400000 1.010414599451661 -0.11782760115022602 0.051023721063871416 -0.04760859262844836 0 0 0 0
183300000 1.0132279752579327 -0.11977457050657173 0.04664811418175563 -0.053702139299353545 0 0 0 0
187200000 1.015455546386492 -0.1222116915853039 0.046291928546369154 -0.05399572581137167 0 0 0 0
191100000 1.0152344524184194 -0.1263431785244277 0.04555317372334014 -0.05452787459850486 0 0 0 0
195000000 1.0131477886525788 -0.1290801765848724 0.04789890597641378 -0.049912654642562414 0 0 0 0
198900000 1.0118485604071568 -0.1293725198480463 0.05159093863347022 -0.047701974427414945 0 0 0 0
202800000 1.0126257710340942 -0.13348075165363565 0.04989487515297813 -0.04876066339732451 0 0 0 0
206700000 1.014088137832705 -0.1362969697923405 0.047868709803619125 -0.05003903926572993 0 0 0 0
210600000 1.014998348978601 -0.14025802447820504 0.045493060892812534 -0.052519749672193514 0 0 0 0
214500000 1.0182676846407956 -0.1428381997466619 0.04039396755525714 -0.057093262706783034 0 0 0 0
218400000 1.0194234541699492 -0.14634675742653275 0.03592077673268131 -0.06009421564659789 0 0 0 0
222300000 1.0205807392543451 -0.14924062051670758 0.03481593914076241 -0.06163403287401346 0 0 0 0
226200000 1.020640228706244 -0.1519171398879413 0.03581863080731904 -0.060856710123801984 0 0 0 0
230100000 1.020237694234973 -0.1592311449940264 0.034146613647827485 -0.06196863402502038 0 0 0 0
234000000 1.021162895720305 -0.1606265413885522 0.03205880038174164 -0.06278204884180999 0 0 0 0
237900000 1.018629479152433 -0.16165033132878687 0.036702401045686166 -0.059752826819110025 0 0 0 0
241800000 1.018324503870727 -0.16563343908324615 0.03686590412346307 -0.05850649481598168 0 0 0 0
245700000 1.0187111764668488 -0.16581526676097444 0.042781199274886786 -0.05760019454747173 0 0 0 0
249600000 1.020684330157298 -0.17046779999178194 0.03646725307209688 -0.060840063100173154 0 0 0 0
253500000 1.019476465021984 -0.17333480529789544 0.03831247346871516 -0.06012370304972915 0 0 0 0
257400000 1.0211574881838452 -0.1763375588616376 0.03894846535964268 -0.05997526337019135 0 0 0 0
261300000 1.0189781784958412 -0.17908372872580228 0.03867866092424912 -0.06018608700352424 0 0 0 0
265200000 1.0251628325750965 -0.18347561490655095 0.031982233351515475 -0.06371057569703205 0 0 0 0
269100000 1.0266889037750464 -0.18908294708775789 0.026146990370155426 -0.0660297533758788 0 0 0 0
273000000 1.0290125268456922 -0.19390192936196618 0.01914620903459488 -0.06799485732460532 0 0 0 0
276900000 1.0288168178969224 -0.1972357448552353 0.016179454200147 -0.0683595391347604 0 0 0 0
280800000 1.0300693861115244 -0.20117609540083695 0.014601111675726742 -0.06911585492437441 0 0 0 0
284700000 1.0286835205028395 -0.20475120620458817 0.014562414706306197 -0.06840533017000472 0 0 0 0
288600000 1.0279906892567139 -0.20791924911002163 0.014552667566439303 -0.06853258114752955 0 0 0 0
292500000 1.0281954408256802 -0.21188444107401497 0.013924342208761879 -0.06846700487336083 0 0 0 0
296400000 1.0284243526910655 -0.21655370706422458 0.009612137900934615 -0.06873710634986885 0 0 0 0
300300000 1.0284080600040981 -0.2218297102183592 0.008646201105782533 -0.07004914444192349 0 0 0 0
304200000 1.028874040910896 -0.22441023782871272 0.006985321073566353 -0.0685243755689933 0 0 0 0
308100000 1.0259118179984108 -0.22439412800811723 0.015310193052442156 -0.06671033650066198 0 0 0 0
312000000 1.024433054743056 -0.22576779308346 0.017320733390594967 -0.0660252473440073 0 0 0 0
315900000 1.0236920655773132 -0.22890381589086176 0.017415391204103944 -0.06619085430890573 0 0 0 0
319800000 1.0215817654942465 -0.23015822810671663 0.020412255109342636 -0.06678479386131388 0 0 0 0
323700000 1.021404450386992 -0.23463632484434135 0.02076063591720633 -0.06669941809042974 0 0 0 0
327600000 1.0225550003917092 -0.2362525139176182 0.02034662540079989 -0.06780753229629671 0 0 0 0
331500000 1.0211513244166668 -0.23999878342153566 0.020913321032040317 -0.06775075694939806 0 0 0 0
335400000 1.0217892159120945 -0.2409193092978178 0.019995158821585892 -0.0674209252855541 0 0 0 0
339300000 1.0219700281379605 -0.24664684832510167 0.017925504878293544 -0.067333080899501 0 0 0 0
343200000 1.023878337719512 -0.2515667589653468 0.012978671692898236 -0.06832488290550913 0 0 0 0
347100000 1.029480264084817 -0.2579085208913911 0.00391025362141228 -0.06925063817232187 0 0 0 0
351000000 1.032457403598329 -0.26297875432667817 -0.0024216886921956298 -0.06953470734192402 0 0 0 0
354900000 1.0327392314191717 -0.2680680835144567 -0.00529691667504893 -0.06980816968606417 0 0 0 0
358800000 1.0335859681647745 -0.27382553099911255 -0.008376529886034132 -0.06930418937156287 0 0 0 0
362700000 1.0349511283201627 -0.2778960649865972 -0.0121329574388396 -0.06850619200671301 0 0 0 0
366600000 1.035984520625836 -0.2828746776808456 -0.014914823059127266 -0.06652614504010776 0 0 0 0
370500000 1.037080030679068 -0.2869882924394128 -0.015877680830737588 -0.06525682259341967 0 0 0 0
374400000 1.0366934302033408 -0.2889088625590014 -0.01627989596928156 -0.06431620465505432 0 0 0 0
378300000 1.0376086168280774 -0.29180435207674205 -0.01668191349394073 -0.063912395056498 0 0 0 0
382200000 1.0355861055607753 -0.2959026790726849 -0.01764799968307305 -0.06336723921277124 0 0 0 0
386100000 1.0369202155783384 -0.29975266547990775 -0.018562926530248592 -0.06302051332075317 0 0 0 0
390000000 1.0375455252144576 -0.3027696557137597 -0.019848754842216116 -0.06302485407471602 0 0 0 0
393900000 1.0355568584434225 -0.30286979920287377 -0.015402150644012458 -0.06573563225334797 0 0 0 0
397800000 1.0351937386590153 -0.3027987104409989 -0.013548954031742966 -0.06663329637526559 0 0 0 0
401700000 1.0356925423598722 -0.30680493424198524 -0.015211271253236227 -0.06543403815967737 0 0 0 0
405600000 1.0344664530515513 -0.3144595394204903 -0.015619377183073248 -0.06357608210226355 0 0 0 0
409500000 1.0338712197045343 -0.3155106823667306 -0.015021669003257002 -0.06465247187191828 0 0 0 0
413400000 1.0357199554592333 -0.3181046078297621 -0.01769902936698205 -0.06542758683001489 0 0 0 0
417300000 1.0378802776808078 -0.32433220499001186 -0.01982849862038383 -0.06358404106802924 0 0 0 0
421200000 1.0370687199189448 -0.3258135776875747 -0.01923547369463448 -0.06367994611497371 0 0 0 0
425100000 1.0374722845860498 -0.32982963040505825 -0.017075412702117904 -0.06370779140610697 0 0 0 0
429000000 1.039741070588132 -0.3456732851941044 -0.03219667667307927 -0.05899332243888115 0 0 0 0
432900000 1.0319948796351737 -0.34240047482435115 -0.02356347219607697 -0.0582759356011636 0 0 0 0
436800000 1.0253382586434665 -0.3403866303836299 -0.015954591123310807 -0.06212345271692876 0 0 0 0
440700000 1.025529764213235 -0.33881100647053375 -0.014470151550747112 -0.06262061106970167 0 0 0 0
444600000 1.0251887491593603 -0.3451815452508281 -0.015093704361977886 -0.062064870531831726 0 0 0 0
448500000 1.0240136914960682 -0.3474811802609022 -0.016561562355336224 -0.061285528127647294 0 0 0 0
452400000 1.0249448216354469 -0.3506430581481001 -0.017587601315543162 -0.060700384281974794 0 0 0 0
456300000 1.027904236560312 -0.35183073850648733 -0.018016839876318507 -0.06109313938114798 0 0 0 0
460200000 1.0271762017731096 -0.35141610906603005 -0.016132761011370757 -0.06365708830603573 0 0 0 0
464100000 1.0237539343169277 -0.352747915475673 -0.014028904683501355 -0.06688115262822446 0 0 0 0
468000000 1.0238821479279383 -0.35126750344285085 -0.011768803748263149 -0.0699297768123965 0 0 0 0
471900000 1.0217392542432453 -0.3525309450378175 -0.010418173323795066 -0.06993730325137139 0 0 0 0
475800000 1.02190799091124 -0.3583455713544108 -0.01055653245896615 -0.06965299934792976 0 0 0 0
479700000 1.0192284006113985 -0.3622336638672388 -0.011680264136260363 -0.06862457347727355 0 0 0 0
483600000 1.0202606916539783 -0.3674026731418381 -0.013287500352749797 -0.06667257468743976 0 0 0 0
487500000 1.023525350021486 -0.37467263901674847 -0.01674881574805933 -0.06591325035453373 0 0 0 0
491400000 1.023541204783446 -0.37942251334291743 -0.01827946397912274 -0.06498259712025341 0 0 0 0
495300000 1.0226751427868768 -0.3798063053147367 -0.0185733054663053 -0.06687866091799581 0 0 0 0
499200000 1.0243022236620223 -0.38298311353546155 -0.020351961201586537 -0.06721941027576929 0 0 0 0
503100000 1.0254748295465268 -0.38696571989947337 -0.022666894011516923 -0.06623766700308925 0 0 0 0
507000000 1.02449161939145 -0.39510664413829055 -0.025465435234522615 -0.06528181374935853 0 0 0 0
510900000 1.0262177651038447 -0.3978991339151715 -0.029110660791351238 -0.06608629325243942 0 0 0 0
514800000 1.0284887918751229 -0.4155166822237516 -0.03458901431178203 -0.05638495370964292 0 0 0 0
518700000 1.0341648001529156 -0.4240353823653629 -0.03796761853282025 -0.05222576815642158 0 0 0 0
522600000 1.035637404418393 -0.42855506317783815 -0.04039894511352767 -0.05335684068009914 0 0 0 0
526500000 1.033720859349342 -0.42135710110986224 -0.04011191065086652 -0.05882197006914043 0 0 0 0
530400000 1.0324592179305294 -0.41651496850584985 -0.03798185083566591 -0.06258175614882094 0 0 0 0
534300000 1.0301497518106864 -0.4214383055450784 -0.03715970091715699 -0.060371282573810504 0 0 0 0
538200000 1.030522918133873 -0.42758493545890014 -0.03928175390874707 -0.05727167408576705 0 0 0 0
542100000 1.0338389542880602 -0.43816153546606473 -0.04398975514586158 -0.0530112091518262 0 0 0 0
546000000 1.0363720902506843 -0.44781406014415925 -0.04825695672109317 -0.048394016489346686 0 0 0 0
549900000 1.0362501707127427 -0.4562589304796323 -0.051667939397962 -0.043988934275551284 0 0 0 0
553800000 1.0378218808809099 -0.46643721090325724 -0.054552747067852236 -0.039058651121224454 0 0 0 0
557700000 1.03980337626888 -0.47084584174265165 -0.05650465168738618 -0.0358064244661849 0 0 0 0
561600000 1.0424654107535496 -0.4797240680207015 -0.05778829947612375 -0.03320847713502979 0 0 0 0
565500000 1.042512753275936 -0.48803452909527983 -0.0586827686194718 -0.030500672971496164 0 0 0 0
569400000 1.045924144288852 -0.49906069549121845 -0.06000727275490474 -0.02885685430001704 0 0 0 0
573300000 1.0421713278855318 -0.5015006116588209 -0.06002435824549027 -0.02630379596670377 0 0 0 0
577200000 1.0392596344993799 -0.5057668215613481 -0.060249891824893764 -0.023729927345335567 0 0 0 0
581100000 1.0371660006251842 -0.5120586831676913 -0.0601554387369932 -0.02115727098570076 0 0 0 0
585000000 1.036040595309466 -0.5222527570895665 -0.05951680348250963 -0.018619200174753818 0 0 0 0
588900000 1.0357261083718283 -0.5242756797773735 -0.058813556651399534 -0.016429256884050555 0 0 0 0
592800000 1.032513155221506 -0.5301583853829372 -0.0577892722513074 -0.014851541456906746 0 0 0 0
596700000 1.0274948749431094 -0.5322996880857036 -0.05639158735547089 -0.013663377224655996 0 0 0 0
600600000 1.0271083540826556 -0.5379626882190152 -0.05542272246238748 -0.013129544258125804 0 0 0 0
604500000 1.0231118358980744 -0.541437803735883 -0.05448244873267136 -0.013089566657972075 0 0 0 0
608400000 1.0243660000029169 -0.5415247174435854 -0.05368155684158108 -0.013353567645316184 0 0 0 0
612300000 1.020852178778096 -0.5441900072236776 -0.052824165988747895 -0.014335376948364498 0 0 0 0
616200000 1.0243633784300503 -0.545234547360695 -0.052694754654330815 -0.015892470247079973 0 0 0 0
620100000 1.026029075173132 -0.5423487256303879 -0.053645307986118634 -0.018878196687552532 0 0 0 0
624000000 1.029492103129621 -0.5430036199873354 -0.05557871385306601 -0.02115064059296181 0 0 0 0
627900000 1.029317832507165 -0.5414888379556198 -0.05696589966151125 -0.02207898654901811 0 0 0 0
631800000 1.0361332801992864 -0.5511664234918671 -0.05983969515389624 -0.02116623219199173 0 0 0 0
635700000 1.0304399837086138 -0.54998565937818 -0.059496470266756786 -0.021564729521387077 0 0 0 0
639600000 1.028070368404513 -0.5575022141013373 -0.05941003128596044 -0.021496013520900425 0 0 0 0
643500000 1.02708644035499 -0.5531980213989445 -0.058248815635788556 -0.02297494179551916 0 0 0 0
647400000 1.0286174444251934 -0.5503242496363462 -0.05687732191519144 -0.026113393521783705 0 0 0 0
651300000 1.0264038578812997 -0.5548527094352882 -0.05590070455579759 -0.027082243126024037 0 0 0 0
655200000 1.02377596966519 -0.5657398220098903 -0.056894335978704094 -0.021030554611969267 0 0 0 0
659100000 1.0245175989924884 -0.5728942101613334 -0.058650166854007126 -0.01815416845010171 0 0 0 0
663000000 1.0234760836298926 -0.5744385460578182 -0.05813242928999162 -0.020943740294689747 0 0 0 0
666900000 1.0194232066409499 -0.5736342418100351 -0.05676986637499151 -0.021307106177024318 0 0 0 0
670800000 1.0205507649426098 -0.5808958424172312 -0.058428210664250524 -0.01976270335303271 0 0 0 0
674700000 1.0209356766827204 -0.5847632104620789 -0.05894236673777969 -0.01882406299393865 0 0 0 0
678600000 1.0232409941878504 -0.5909816788873726 -0.0603974183550393 -0.01759852987943871 0 0 0 0
682500000 1.0247541904132784 -0.5960494748217223 -0.06166009210326382 -0.01685301932781643 0 0 0 0
686400000 1.0258584533283046 -0.5971321050157857 -0.0617569008110658 -0.01763741182220585 0 0 0 0
690300000 1.0347808542463413 -0.6083772368350662 -0.06628191849117644 -0.016274550015256687 0 0 0 0
694200000 1.0322715434625218 -0.6157446991451425 -0.06552669325613945 -0.01249307340863598 0 0 0 0
698100000 1.0284983551908833 -0.6235223460723732 -0.0651738524518073 -0.010347975055763943 0 0 0 0
702000000 1.0275944988626458 -0.6269295676307095 -0.06527892581934355 -0.008795954286921169 0 0 0 0
705900000 1.0280265684397 -0.6355357922596667 -0.0653688907511262 -0.007090825879512658 0 0 0 0
709800000 1.0247111362590222 -0.6372280152089804 -0.06509960016595438 -0.00542800448003989 0 0 0 0
713700000 1.0234306870248517 -0.6419715436428817 -0.0641824209595642 -0.004302963611296913 0 0 0 0
717600000 1.0176749932530673 -0.6513071959025752 -0.06376625805652174 -0.003360062495273994 0 0 0 0
721500000 1.0142275668105554 -0.6514585027382832 -0.06271871176344816 -0.002828734822289733 0 0 0 0
725400000 1.0162761068794928 -0.6552478076072253 -0.06200525530751306 -0.002974396352470339 0 0 0 0
729300000 1.0054565808201286 -0.6570587253468352 -0.05887989445456472 -0.0007264313068029134 0 0 0 0
733200000 0.9811898910321633 -0.676040736636436 -0.05223331608003679 0.008810738044738368 0 0 0 0
737100000 0.9706138565538664 -0.6710763877332315 -0.05059681289254414 0.0073368367785806455 0 0 0 0
741000000 0.9705672325939539 -0.6671896591259879 -0.05145815040658396 0.0036444787774865877 0 0 0 0
744900000 0.9719979924327997 -0.6591197940242329 -0.053003456665006145 0.00032169713313408375 0 0 0 0
748800000 0.9733303157816511 -0.6568951000943954 -0.054564228885720815 -0.002113320233379886 0 0 0 0
752700000 0.976077148667734 -0.6509674521371869 -0.05624653742436013 -0.004280706284954815 0 0 0 0
756600000 0.979157132498257 -0.6499263798073166 -0.057765205352343016 -0.0058411502097157585 0 0 0 0
760500000 0.9826440149007651 -0.6516718460228023 -0.05942148840381236 -0.007410266823267437 0 0 0 0
764400000 0.9851156533906538 -0.6479394778093843 -0.06109651218228223 -0.008908870367151685 0 0 0 0
768300000 0.9836118041332643 -0.6405667899860833 -0.06239693666593308 -0.009953024196401187 0 0 0 0
772200000 0.9870228585701905 -0.6475503212623129 -0.06293039258964325 -0.009791535399971556 0 0 0 0
776100000 0.9842347201989833 -0.6531867232251893 -0.06273157898599593 -0.008716212381357264 0 0 0 0
