# HZ S RI R 50
3900000 0.8495837733118976 -0.23035562427825415 -0.524498800712821 -0.040457976450945794 0 0 0 0
7800000 0.6955153815496327 -0.22835945569951036 -0.5074784491389381 0.0157167505859119 0 0 0 0
11700000 0.6286003339594762 -0.19450554035015216 -0.4980935463849243 0.03605944485713797 0 0 0 0
15600000 0.5928279150155376 -0.17157300143678236 -0.49971109662891605 0.048867658332082536 0 0 0 0
19500000 0.5651463192464601 -0.15863494758992214 -0.507430140277441 0.06113634475618177 0 0 0 0
23400000 0.544616190885708 -0.14927957832080152 -0.5164951514954821 0.0730641103020451 0 0 0 0
27300000 0.5274196158690745 -0.14364200846173622 -0.5252640996195579 0.08554480248325008 0 0 0 0
31200000 0.511553337692516 -0.14080002302795655 -0.5324196958771567 0.09831103077606149 0 0 0 0
35100000 0.4996725615663127 -0.13843561739408708 -0.5381385404669501 0.11184242371972297 0 0 0 0
39000000 0.488649419139863 -0.13631340654256824 -0.5426999113931575 0.125338795969662 0 0 0 0
42900000 0.4795435523928701 -0.135909907555072 -0.546338521025585 0.13952891220813174 0 0 0 0
46800000 0.4708276528391218 -0.13554303322500905 -0.5478503506912726 0.15367842638746898 0 0 0 0
50700000 0.46485365854209154 -0.13503340343854686 -0.5482524626568686 0.1684702325675474 0 0 0 0
54600000 0.4584754577477877 -0.13490325704788783 -0.5476330652294565 0.18267461684291017 0 0 0 0
58500000 0.45367602319032563 -0.13541558866184278 -0.5460174418939179 0.1962403121613145 0 0 0 0
62400000 0.4493150601224233 -0.1363506505792252 -0.5436735840040359 0.21065277333834337 0 0 0 0
66300000 0.4447768019447634 -0.13745396027544496 -0.5406788458316651 0.22481350258153332 0 0 0 0
70200000 0.4408734800011403 -0.13881742938819985 -0.5362724577350326 0.23811032346672986 0 0 0 0
74100000 0.4378844592031417 -0.1410565245376815 -0.5313001991454727 0.25163433334590035 0 0 0 0
78000000 0.4346296175162125 -0.14191136817948535 -0.5261996302429142 0.265561474794642 0 0 0 0
81900000 0.4324190274254381 -0.14334033220037493 -0.5202390250643213 0.27824424190176983 0 0 0 0
85800000 0.43026167239415186 -0.14515780572354509 -0.5135716816064476 0.29132985539407025 0 0 0 0
89700000 0.4285025099034024 -0.1470100124932416 -0.5061176314450975 0.30461533080228065 0 0 0 0
93600000 0.42583367701856206 -0.14892815548413854 -0.4986117717891464 0.3169479296198179 0 0 0 0
97500000 0.42434868819519755 -0.1508020128291704 -0.4904378918274527 0.32876023028638995 0 0 0 0
101400000 0.41861883474498707 -0.1529567750735794 -0.48509978087390965 0.34357971185248565 0 0 0 0
105300000 0.4195404073780248 -0.15504789820687062 -0.4738538813197036 0.3528979481823148 0 0 0 0
109200000 0.4190547846043064 -0.15842755312391585 -0.46393485296055376 0.3632933446965081 0 0 0 0
113100000 0.41800947067287453 -0.1601237055492538 -0.45381571793256603 0.3741183650617387 0 0 0 0
117000000 0.4158684570311775 -0.16418249442685792 -0.44432564561063237 0.3849739068125126 0 0 0 0
120900000 0.4142744146961031 -0.16543044086631828 -0.4346850411658866 0.3941687663925738 0 0 0 0
124800000 0.4118696010961833 -0.16843900672511805 -0.4237483592313562 0.40476205696614953 0 0 0 0
128700000 0.41010559558776905 -0.1706254751768895 -0.4133612126048325 0.4136323610472793 0 0 0 0
132600000 0.4037101302153249 -0.17219838170333576 -0.4044992410012427 0.42657416917031143 0 0 0 0
136500000 0.40516581524167666 -0.17577363152517492 -0.39224478030778664 0.4324816827014524 0 0 0 0
140400000 0.4175544753854343 -0.18850694005255988 -0.37264274541274095 0.42255025004450875 0 0 0 0
144300000 0.41470982029408515 -0.19045997834552017 -0.3607337327969016 0.4299476615519627 0 0 0 0
148200000 0.41251377526384037 -0.19313021185133009 -0.34969955860738594 0.4394877085412757 0 0 0 0
152100000 0.41103003552354733 -0.1952061138424462 -0.33833534339423926 0.44713167567379974 0 0 0 0
156000000 0.40933684442573237 -0.19774519915608524 -0.3262833888963315 0.4535106690321026 0 0 0 0
159900000 0.4076979250413269 -0.20010840112231554 -0.31500004376559076 0.45994666342892143 0 0 0 0
163800000 0.40584933676147417 -0.2027651476385298 -0.30208197024586697 0.4666484744472126 0 0 0 0
167700000 0.40430679121028396 -0.20517749460677256 -0.2905930372213454 0.47367380431968814 0 0 0 0
171600000 0.4024723658765671 -0.20699683026568244 -0.27838925925042923 0.4769259869858276 0 0 0 0
175500000 0.4008916061832099 -0.2086296111301564 -0.26660946141171704 0.48213421727754074 0 0 0 0
179400000 0.39976372289784995 -0.21142621779151421 -0.25398508663257807 0.4862435527985166 0 0 0 0
183300000 0.3987419549591409 -0.21353154067089755 -0.24295989216889194 0.49146263313487915 0 0 0 0
187200000 0.3975072682622752 -0.2161845392213883 -0.23079452895588592 0.4963833333723939 0 0 0 0
191100000 0.39642789622654195 -0.21906876597920028 -0.21959523028198144 0.5005632410374735 0 0 0 0
195000000 0.3947075332172965 -0.22190174610297622 -0.20747408272546572 0.5030671814455085 0 0 0 0
198900000 0.39389132935962984 -0.224517841161226 -0.19583605220723327 0.5068877945338118 0 0 0 0
202800000 0.39229308313371336 -0.22785697912182606 -0.18353549382685477 0.5099427401633818 0 0 0 0
206700000 0.39143969395461753 -0.23064120104536429 -0.171759845291923 0.5120729876639771 0 0 0 0
210600000 0.3897304407630333 -0.2340822393540917 -0.16055040327619005 0.5145921126208821 0 0 0 0
214500000 0.3878386074887788 -0.23723321792914417 -0.14805007837781786 0.5173706317497295 0 0 0 0
218400000 0.3862741526631477 -0.240199413301454 -0.13638760964453628 0.519446643650772 0 0 0 0
222300000 0.3847363969052541 -0.24334767630233667 -0.12402212285090783 0.5208830005345849 0 0 0 0
226200000 0.3819981943791858 -0.24628205640614056 -0.11188705543261356 0.5226653884867937 0 0 0 0
230100000 0.38056130852017545 -0.2492405291769627 -0.10009014774086433 0.5235631734527387 0 0 0 0
234000000 0.378120676390093 -0.25089973690438117 -0.0877318020026704 0.5254440271237532 0 0 0 0
237900000 0.37659054846628626 -0.25387138218415156 -0.07543591552342732 0.5272864652688504 0 0 0 0
241800000 0.37411334684254866 -0.25688625180749597 -0.06324874896451052 0.527820165168821 0 0 0 0
245700000 0.37334172797470266 -0.2599189904007263 -0.05084587390470183 0.5268365427967819 0 0 0 0
249600000 0.3714384781671384 -0.26473382148007596 -0.03865211957404874 0.5271265508091256 0 0 0 0
253500000 0.36923312920605195 -0.26840279776327686 -0.02617983072218272 0.5258949066611583 0 0 0 0
257400000 0.3659906935926797 -0.27088171409144374 -0.014813845761831028 0.525068108434705 0 0 0 0
261300000 0.36288984952875936 -0.2725344694370748 -0.002760337989068655 0.5238482380230262 0 0 0 0
265200000 0.36161445869993974 -0.2754027411846615 0.008924056247212342 0.5225099050901001 0 0 0 0
269100000 0.35969522435320544 -0.2773498101300822 0.02133153147731424 0.5199468377844348 0 0 0 0
273000000 0.35762962506266466 -0.28051329574354344 0.0328411178148918 0.5184845060317729 0 0 0 0
276900000 0.3572104438312114 -0.28226517740036516 0.044367306592655364 0.5154171166739077 0 0 0 0
280800000 0.35496670493359167 -0.2850702900408443 0.0553804230257655 0.5131341808014768 0 0 0 0
284700000 0.35262317027046297 -0.28778840955848534 0.0671527633736522 0.5096255019543711 0 0 0 0
288600000 0.35155604768002635 -0.291131940135869 0.0791715156399424 0.5075542906677688 0 0 0 0
292500000 0.3487658116672135 -0.29369875206439516 0.09030087064362331 0.5035280950052738 0 0 0 0
296400000 0.3471527561888827 -0.2960706563590698 0.1014028554899043 0.4993102694574829 0 0 0 0
300300000 0.34540649701308584 -0.2988228379054459 0.11281806361657877 0.49549629235433634 0 0 0 0
304200000 0.3425492916446665 -0.30131448713599807 0.12456210017142635 0.49157592300207403 0 0 0 0
308100000 0.3418077240456693 -0.3033847456531598 0.134811601592818 0.48695917506907443 0 0 0 0
312000000 0.3394347007545764 -0.30595817204041537 0.14580589977020153 0.4820608502267523 0 0 0 0
315900000 0.33748926155617365 -0.30776853555246425 0.15622126408509956 0.47732674447391116 0 0 0 0
319800000 0.3347124628998623 -0.310848874031226 0.16738930100964472 0.47152258777101685 0 0 0 0
323700000 0.33316017677423637 -0.3130028007815965 0.17726755969529676 0.4663508651030206 0 0 0 0
327600000 0.3315342665947862 -0.31489553227769457 0.18696741342054013 0.46078834681095526 0 0 0 0
331500000 0.3294986835809397 -0.31729289463768945 0.1975764878337671 0.45485377978339536 0 0 0 0
335400000 0.32758306389962133 -0.3188888600984538 0.2064788484742912 0.44887997272739716 0 0 0 0
339300000 0.3251700567572887 -0.3208707424196611 0.2164461498431071 0.4419649764066297 0 0 0 0
343200000 0.3229214689350594 -0.32409020468612204 0.225842243127754 0.43632680992278466 0 0 0 0
347100000 0.32146501217236895 -0.3258855253245919 0.235213963217693 0.42935181423707897 0 0 0 0
351000000 0.3197000747710546 -0.3276714892256351 0.24392653021797342 0.4228630571187497 0 0 0 0
354900000 0.3167511678490457 -0.32946666372215117 0.2534052616939456 0.41566331911186244 0 0 0 0
358800000 0.31544433815508854 -0.33155085573988297 0.2616748465307205 0.4078980602080261 0 0 0 0
362700000 0.31380325767724804 -0.3325792597708672 0.27087683155896336 0.4012105993002128 0 0 0 0
366600000 0.31119585693139723 -0.33441553307703653 0.2794842722148049 0.3936056651689011 0 0 0 0
370500000 0.3087480030169049 -0.33715524904607497 0.2879209937318084 0.3854431836161546 0 0 0 0
374400000 0.30631189997423014 -0.33840583983220435 0.2955067102695296 0.3775416143351919 0 0 0 0
378300000 0.30514848185360194 -0.3403995981284658 0.30311005379647854 0.36968256406321115 0 0 0 0
382200000 0.30284921028280953 -0.34160481153952293 0.3106665272719003 0.3615874205559378 0 0 0 0
386100000 0.3012517175286603 -0.3437870458108375 0.3178732784843804 0.3525183477646831 0 0 0 0
390000000 0.2986784030647866 -0.3459080170620848 0.3247148877097421 0.3446702377576625 0 0 0 0
393900000 0.2971650478262563 -0.34754949731201873 0.33117711260321386 0.3364226974172673 0 0 0 0
397800000 0.2958315940670692 -0.34917989293453916 0.3376424447131307 0.32728187323898855 0 0 0 0
401700000 0.2934763881960974 -0.35118549166955915 0.3440647138362638 0.31766282037831906 0 0 0 0
405600000 0.2912032422002239 -0.353207959150721 0.3496497169726985 0.30925914575764724 0 0 0 0
409500000 0.29032278212164875 -0.35547343947618726 0.3561748242407277 0.299997483763306 0 0 0 0
413400000 0.28779831325047384 -0.35700283753692025 0.36118330607845245 0.29060672371045254 0 0 0 0
417300000 0.2855184314731383 -0.3592690435245862 0.3667025000985105 0.2812942907100415 0 0 0 0
421200000 0.2846968803781447 -0.360252398163655 0.37143596506350496 0.2729374835165481 0 0 0 0
425100000 0.2822198532708271 -0.36233115823221146 0.3759284627620574 0.2636101388636028 0 0 0 0
429000000 0.27887128688511686 -0.3647173055774024 0.3813920683125632 0.2530753310547247 0 0 0 0
432900000 0.2778813181375923 -0.3656535987731049 0.38531879164403005 0.24414465821411732 0 0 0 0
436800000 0.27612337913952245 -0.36783784456683316 0.38937142396567487 0.23438081851846632 0 0 0 0
440700000 0.27441080165591686 -0.3700345936541595 0.3930509291786635 0.22513963566233125 0 0 0 0
444600000 0.27252164674950186 -0.3722925860087199 0.3969191867114119 0.2151901615343908 0 0 0 0
448500000 0.2710103013689888 -0.37266049711238286 0.400133452998812 0.20517253835427104 0 0 0 0
452400000 0.2688933760139882 -0.3751327601718206 0.40354589432904403 0.19491645745051633 0 0 0 0
456300000 0.26755064129097045 -0.37705457056788316 0.4053213707632349 0.18524289912355643 0 0 0 0
460200000 0.26637983905106216 -0.37904752546058496 0.408076967557301 0.17604771780243234 0 0 0 0
464100000 0.2631383818875326 -0.37976264141482946 0.4113918183559288 0.16408859829473316 0 0 0 0
468000000 0.26124822522239954 -0.3820304941940869 0.4133789959107187 0.15436094505067202 0 0 0 0
471900000 0.25959300420325865 -0.3832060416758706 0.4147416659340565 0.14427951605918918 0 0 0 0
475800000 0.25754480458057655 -0.38560120404392156 0.41636141013708294 0.13411750637822525 0 0 0 0
479700000 0.2578909679277086 -0.3884579277039246 0.41892368934935165 0.12400145627839912 0 0 0 0
483600000 0.25450015934533854 -0.38810719117549625 0.41752496628001784 0.11408264783201427 0 0 0 0
487500000 0.2531608657461549 -0.3903306601775901 0.41814645683248675 0.10372725306692512 0 0 0 0
491400000 0.2513312569035761 -0.39246136419160577 0.41813674723510397 0.09279278751601576 0 0 0 0
495300000 0.24932697544523247 -0.3942787166668354 0.41804118551333347 0.08308346199096024 0 0 0 0
499200000 0.2481289828157326 -0.39584084364097516 0.4177204972840433 0.07399817100204738 0 0 0 0
503100000 0.24695136152703373 -0.3980938942414285 0.4175147179013952 0.06382017906100672 0 0 0 0
507000000 0.2446879552819904 -0.39973943360484304 0.41602811307541965 0.053521927030026145 0 0 0 0
510900000 0.24298043712093284 -0.40228542727008904 0.4152266429955552 0.043637865690249036 0 0 0 0
514800000 0.2422822145076657 -0.40409348692653346 0.4135173943574226 0.034307861098112166 0 0 0 0
518700000 0.24077816861148396 -0.4060063837606937 0.4114798014232784 0.02502706694694004 0 0 0 0
522600000 0.23817345125857692 -0.4085827931042709 0.409821637253747 0.01578829123176807 0 0 0 0
526500000 0.237214225621998 -0.40975746475508684 0.4078645037716539 0.0068643851731505934 0 0 0 0
530400000 0.23546381932953048 -0.41221212924090433 0.4053090083266917 -0.002308485520505869 0 0 0 0
534300000 0.23396762155052098 -0.41487490669627053 0.4023331761513162 -0.011481258519388745 0 0 0 0
538200000 0.23269859706519208 -0.41656130200316477 0.39962245233720073 -0.020188051803590103 0 0 0 0
542100000 0.23075203118076223 -0.4187600881160785 0.39677557256595536 -0.02949485763116548 0 0 0 0
546000000 0.22936701366245593 -0.4202182080201555 0.3936807518227961 -0.03765388286509377 0 0 0 0
549900000 0.22692677786480553 -0.42281648075768147 0.3908910494600114 -0.04749034894867481 0 0 0 0
553800000 0.2253042331936206 -0.42508059656186975 0.3859435003239509 -0.053779928304419695 0 0 0 0
557700000 0.22459022287365696 -0.42597014340875783 0.3826687616210607 -0.061885678243542054 0 0 0 0
561600000 0.22392824793873775 -0.4290784288855216 0.3792328088438002 -0.06978858197363726 0 0 0 0
565500000 0.2218508818970307 -0.43235855900457787 0.3746077093228173 -0.07802304822900209 0 0 0 0
569400000 0.21739106269592734 -0.4362195782042306 0.3718537997580211 -0.08539325829678232 0 0 0 0
573300000 0.21647352401943518 -0.4373091173753163 0.3660457493987767 -0.09287597828263232 0 0 0 0
577200000 0.2155011358761721 -0.4386192667499039 0.36051385617019477 -0.09986188935140616 0 0 0 0
581100000 0.21297915474097948 -0.4414006281496591 0.35652061137721236 -0.10659289493455545 0 0 0 0
585000000 0.21242949056785732 -0.444479015580527 0.35172583186490886 -0.11344557394413722 0 0 0 0
588900000 0.21027522212043628 -0.4470994130408005 0.34641668536655745 -0.12062905692603798 0 0 0 0
592800000 0.20777915838196812 -0.4490653756277641 0.34170796603061515 -0.12691969871409453 0 0 0 0
596700000 0.2052105722810409 -0.45124862889898953 0.3353066647621181 -0.13321853413901902 0 0 0 0
600600000 0.20228619748108648 -0.4543436000318811 0.3303437849102167 -0.13950533636627077 0 0 0 0
604500000 0.20091803572528663 -0.45605677236855013 0.3249000686371643 -0.14541206040529936 0 0 0 0
608400000 0.1986948386680446 -0.4590573716777314 0.31909569263638243 -0.15105856488190839 0 0 0 0
612300000 0.19587371044279198 -0.46227705265713653 0.31370235836559823 -0.15621873594509425 0 0 0 0
616200000 0.19403915493923507 -0.4650893519207393 0.3079196462634941 -0.16136411677359636 0 0 0 0
620100000 0.19043246729718397 -0.46736981549462575 0.3023609272095849 -0.1672541009068873 0 0 0 0
624000000 0.18868652878028785 -0.4703585083824754 0.29601562867734627 -0.17175179918060862 0 0 0 0
627900000 0.18575399541860416 -0.471173786961897 0.2898436346574717 -0.17581585646861822 0 0 0 0
631800000 0.1838412749495903 -0.47545606332970836 0.28368573769423505 -0.18113881011297853 0 0 0 0
635700000 0.18121270061992986 -0.47718640809335944 0.27764769258460753 -0.18494139494550682 0 0 0 0
639600000 0.1774326214970198 -0.4795374530835275 0.2721220378779267 -0.18893967220793903 0 0 0 0
643500000 0.17489767004627027 -0.48160245592508816 0.2658293650630071 -0.19245756722293988 0 0 0 0
647400000 0.1703936489102315 -0.4840336329115449 0.2594101422722319 -0.19575148680365068 0 0 0 0
651300000 0.16867425284805634 -0.487552595611208 0.25275879667978357 -0.1994186176792394 0 0 0 0
655200000 0.1645330942189283 -0.49051441725793915 0.246349681828271 -0.2031513150300283 0 0 0 0
659100000 0.161760881421129 -0.493162914481502 0.24022655730255632 -0.2056534901923312 0 0 0 0
663000000 0.15782685992467063 -0.49543063528058223 0.23343480269667644 -0.20828267709644901 0 0 0 0
666900000 0.15458494148707003 -0.49776854410039234 0.22777777310792155 -0.21000499354953833 0 0 0 0
670800000 0.14980274494039617 -0.5005933287903664 0.22018386127343603 -0.2123299664545118 0 0 0 0
674700000 0.14643600344756685 -0.5042409153354211 0.21379246453986894 -0.21457460263189088 0 0 0 0
678600000 0.14202805886242004 -0.5060838715886138 0.20794896709458763 -0.21552836889915813 0 0 0 0
682500000 0.13718693926591385 -0.509447664810414 0.20208790903457718 -0.21660598765716058 0 0 0 0
686400000 0.13119411399252692 -0.5108557704844043 0.1951616925726742 -0.21821914768115988 0 0 0 0
690300000 0.12591019429571793 -0.5128811062453793 0.18956995493022852 -0.2174630715655435 0 0 0 0
694200000 0.1216583286514658 -0.5167470145995361 0.18467162049486827 -0.2174675759043106 0 0 0 0
698100000 0.11636605238555199 -0.5176346759598477 0.17923346571888593 -0.21810892517797317 0 0 0 0
702000000 0.11032149633424797 -0.52047558209077 0.17455574109854433 -0.2186537411021359 0 0 0 0
705900000 0.10465967773746503 -0.5228034198928969 0.16974562350701125 -0.21857723774394097 0 0 0 0
709800000 0.09772577028112535 -0.522689974103292 0.1645461972087673 -0.21804828516586552 0 0 0 0
713700000 0.09276397205324231 -0.5272105215467189 0.15979343254342168 -0.21704294773193225 0 0 0 0
717600000 0.08357971742877487 -0.5271362334589342 0.1557202295105264 -0.2169814467500439 0 0 0 0
721500000 0.08043704716903739 -0.5269392552486192 0.15331120759658512 -0.2145899116928583 0 0 0 0
725400000 0.0722224372821845 -0.5301507577094374 0.1495919831116413 -0.21626919496700633 0 0 0 0
729300000 0.06449945255071085 -0.5292044963858883 0.1461323720948079 -0.21461844133750535 0 0 0 0
733200000 0.057696691289658736 -0.5293624744200298 0.14361310330846055 -0.21430041731548918 0 0 0 0
737100000 0.052415011575554234 -0.5282649253914944 0.14103209488918061 -0.21295256112797487 0 0 0 0
741000000 0.04197859621946579 -0.5289316026437995 0.1386327293844299 -0.21382475792198857 0 0 0 0
744900000 0.035104749037671704 -0.5275236841002274 0.1366420108183655 -0.21296663192885937 0 0 0 0
748800000 0.027737386648541768 -0.5253305987344928 0.1346160994400056 -0.2134575056542928 0 0 0 0
752700000 0.020074817125590425 -0.5254533626356978 0.13346332034882671 -0.213615780574845 0 0 0 0
756600000 0.012134832304008124 -0.5224632201059951 0.13195705678698064 -0.21396351319232862 0 0 0 0
760500000 0.004862172523265927 -0.5200627134505309 0.13093110075276082 -0.2147366405247231 0 0 0 0
764400000 -0.0011636701130536792 -0.5193999756338731 0.13005098351196767 -0.21668019723258833 0 0 0 0
768300000 -0.006684442438272657 -0.5162246238510436 0.12896133035166005 -0.21739247026064581 0 0 0 0
772200000 -0.014901396042979916 -0.5108796000498432 0.1274391197622032 -0.21918814462411138 0 0 0 0
776100000 -0.020835858812117632 -0.50818268057198 0.125437676915827 -0.22183486954503515 0 0 0 0
780000000 -0.026999327032218797 -0.5016874347478 0.1243794212207968 -0.22312836038140507 0 0 0 0
783900000 -0.03384549577231207 -0.5007253504000875 0.12289140609140016 -0.22608279876040394 0 0 0 0
787800000 -0.03957891172331615 -0.49463514349127197 0.12164491654119161 -0.2297559649759498 0 0 0 0
