# HZ S RI R 50
3900000 0.49006556125515033 -0.36198444734900354 0.06991376584838711 -1.216352861088914 0 0 0 0
7800000 0.25781305137101357 -0.33865316068119095 -1.1346876673375672 -1.5328171927314354 0 0 0 0
11700000 0.1578562835551116 -0.2721176034772046 -1.6439437059177002 -1.2063912698881574 0 0 0 0
15600000 0.11170152919852365 -0.22114485315602922 -1.8840700301409332 -0.9428956182633688 0 0 0 0
19500000 0.08618185565084421 -0.18378982240702518 -1.9667264426854465 -0.6757623055725668 0 0 0 0
23400000 0.07255272378875069 -0.15611290236008932 -1.9985603463447068 -0.4868222393267178 0 0 0 0
27300000 0.06340265046562112 -0.13544905719072117 -2.0293682218119993 -0.3455401162936104 0 0 0 0
31200000 0.05605028593825491 -0.1184708877661152 -2.051982257314065 -0.2685817885551768 0 0 0 0
35100000 0.052036485234820615 -0.10478321093478686 -2.096602196977368 -0.12649038243431937 0 0 0 0
39000000 0.049493852902853595 -0.0940691447250628 -2.126986378787256 -0.06868165461628688 0 0 0 0
42900000 0.04754016822382975 -0.08495506811974736 -2.181956840945261 0.04994591634480723 0 0 0 0
46800000 0.045672219107129194 -0.07745938543109232 -2.199467824992271 0.07785945017209131 0 0 0 0
50700000 0.04481040407298673 -0.07024789061071142 -2.1842724042044432 0.1824500577295002 0 0 0 0
54600000 0.04414393620185871 -0.06443550794405771 -2.201623211576067 0.21589439016358047 0 0 0 0
58500000 0.0435707205475019 -0.05880512927419134 -2.188443257838785 0.3417390550059315 0 0 0 0
62400000 0.043448506172598475 -0.054483930905720845 -2.203355901908077 0.34453912614476306 0 0 0 0
66300000 0.04286483067735089 -0.05046500012172046 -2.188905506503715 0.4137233843841849 0 0 0 0
70200000 0.04283667779907057 -0.04706753445803411 -2.166519411081342 0.4867142156417701 0 0 0 0
74100000 0.04278060570070426 -0.044140312392931993 -2.180033120626146 0.5311115011585016 0 0 0 0
78000000 0.04264779505685458 -0.04100164138763761 -2.139268910749636 0.6361511783417606 0 0 0 0
81900000 0.04311690031895837 -0.037998130084153856 -2.128374827514092 0.6931111623874878 0 0 0 0
85800000 0.04364500707135511 -0.034741970781572075 -2.1162357604622497 0.7635927695738963 0 0 0 0
89700000 0.044319276836676164 -0.0317798789155953 -2.098262184126542 0.8067437752051395 0 0 0 0
93600000 0.045023337020769036 -0.030210308695755663 -2.129519049582044 0.8211696976629967 0 0 0 0
97500000 0.04556136688309581 -0.027637454216168148 -2.0964745091121073 0.855935954664604 0 0 0 0
101400000 0.04614730945865095 -0.026087105328772987 -2.02976510232426 0.8708489986957341 0 0 0 0
105300000 0.0468817181131879 -0.024252007816985662 -1.9536321020134606 0.9032403767751664 0 0 0 0
109200000 0.047697304343707336 -0.022613803176673747 -1.877783707291324 0.9417406978537297 0 0 0 0
113100000 0.04876870833196852 -0.021608702240054452 -1.8402807473370895 0.9472360000545016 0 0 0 0
117000000 0.049651965667137685 -0.019900670886942872 -1.7767958563754909 0.9900262060198778 0 0 0 0
120900000 0.05025796375300605 -0.018716574428689254 -1.7047167147163074 1.0492466875375859 0 0 0 0
124800000 0.05139097590509273 -0.017469532615864904 -1.666230336963636 1.0789073938999592 0 0 0 0
128700000 0.052146796523513755 -0.016337187539661003 -1.6518980678641646 1.0803361928993653 0 0 0 0
132600000 0.053601574364896654 -0.014813301055427795 -1.6088400270437098 1.1282091757269894 0 0 0 0
136500000 0.054003551555460785 -0.014016015359316892 -1.5425136376856503 1.2259222132101724 0 0 0 0
140400000 0.05834658748142879 -0.012981239170064227 -1.4596297803522242 1.092055121236905 0 0 0 0
144300000 0.059060791884197904 -0.012124131893464863 -1.4167949460473106 1.0590559544761406 0 0 0 0
148200000 0.059836761538626215 -0.01129202978525453 -1.2568414889615962 1.2642926800895233 0 0 0 0
152100000 0.06099150791342574 -0.010444742279819154 -1.239629430081897 1.2656701618675588 0 0 0 0
156000000 0.0620994582021672 -0.009994784286125496 -1.2969449661433428 1.226162389330076 0 0 0 0
159900000 0.06323400232540728 -0.00941014299204785 -1.283487091699177 1.2892967625274856 0 0 0 0
163800000 0.06484311681962296 -0.008884578962072258 -1.3032331113021218 1.264305399658487 0 0 0 0
167700000 0.0657474381435159 -0.008228095047518065 -1.324988668959638 1.2548999424061358 0 0 0 0
171600000 0.06721156154190709 -0.007763084066936915 -1.0647535397223338 1.4357971713643096 0 0 0 0
175500000 0.0680921814858485 -0.0071312532986413935 -1.0173578904139755 1.442602242117189 0 0 0 0
179400000 0.06922518754250807 -0.0069935545800467415 -1.0240203933303087 1.4445507493231209 0 0 0 0
183300000 0.07011884466128332 -0.007315077541562833 -1.1041345531350295 1.4057315388388312 0 0 0 0
187200000 0.07167472624361565 -0.006762112779020137 -1.0270424145565265 1.4822650638474393 0 0 0 0
191100000 0.0725999118019305 -0.006506710058839393 -1.030957454888571 1.4535145063163881 0 0 0 0
195000000 0.07389618779591062 -0.006076408336372369 -1.0771567547085996 1.4275298953530948 0 0 0 0
198900000 0.07558627541825677 -0.006553970407529701 -1.0904504990211759 1.4721418667924655 0 0 0 0
202800000 0.07651971215725659 -0.006366255330223072 -0.8486773149361788 1.6265090307293422 0 0 0 0
206700000 0.07793425535960732 -0.006372620596679545 -0.7785610373137339 1.6652300952149355 0 0 0 0
210600000 0.07899323465757288 -0.006536012367462068 -0.6979456264145294 1.6414318461140902 0 0 0 0
214500000 0.08055776969415192 -0.006274711440350805 -0.7087862666742071 1.6779583646787612 0 0 0 0
218400000 0.08168787483354044 -0.006640193115024124 -0.6779709291391187 1.6486421104319966 0 0 0 0
222300000 0.08321723031642715 -0.007216700825370294 -0.6988294774726012 1.6846621658158973 0 0 0 0
226200000 0.08408474653946352 -0.007546305566620456 -0.695407912398066 1.6420855221073163 0 0 0 0
230100000 0.08525235144699006 -0.007489420094216655 -0.674622126275807 1.7090274481166834 0 0 0 0
234000000 0.08658981412940953 -0.00795213777260496 -0.6453773680189288 1.6794475332904244 0 0 0 0
237900000 0.08774788687348752 -0.00845318494022869 -0.6275792183195075 1.700780902851701 0 0 0 0
241800000 0.08879334968666765 -0.009341031739902887 -0.6997670734690394 1.6924155067273687 0 0 0 0
245700000 0.0900641741423774 -0.009267788655891058 -0.6927411196928064 1.6647706726354015 0 0 0 0
249600000 0.09138697010844121 -0.010428554073085083 -0.7042246861295549 1.6773919322911328 0 0 0 0
253500000 0.09277680676031953 -0.01028548683919815 -0.3159734464717093 1.7823396526262478 0 0 0 0
257400000 0.09436816336083613 -0.01094826939029516 -0.16978206988312453 1.8194309568868952 0 0 0 0
261300000 0.09571388371629742 -0.011683446593593948 -0.13795064118608572 1.8436350302801767 0 0 0 0
265200000 0.09672558673376648 -0.012151419494960502 -0.10680061029200624 1.80219324365914 0 0 0 0
269100000 0.09809743250618673 -0.012827959535472765 -0.07532986034938564 1.8287091180806483 0 0 0 0
273000000 0.09962699605460619 -0.013569608485101338 -0.05422455470837373 1.8218346631201685 0 0 0 0
276900000 0.1010191235333416 -0.014305176549794818 -0.06691757101554874 1.8051760481775765 0 0 0 0
280800000 0.10214366395754007 -0.015035271729110358 -0.13993522080602908 1.8435831855730032 0 0 0 0
284700000 0.10311957755959045 -0.016118536430023384 -0.06406515756271251 1.8032889165357788 0 0 0 0
288600000 0.10448851122796704 -0.01725659430257409 -0.08997169107201529 1.8326648191618438 0 0 0 0
292500000 0.10565941716677008 -0.01856412961080488 -0.03734261275727884 1.8211596291045815 0 0 0 0
296400000 0.10671268727022502 -0.019278179700588267 0.01767965403537343 1.8046597432616405 0 0 0 0
300300000 0.10772141660616263 -0.02029503947883899 -0.029878203747484195 1.799580062603065 0 0 0 0
304200000 0.10878121632161306 -0.021809807201846346 0.007996392213270056 1.8482004449859817 0 0 0 0
308100000 0.11023694824941646 -0.022485450456477575 0.03253907102989191 1.814682497203672 0 0 0 0
312000000 0.11122880964734261 -0.023573654585944386 0.03265724187296273 1.799418215573565 0 0 0 0
315900000 0.11245690392879869 -0.024722745899487916 -0.045319962155299084 1.8038492656640326 0 0 0 0
319800000 0.11312951755756168 -0.026139077765332055 -0.028356474809502145 1.8213694888670178 0 0 0 0
323700000 0.11437649657096448 -0.027180533442148998 -0.0448578589273972 1.8100215760760632 0 0 0 0
327600000 0.1155839640728474 -0.02884963580013738 0.04633212389858137 1.8040853593230337 0 0 0 0
331500000 0.11682476712491417 -0.030152720331708845 0.5751090847462216 1.7337237651395643 0 0 0 0
335400000 0.11808949023548133 -0.03075118501872551 0.658606925967451 1.7061469217291076 0 0 0 0
339300000 0.11950136651867958 -0.03284989862406279 0.6949514273722094 1.7011934749333895 0 0 0 0
343200000 0.12029013458503526 -0.034176286394492085 0.7403791805380945 1.6633678241043464 0 0 0 0
347100000 0.1214312267094314 -0.036224296800433445 0.7574118246358921 1.6461874716752 0 0 0 0
351000000 0.12217872958183969 -0.037235488463580164 0.8104112009446645 1.6157484888096627 0 0 0 0
354900000 0.1230999039240838 -0.03882847453946621 0.8450849538064836 1.5994977655188154 0 0 0 0
358800000 0.12423452607544719 -0.04032834559122503 0.8704249157305354 1.581030999215528 0 0 0 0
362700000 0.12511172542729584 -0.04205861319198176 0.9202901793055341 1.5789737562808726 0 0 0 0
366600000 0.12583212321721124 -0.04348038198663109 0.9503844720529476 1.5742992056213643 0 0 0 0
370500000 0.1261905233491677 -0.04503616993017142 0.9682746616036153 1.5464232762389385 0 0 0 0
374400000 0.12692766052772658 -0.04668750649787921 0.9985525438298156 1.5774115416401542 0 0 0 0
378300000 0.1276258375363955 -0.04837204094609982 0.9956494595562769 1.5501220103577957 0 0 0 0
382200000 0.1281951384237085 -0.05019568813237925 0.9638452631686515 1.5963108876177752 0 0 0 0
386100000 0.12916333595655752 -0.05235572468775518 1.057054915390953 1.543187167956586 0 0 0 0
390000000 0.12982477479397328 -0.05421179176360651 1.051512031582672 1.4898433808178815 0 0 0 0
393900000 0.13036324766106747 -0.05644097969849479 1.0572427369358277 1.5224240662945268 0 0 0 0
397800000 0.13076216952983685 -0.05820844494806695 1.0569439690145008 1.5003077427952587 0 0 0 0
401700000 0.13139384551136088 -0.06020988394015649 1.1068887236604121 1.4891908109617957 0 0 0 0
405600000 0.13176149490856742 -0.06235607152241797 1.169011209807048 1.4579004343730975 0 0 0 0
409500000 0.1328747914663338 -0.06422751541244112 1.1919074405405186 1.3968632954634743 0 0 0 0
413400000 0.13287099186698983 -0.06617247548750071 1.244559864859025 1.3880954100911822 0 0 0 0
417300000 0.13331677575563974 -0.0678796134758587 1.212474946549279 1.3836067645395091 0 0 0 0
421200000 0.13397573509834054 -0.06943010699940531 1.2148066853507622 1.4325581885213892 0 0 0 0
425100000 0.1343486144446563 -0.07181041518114158 1.2181185188026464 1.4476973227983498 0 0 0 0
429000000 0.13462473881903841 -0.07374556582425622 1.2271807250947977 1.3916553904340603 0 0 0 0
432900000 0.1344843967366071 -0.07587865245445048 1.264537373453679 1.3635158005396721 0 0 0 0
436800000 0.13473271319579153 -0.07801085151320472 1.3072423894080407 1.3082652075584251 0 0 0 0
440700000 0.13443970986621376 -0.08038693252996063 1.3480201517426749 1.3266859200361458 0 0 0 0
444600000 0.13479904288350197 -0.08249652514527198 1.334180686563122 1.3374671156439073 0 0 0 0
448500000 0.1346459958302608 -0.08402502515183155 1.2640349817007515 1.4199470376665346 0 0 0 0
452400000 0.13477753632170683 -0.08625142986396821 1.2000956134980723 1.4710621405603015 0 0 0 0
456300000 0.1350781956543167 -0.08856139782190202 1.2014806213004359 1.4502850380650756 0 0 0 0
460200000 0.1350917219098464 -0.09041414855571175 1.2256671336635419 1.4657790129928603 0 0 0 0
464100000 0.13466512144215276 -0.09238808486005314 1.2423145246774352 1.4101439751423945 0 0 0 0
468000000 0.1345371435562697 -0.09438909078811189 1.2437539599112901 1.368712277962356 0 0 0 0
471900000 0.13535855808908015 -0.09628339412881974 1.2695382668067232 1.2946589464935596 0 0 0 0
475800000 0.13515908965959386 -0.09879601391644668 1.395217690229648 1.0884081137887756 0 0 0 0
479700000 0.1357497150455002 -0.10182271254617871 1.6935417924395064 0.6811384545558813 0 0 0 0
483600000 0.13577526895799136 -0.10333607461672162 1.7770294483130609 0.5926306916679521 0 0 0 0
487500000 0.13573693268765064 -0.10617803363916893 1.8284543342316026 0.530125230228617 0 0 0 0
491400000 0.13565145098957918 -0.10815018258366822 1.8988389514737252 0.49451028016584403 0 0 0 0
495300000 0.1352195409207745 -0.11056824664378437 1.8694665394977248 0.36021998650484566 0 0 0 0
499200000 0.13508805503330468 -0.11242555468574714 1.9071584647317574 0.28837880844451863 0 0 0 0
503100000 0.1346742802882344 -0.11466138823926757 1.9137265818059166 0.25215948737388055 0 0 0 0
507000000 0.1341575930745808 -0.1167053676494374 1.8967679571838354 0.18596982081316246 0 0 0 0
510900000 0.13367172305335145 -0.11940669766071496 1.9525239289209206 0.1840030032208078 0 0 0 0
514800000 0.13365934974051408 -0.12096561493417496 1.9572649803339464 0.1432244352294699 0 0 0 0
518700000 0.13278069548782057 -0.12368085562015858 1.9272457715586826 0.09055341812522393 0 0 0 0
522600000 0.13204634863206566 -0.12544095364691937 1.9310927075580404 0.009805159871543557 0 0 0 0
526500000 0.13121753617216586 -0.12724407795360582 1.9100575277893423 -0.06495581887729823 0 0 0 0
530400000 0.13062775378419325 -0.1299862268497357 1.9543147228990974 -0.10828742718597797 0 0 0 0
534300000 0.1302087369767568 -0.1323604356389117 1.8744929613521817 -0.20518465835252353 0 0 0 0
538200000 0.1293849473914294 -0.1343732771924821 1.8316466862314713 -0.23681751274322746 0 0 0 0
542100000 0.12870854733525913 -0.13612531532881003 1.7969919326481303 -0.26957187877704303 0 0 0 0
546000000 0.1278256921618849 -0.13807862041314117 1.7706815749456157 -0.2896257641150116 0 0 0 0
549900000 0.12681781822012456 -0.1399412762409909 1.736959515729605 -0.34818555465626916 0 0 0 0
553800000 0.12575044780544908 -0.1423542243824202 1.7154784366851095 -0.37290512241554863 0 0 0 0
557700000 0.1251459395670851 -0.14420729319691897 1.700262713910988 -0.4007122109790134 0 0 0 0
561600000 0.1242760673667785 -0.14595372374585328 1.6943827624444345 -0.40903844585961024 0 0 0 0
565500000 0.12347530749762403 -0.14793606885985336 1.6679579557223718 -0.499197867699852 0 0 0 0
569400000 0.12136643656750508 -0.14971447719814537 1.6686457620715556 -0.5473471702856824 0 0 0 0
573300000 0.12071809766621763 -0.15142918295416685 1.6651934560023154 -0.5873483036126965 0 0 0 0
577200000 0.12037347357232818 -0.15331196553027915 1.6714767174410095 -0.6082584279153 0 0 0 0
581100000 0.11907776860436717 -0.15486035805735826 1.6852591191131976 -0.6382163994411209 0 0 0 0
585000000 0.11777430960037397 -0.1567176025940221 1.6999089532055747 -0.6165203963093523 0 0 0 0
588900000 0.11729576527936014 -0.15834906023115136 1.7211065529655396 -0.6089779671739757 0 0 0 0
592800000 0.1154678253227028 -0.15978649121809843 1.7407142434534477 -0.6517723672251906 0 0 0 0
596700000 0.11357810896739196 -0.16137820422466215 1.756543695232643 -0.6043476044992999 0 0 0 0
600600000 0.11258867985753951 -0.1630348427349774 1.7808749675586109 -0.5587534407466759 0 0 0 0
604500000 0.11148283552418607 -0.163959428267258 1.8033136037595152 -0.5352733119542051 0 0 0 0
608400000 0.1107006368002007 -0.16569042915758042 1.8281760580359954 -0.5406974376259754 0 0 0 0
612300000 0.10919200385929621 -0.1672970016012737 1.8346986382028665 -0.49374364590468184 0 0 0 0
616200000 0.10785257372301037 -0.16860957730886167 1.8423350552994697 -0.5103132508117373 0 0 0 0
620100000 0.10629845178912291 -0.17009633161473556 1.8491152058682239 -0.48536594287465396 0 0 0 0
624000000 0.10519931006732916 -0.17114693870153244 1.8347182057626648 -0.5033233439478177 0 0 0 0
627900000 0.10384125767477805 -0.17158289648331043 1.8292179757701033 -0.5089629623607209 0 0 0 0
631800000 0.10267330482990894 -0.17359271080796623 1.82433997248098 -0.5414134255183635 0 0 0 0
635700000 0.1012599575059362 -0.173877432365952 1.824856962539943 -0.5601506738733338 0 0 0 0
639600000 0.09881901107204384 -0.17515391855992885 1.7889240233650667 -0.6192678078069456 0 0 0 0
643500000 0.09753037286516338 -0.1758388402521691 1.7761087297383384 -0.6607008990279559 0 0 0 0
647400000 0.09573057509800117 -0.17715490834387818 1.780908717165127 -0.6910300744485439 0 0 0 0
651300000 0.09480795544292381 -0.1782003000216289 1.7459027078732423 -0.7409388046085877 0 0 0 0
655200000 0.09311627220649762 -0.1793064453812452 1.7382545347598166 -0.7730920226471508 0 0 0 0
659100000 0.0918377953346445 -0.18037466623121406 1.7420713934449394 -0.824217232049157 0 0 0 0
663000000 0.08945197821081645 -0.18096012644713097 1.7263607364529743 -0.8728374923552917 0 0 0 0
666900000 0.08870222680988643 -0.18117346363649572 1.7094536522614827 -0.9119648658234276 0 0 0 0
670800000 0.08623264495949334 -0.18255168411030007 1.6777204951704663 -0.9354034030895442 0 0 0 0
674700000 0.0857840381575532 -0.18301185285380392 1.6509409609331125 -0.9322647301541659 0 0 0 0
678600000 0.08433145371647034 -0.18380670436408839 1.6564744170413424 -0.9040596702944572 0 0 0 0
682500000 0.083068680313826 -0.1830249737061003 1.4794360896706489 -1.045759206623653 0 0 0 0
686400000 0.08138636105338733 -0.1836424038080907 1.489908175744143 -1.0257817432482406 0 0 0 0
690300000 0.08015749959297198 -0.1836850767778073 1.4335151451464445 -1.0727848155513282 0 0 0 0
694200000 0.07947352062648327 -0.18452987354028233 1.4328222140229612 -1.0694290133731472 0 0 0 0
698100000 0.07701687630459282 -0.1844626090885713 1.4216497940515729 -1.0860743925426115 0 0 0 0
702000000 0.07499335592581505 -0.1851568096929137 1.402304959603897 -1.121243221972271 0 0 0 0
705900000 0.07476960666889912 -0.18599107946949503 1.4163291056249223 -1.1101961717367512 0 0 0 0
709800000 0.07343640589303768 -0.18573361671702573 1.386399685370813 -1.1635671448060445 0 0 0 0
713700000 0.0721612857578351 -0.18612659674075505 1.3864885250374417 -1.1683008972613054 0 0 0 0
717600000 0.06939980981145868 -0.1855848137053181 1.3806814047948175 -1.212355756989971 0 0 0 0
721500000 0.06922914506574752 -0.1867729516684674 1.3974362376505272 -1.208781450066957 0 0 0 0
725400000 0.0675746378927741 -0.1863519310048535 1.3900500670960636 -1.2700980371042097 0 0 0 0
729300000 0.06611932292390006 -0.1861653922922883 1.4098736120375737 -1.264110626689123 0 0 0 0
733200000 0.0656423011352099 -0.18665715639039515 1.4031090384531157 -1.286713183188526 0 0 0 0
737100000 0.0635540780961641 -0.1855252156188167 1.4176940503627578 -1.330551290934188 0 0 0 0
741000000 0.06210596268336893 -0.18643142059801135 1.3778256769657347 -1.3321474865082432 0 0 0 0
744900000 0.060917612052085755 -0.18676115542564808 1.3886246386918817 -1.3900215037932009 0 0 0 0
748800000 0.05994528377713599 -0.18634851830083782 1.3720635704923125 -1.407338168659274 0 0 0 0
752700000 0.058524395741399796 -0.18744152234246284 1.38333512999066 -1.4125642101783675 0 0 0 0
756600000 0.05716303889208236 -0.18754321162467277 1.3749234964547692 -1.4100927291333223 0 0 0 0
760500000 0.055925457966403046 -0.18733487356009593 1.394515368259136 -1.3707961691897954 0 0 0 0
764400000 0.05482300030645147 -0.18712380036642967 1.4069600160707778 -1.3423729562754347 0 0 0 0
768300000 0.05398568281769498 -0.18739475993149415 1.4250427559706853 -1.3403179797759046 0 0 0 0
772200000 0.05188023348784908 -0.1871408922023723 1.4707914090791574 -1.3737757276571665 0 0 0 0
776100000 0.05087923328281233 -0.18712817154725986 1.4476234258546459 -1.3655205523214333 0 0 0 0
780000000 0.048703814118204646 -0.18729834753394548 1.507718961237458 -1.3703868376247976 0 0 0 0
783900000 0.04757728523137442 -0.18730238131930546 1.451841526336654 -1.3897811466719494 0 0 0 0
787800000 0.04543283880694996 -0.18624969012746923 1.4288327242197292 -1.453091710892168 0 0 0 0
