# HZ S RI R 50
3900000 0.5554433624972761 -0.3749538843924587 -0.24732105813925365 -0.7358954609721915 0 0 0 0
7800000 0.3303403702697357 -0.5148433646754311 -0.7844632825871922 -1.0971470504269338 0 0 0 0
11700000 0.12287024668478329 -0.5494808203676862 -1.2948240198242733 -1.1690426321007403 0 0 0 0
15600000 -0.03673486685719931 -0.5250287822608481 -1.6551480641506984 -1.0701753361764674 0 0 0 0
19500000 -0.15056347065074102 -0.47550218291061286 -1.9090523403944502 -0.9229194177753415 0 0 0 0
23400000 -0.2295166580399091 -0.4216872931282224 -2.0629689032831737 -0.7505586223750068 0 0 0 0
27300000 -0.28632065114982325 -0.3682494443195709 -2.1079665818005155 -0.5821460466089555 0 0 0 0
31200000 -0.3272900001237758 -0.3181785869469663 -2.144622945960936 -0.43787242805981674 0 0 0 0
35100000 -0.35555030112074176 -0.2729763867817561 -2.1895467150359935 -0.2650344586773814 0 0 0 0
39000000 -0.37657148098789134 -0.2319743831161564 -2.242300075265023 -0.08441725079807622 0 0 0 0
42900000 -0.39306017375381513 -0.19357305664749927 -2.264359281253841 -0.02123031763992178 0 0 0 0
46800000 -0.40482185554525574 -0.15983034177865862 -2.2924289500275217 0.1301878793828531 0 0 0 0
50700000 -0.412715258128214 -0.12765067112971132 -2.2916096489587976 0.22305176887942507 0 0 0 0
54600000 -0.41786721018453726 -0.0995538362862904 -2.252064209611582 0.3377160964561067 0 0 0 0
58500000 -0.42256767274530027 -0.07213995998945552 -2.23361998995314 0.42291218617315296 0 0 0 0
62400000 -0.4245923561973388 -0.04692887240834397 -2.212611024713216 0.5709199561316967 0 0 0 0
66300000 -0.4257336073935562 -0.023597846423247453 -2.1968509844920248 0.5879029298904151 0 0 0 0
70200000 -0.4246023387640889 -0.001985398180935669 -2.1582102490916735 0.6831464655711111 0 0 0 0
74100000 -0.42326982014055037 0.020020814511675335 -2.120791693085859 0.7669516922151132 0 0 0 0
78000000 -0.42219105043089056 0.039467430804642864 -2.084460300570233 0.856637219399816 0 0 0 0
81900000 -0.41968755245040484 0.05879958284078574 -2.0455387266183527 0.9276255514124518 0 0 0 0
85800000 -0.41624937074259716 0.07645783571771124 -2.0570446667889635 0.9560280267866229 0 0 0 0
89700000 -0.4124371631242172 0.09452579500768896 -1.9814173607183645 1.037485760342871 0 0 0 0
93600000 -0.40735369785494113 0.11017508413799441 -1.8969045344332518 1.0906747389680074 0 0 0 0
97500000 -0.40175637411111 0.12690986929891993 -1.8122099550588324 1.0986073610920584 0 0 0 0
101400000 -0.39740058657234933 0.1415725097159928 -1.7565290282260828 1.0937893358527324 0 0 0 0
105300000 -0.39086493477842343 0.15609586965659594 -1.6374662492126901 1.1497375638239613 0 0 0 0
109200000 -0.38511504868702234 0.17012866395540466 -1.5606084652364154 1.1800704059045108 0 0 0 0
113100000 -0.3790022172665124 0.18310548905389248 -1.5222955944728558 1.1827162293221813 0 0 0 0
117000000 -0.37131446157226133 0.1968185951516979 -1.4296183317836844 1.2519927942179083 0 0 0 0
120900000 -0.3648224198827538 0.20982717493315878 -1.3684422035392807 1.2984044588792771 0 0 0 0
124800000 -0.35651406389143914 0.2223343925877939 -1.336174286372723 1.3272373724450548 0 0 0 0
128700000 -0.3499129095479448 0.23281358618308026 -1.2592775635384978 1.4193101169079705 0 0 0 0
132600000 -0.3408573305075611 0.24567731517485727 -1.22980016976045 1.46846138665299 0 0 0 0
136500000 -0.3331513504856184 0.2563905125694972 -1.1978857365209314 1.5373443187887599 0 0 0 0
140400000 -0.2408552185003163 0.30505169370666096 -0.48456088341014664 1.3640260608724706 0 0 0 0
144300000 -0.2203828429684121 0.3295407839242693 -0.3606048090354014 1.4498407254720207 0 0 0 0
148200000 -0.2035496944784932 0.34499259430756846 -0.278093171247163 1.50552128735931 0 0 0 0
152100000 -0.1955377825287598 0.3489190021360243 -0.23887218722278863 1.4926281327966797 0 0 0 0
156000000 -0.1948183625256339 0.344627731917021 -0.23963109914989433 1.4443364273588666 0 0 0 0
159900000 -0.1922376532963538 0.340692209743412 -0.23382800864811634 1.3995821691415922 0 0 0 0
163800000 -0.17899023657646257 0.3512989986340337 -0.14392442749511564 1.4317249772065057 0 0 0 0
167700000 -0.1588296415448248 0.36870500766317876 -0.03291224606594576 1.4846651312904062 0 0 0 0
171600000 -0.13345672418674867 0.3850947781755486 0.07140596492908934 1.5239450436664284 0 0 0 0
175500000 -0.11745898891251004 0.393112275003864 0.1379449831710059 1.534745196582657 0 0 0 0
179400000 -0.10807762225735627 0.3958569360672918 0.1751322971612864 1.5074480268558865 0 0 0 0
183300000 -0.10325325628568491 0.39689060564534107 0.19869134121018547 1.4783403597931852 0 0 0 0
187200000 -0.10056744353796135 0.3946074429145403 0.19901080741891528 1.429081010682709 0 0 0 0
191100000 -0.09855610286362196 0.39132590509249304 0.19383238519903212 1.3836165798276732 0 0 0 0
195000000 -0.09414060270926325 0.3901791509532702 0.20215235294654854 1.3495286945148632 0 0 0 0
198900000 -0.08297744083403585 0.39338822250484234 0.2558743664925036 1.3370019676083527 0 0 0 0
202800000 -0.06741945064955615 0.39914817103098366 0.3388486413573982 1.331338831289474 0 0 0 0
206700000 -0.045087828019086514 0.40722459348461154 0.44133134305632865 1.3273289981339431 0 0 0 0
210600000 -0.00881032980917715 0.41941845542242695 0.5846886344918821 1.357144022466927 0 0 0 0
214500000 0.018228711580476138 0.4221583177938596 0.693490327186572 1.3648039815267212 0 0 0 0
218400000 0.03452672040377916 0.42173007495575593 0.7583570338956764 1.3442606358174125 0 0 0 0
222300000 0.0477237994660713 0.4211270797220175 0.8011183197033038 1.3088213591305644 0 0 0 0
226200000 0.05711033838100992 0.4205515233744176 0.8301986427470023 1.272666240309664 0 0 0 0
230100000 0.0633627222418333 0.41916891517309907 0.83383794325207 1.2279440501080878 0 0 0 0
234000000 0.06612489023732986 0.41997713122782687 0.8283686668925848 1.1856280404700228 0 0 0 0
237900000 0.06756586620287887 0.4192121537918588 0.8053562786190634 1.1361784639298045 0 0 0 0
241800000 0.0694131348657431 0.41793965481380047 0.7773713849093132 1.086319852564103 0 0 0 0
245700000 0.07044547403121361 0.417289062792 0.7528974955947447 1.0450494063979465 0 0 0 0
249600000 0.0731879175668859 0.41468557937546374 0.7363559950232136 1.0079347247446648 0 0 0 0
253500000 0.07717026512412 0.41321710787463944 0.7304376239182833 0.9730887953044228 0 0 0 0
257400000 0.08879282459865541 0.4121564535755046 0.7645616506039119 0.94024030951177 0 0 0 0
261300000 0.104866242963612 0.41069806881614074 0.8309912755412489 0.9033820469214842 0 0 0 0
265200000 0.12268150637422337 0.40905257997126343 0.9064943685903725 0.8618223610685873 0 0 0 0
269100000 0.15535164247675678 0.4046983319440138 1.0277870650206835 0.8221078113938078 0 0 0 0
273000000 0.18690282922432128 0.3942501675127876 1.1544799305419158 0.7810084401481012 0 0 0 0
276900000 0.2067600411815878 0.38492388792550014 1.2182929177191268 0.7297370195768478 0 0 0 0
280800000 0.22371317230917734 0.3765023834924072 1.264854968081772 0.678819827711102 0 0 0 0
284700000 0.23799009399902848 0.36789727643586295 1.2991707341001637 0.6209668489203979 0 0 0 0
288600000 0.2504541360165833 0.36086711408551825 1.3181548690562845 0.5668348790748264 0 0 0 0
292500000 0.26068705132311065 0.35353087043160164 1.3235495223556393 0.5139726458882118 0 0 0 0
296400000 0.26887133560143883 0.3482129230417029 1.3137066751229136 0.46531083635400167 0 0 0 0
300300000 0.27485983710127454 0.34525705253734834 1.2833626056373488 0.422248973584496 0 0 0 0
304200000 0.27850887842986405 0.34400705568678436 1.2368337919479766 0.3869567624303571 0 0 0 0
308100000 0.28273409353560364 0.34261446424831105 1.183828377944916 0.35433198098879115 0 0 0 0
312000000 0.28465797197449266 0.3425771748931663 1.1236661677348807 0.33171305194170386 0 0 0 0
315900000 0.2864477593947197 0.34218324950466933 1.0750000134938453 0.31171253759315987 0 0 0 0
319800000 0.290320597542718 0.3382132101486424 1.04439897787289 0.2857485741004055 0 0 0 0
323700000 0.2958378216957976 0.33514627501543826 1.0152171218604016 0.25842600766349433 0 0 0 0
327600000 0.30030989800043967 0.3300048499218886 0.985928039597525 0.23255324489158352 0 0 0 0
331500000 0.3045185843899073 0.32575179478955835 0.9590287865984833 0.21169544157564946 0 0 0 0
335400000 0.30921233296032663 0.3206755213444167 0.9369222199663767 0.18983936542984126 0 0 0 0
339300000 0.31789333109538254 0.31389200494438796 0.9364070820898335 0.15359917225200312 0 0 0 0
343200000 0.32779751563014387 0.30556989804465085 0.9467118761772766 0.11022107137756766 0 0 0 0
347100000 0.33829807741580603 0.29560002038600514 0.96359817074083 0.06087933494236307 0 0 0 0
351000000 0.3500945069168717 0.2846082975944812 0.9850832813077074 0.0032656648340148725 0 0 0 0
354900000 0.3626037520351909 0.27213826060250956 1.0072567790191294 -0.05652679208142265 0 0 0 0
358800000 0.3786493118287943 0.25639775480601873 1.0366130581852313 -0.12547111593881297 0 0 0 0
362700000 0.3922865225266867 0.24157527574655546 1.0669895687558173 -0.1959461513230558 0 0 0 0
366600000 0.4073795144514656 0.2188240671212543 1.1023658621951502 -0.282313099477463 0 0 0 0
370500000 0.41765343295707347 0.19968359491410378 1.111351677868844 -0.34950437351805974 0 0 0 0
374400000 0.425400307002753 0.18321801908286184 1.1078339815019083 -0.40612144068740835 0 0 0 0
378300000 0.4311138355997397 0.16950916989319245 1.0963065593915133 -0.45316869805517285 0 0 0 0
382200000 0.43723468452997677 0.15707209864216448 1.080732903690372 -0.4952363830411322 0 0 0 0
386100000 0.4422049132989908 0.14405912789488182 1.059559364533637 -0.5318852233557829 0 0 0 0
390000000 0.4460450580026381 0.13324204593758376 1.0359478744975237 -0.5640267654451175 0 0 0 0
393900000 0.4499304072352819 0.12186886565623617 1.0140092854678817 -0.5951842066237722 0 0 0 0
397800000 0.45366800962714077 0.11124818605428993 0.990427586090682 -0.6261387863391723 0 0 0 0
401700000 0.45689946263395503 0.09943796064870154 0.9659977918520297 -0.6570513888878426 0 0 0 0
405600000 0.4602753174852724 0.08774060273380527 0.9434524351688857 -0.6856388683304164 0 0 0 0
409500000 0.4631029711233466 0.07699339919972827 0.918966134637581 -0.7153853967104313 0 0 0 0
413400000 0.46523785528692957 0.0651087739333359 0.8931689613317307 -0.743359540449849 0 0 0 0
417300000 0.46745966667137906 0.05456195778501676 0.8701428740917581 -0.7708032928309971 0 0 0 0
421200000 0.4696801787950894 0.04370402361202766 0.8451869405411785 -0.7973764349379032 0 0 0 0
425100000 0.4717061575816629 0.03239873980435138 0.8192902588628401 -0.8230004227399124 0 0 0 0
429000000 0.47241113448414823 0.020634472720671315 0.7897749071428226 -0.8454720527032655 0 0 0 0
432900000 0.47323543526048173 0.011414495934838734 0.7627286417168537 -0.866524549513823 0 0 0 0
436800000 0.4742432657401954 0.0012933914299391202 0.7333672326429371 -0.8836881273389551 0 0 0 0
440700000 0.4755217278816386 -0.007029829129841114 0.7080310223905362 -0.8984120990325132 0 0 0 0
444600000 0.47647381607643907 -0.01776960612775388 0.6763760066506204 -0.9134254052556079 0 0 0 0
448500000 0.47682636253292 -0.025670413846604536 0.6478374247085223 -0.9259144960812946 0 0 0 0
452400000 0.47738668074558244 -0.034194613186196404 0.6171372280743457 -0.9357238907724911 0 0 0 0
456300000 0.4789859190783045 -0.043143719903882376 0.5819892444270732 -0.9475129311041255 0 0 0 0
460200000 0.4774546144879474 -0.052338466064369954 0.5541701745850022 -0.954819617741469 0 0 0 0
464100000 0.47882253519443624 -0.060919544645630486 0.5263406943080801 -0.979426930243465 0 0 0 0
468000000 0.47844878757954573 -0.0699308763473431 0.4928453285414623 -0.9833171113587731 0 0 0 0
471900000 0.4787869817843507 -0.0768661240201417 0.462747132133667 -0.9865417888231448 0 0 0 0
475800000 0.47788339645832156 -0.08702434601391937 0.42749233981126256 -0.989257142453026 0 0 0 0
479700000 0.477598665323877 -0.09522307466247464 0.3944928691196157 -0.9912954459874417 0 0 0 0
483600000 0.47646192468712567 -0.10379271908194684 0.3634930866738206 -0.9802576946309018 0 0 0 0
487500000 0.47706327155660777 -0.11008651271840991 0.33300644374507543 -0.9695852549203522 0 0 0 0
491400000 0.47733468488750264 -0.11669045228949343 0.3026684049972691 -0.9594817141985729 0 0 0 0
495300000 0.47707750922495007 -0.12493352963219773 0.2749461545547928 -0.9491252935726804 0 0 0 0
499200000 0.4769642972692328 -0.1313859729233297 0.24630673775808004 -0.9362384606085827 0 0 0 0
503100000 0.47687263031834803 -0.1381703335975537 0.2190440083726539 -0.9178402610142621 0 0 0 0
507000000 0.47627103381164076 -0.1459570443142534 0.1897587687828412 -0.8977951688807083 0 0 0 0
510900000 0.476387318637007 -0.15199581788665234 0.16433672839355273 -0.8803596650892852 0 0 0 0
514800000 0.47553085062605865 -0.15970328948349474 0.13949834776281658 -0.8615391376496758 0 0 0 0
518700000 0.47466883176031766 -0.16756518295533304 0.1151809344785495 -0.843172580369348 0 0 0 0
522600000 0.47412293231259084 -0.17554000866101147 0.09477194451011503 -0.8272054185205796 0 0 0 0
526500000 0.47278384425343406 -0.18219972894077507 0.07459034540695615 -0.8181491936949019 0 0 0 0
530400000 0.4707624722530961 -0.19179407170873344 0.049962861881580195 -0.8157412490803968 0 0 0 0
534300000 0.4673373849393282 -0.20298337392547297 0.022703387518883237 -0.8117112807874082 0 0 0 0
538200000 0.4627866896450731 -0.21389072522315145 -0.003395615411198819 -0.8054524585914113 0 0 0 0
542100000 0.4581502164063598 -0.22397769995485506 -0.02826711836870263 -0.7980866088335046 0 0 0 0
546000000 0.4529837478519809 -0.23368599444611163 -0.05361548521165245 -0.7876266227486662 0 0 0 0
549900000 0.44806338288006453 -0.24241398630193609 -0.07743036151870936 -0.7801363600074201 0 0 0 0
553800000 0.44198726753749806 -0.2540894995778673 -0.09745309268989036 -0.7630454260071425 0 0 0 0
557700000 0.43684558153449915 -0.2608149237573015 -0.12083278997550252 -0.7552581366530875 0 0 0 0
561600000 0.4320906105778043 -0.27158660737675494 -0.14006731352754564 -0.7471525597691583 0 0 0 0
565500000 0.4268471047861087 -0.2808076421802355 -0.16067442727428863 -0.7356969101778564 0 0 0 0
569400000 0.4216986573183847 -0.28968130446214 -0.1776854268404113 -0.730337629875791 0 0 0 0
573300000 0.4150509116409812 -0.2968919683203218 -0.19694082792974957 -0.7189840222017818 0 0 0 0
577200000 0.4096332065269705 -0.3036342191379729 -0.21499794369121003 -0.7073290242285689 0 0 0 0
581100000 0.40343546804000535 -0.3118352275475819 -0.23141653049646232 -0.6989106566127611 0 0 0 0
585000000 0.3985448753328802 -0.32031143692445735 -0.2492541894500753 -0.6882500038666666 0 0 0 0
588900000 0.3927931888864362 -0.3263917415681609 -0.2668423355839894 -0.6784949705687692 0 0 0 0
592800000 0.38589697209081564 -0.3341303497908533 -0.2849509915915714 -0.668388080814768 0 0 0 0
596700000 0.37811747265839285 -0.34146552109015993 -0.3022800041624139 -0.6550085508228812 0 0 0 0
600600000 0.3712976460007871 -0.34968596987050793 -0.32027505348810037 -0.6454968285275814 0 0 0 0
604500000 0.36416020695372997 -0.3567271347126096 -0.33857529690543087 -0.6346978497685262 0 0 0 0
608400000 0.35717922391541884 -0.3632142962004165 -0.355992326065841 -0.6247343245471799 0 0 0 0
612300000 0.3495105373204146 -0.371432923353348 -0.3735094569254353 -0.6108935738836014 0 0 0 0
616200000 0.34109943426400624 -0.37876747102994063 -0.3912299605068124 -0.6021760054261421 0 0 0 0
620100000 0.33430500805620394 -0.38357200368662075 -0.4081554046154997 -0.5902698835089805 0 0 0 0
624000000 0.3271542164763009 -0.3899987395871481 -0.4231856269339497 -0.5760529145160365 0 0 0 0
627900000 0.3201457864014344 -0.39454125313715127 -0.4357489844883518 -0.5661248048250423 0 0 0 0
631800000 0.3139326089362792 -0.4018629632260397 -0.4556124296870387 -0.5561038072161282 0 0 0 0
635700000 0.3064718678350425 -0.4057116517799642 -0.46868140179097945 -0.5406191066697045 0 0 0 0
639600000 0.2980811429093049 -0.4114109580383288 -0.482741130734695 -0.5319032821671026 0 0 0 0
643500000 0.2913182276401729 -0.41576707346123115 -0.49685449410971955 -0.518971524053595 0 0 0 0
647400000 0.283111687972392 -0.4198586682338643 -0.5105013959495921 -0.5002850756121381 0 0 0 0
651300000 0.2773466350018449 -0.425243640281028 -0.524788876176759 -0.4889845884814512 0 0 0 0
655200000 0.27000697054425565 -0.4309138325846597 -0.5386472528562831 -0.47401130974711053 0 0 0 0
659100000 0.2635741526938983 -0.43446942743914385 -0.5498798914720584 -0.46067389435642064 0 0 0 0
663000000 0.25533790941278833 -0.4392172818298915 -0.5642856666051588 -0.44595629713431223 0 0 0 0
666900000 0.24955149024736134 -0.4420500887858158 -0.5763607048563277 -0.42923860554182774 0 0 0 0
670800000 0.2406622035059099 -0.44687145615598894 -0.5889841734256704 -0.4094822214504141 0 0 0 0
674700000 0.23421147059123365 -0.45035044257719387 -0.6026988473647102 -0.3920275960740286 0 0 0 0
678600000 0.22743095512248387 -0.4549603711646211 -0.6132199976854923 -0.3770368316539811 0 0 0 0
682500000 0.22013014770336753 -0.45882832727493533 -0.6236692714118838 -0.3611406233485576 0 0 0 0
686400000 0.21305374177068956 -0.46138072316108586 -0.6364103603201567 -0.34260649446229896 0 0 0 0
690300000 0.20563882077486256 -0.46546264909045837 -0.6457135169243111 -0.3242306364136742 0 0 0 0
694200000 0.19680701238618042 -0.46953401905093667 -0.659372228454945 -0.3083248496048677 0 0 0 0
698100000 0.18937321198216983 -0.47101225585532197 -0.6696352333331855 -0.2890334669066581 0 0 0 0
702000000 0.1812398830482813 -0.4742217619303191 -0.6811721282522025 -0.2700473210819096 0 0 0 0
705900000 0.17194651993216245 -0.47722729731352437 -0.6942424594266543 -0.2513649945683594 0 0 0 0
709800000 0.1660649325463345 -0.4813045730778 -0.7028300151515573 -0.23106419233148243 0 0 0 0
713700000 0.1576469106747296 -0.4826554960261324 -0.7085988941819685 -0.20839490568127939 0 0 0 0
717600000 0.14562677361562384 -0.4856972858674548 -0.7198929519017802 -0.18749291791087952 0 0 0 0
721500000 0.13849847626609002 -0.4868963145779709 -0.7258747583227263 -0.16403084122022654 0 0 0 0
725400000 0.13221616370117784 -0.4914251614514317 -0.7414436135446825 -0.14692791872196187 0 0 0 0
729300000 0.12263178597975342 -0.49306510966532197 -0.7438243558747085 -0.12256055876551128 0 0 0 0
733200000 0.11499018988318557 -0.4941410275309698 -0.7468449153149866 -0.09954643657279488 0 0 0 0
737100000 0.10665483756884424 -0.4931699688551615 -0.7486986088813361 -0.07399394054506223 0 0 0 0
741000000 0.0948929055834899 -0.49516798143803276 -0.7533735851779761 -0.04965950095749006 0 0 0 0
744900000 0.08824397011400614 -0.4956422467444754 -0.7550404833836406 -0.027099029477195738 0 0 0 0
748800000 0.07800330747202043 -0.4945037244381759 -0.7552929238876341 -0.003014577809344207 0 0 0 0
752700000 0.06959803524515634 -0.49726021530578984 -0.7569751897525141 0.018869827550048304 0 0 0 0
756600000 0.06085782653453358 -0.49598931551214337 -0.7557333174033419 0.04197161024219613 0 0 0 0
760500000 0.0506204190506089 -0.4956472547609269 -0.7545877429156522 0.06433662824313384 0 0 0 0
764400000 0.042936784124537324 -0.4952082559484105 -0.753170616131775 0.08549078096143248 0 0 0 0
768300000 0.034578294138002744 -0.49471538760536615 -0.7499285671003271 0.10751211994854679 0 0 0 0
772200000 0.02397626853230598 -0.4940707168206296 -0.7446701469346211 0.13238177700718762 0 0 0 0
776100000 0.014816485691810611 -0.4910503036746919 -0.7378605879791086 0.1567595470601294 0 0 0 0
780000000 0.004614214206510871 -0.4869863289893468 -0.7281039315585476 0.17999630022700358 0 0 0 0
783900000 -0.004379488236062294 -0.4873668646564088 -0.7190979722954425 0.20311652699373375 0 0 0 0
787800000 -0.013254485351260045 -0.4831067933546827 -0.7079740642466611 0.22512606686294218 0 0 0 0
791700000 -0.023349709099061422 -0.4789657049347709 -0.6939294385629333 0.2463796871368653 0 0 0 0
