# HZ S RI R 50
3900000 0.8391346548651838 -0.19992040593001675 -0.6727396999562213 0.01945835855624029 0 0 0 0
7800000 0.7131521157913272 -0.19549376072789648 -0.6414488522701595 0.053532072233797245 0 0 0 0
11700000 0.6590485207517475 -0.17173608630403395 -0.6316951607255308 0.06650748843208691 0 0 0 0
15600000 0.6269316609074923 -0.1589002579810575 -0.640950834051724 0.07657284387581714 0 0 0 0
19500000 0.603438449414212 -0.15301263674200272 -0.6544905790130903 0.08902465376826493 0 0 0 0
23400000 0.5859018373683461 -0.1501197195154719 -0.6659084569664075 0.10250642512055985 0 0 0 0
27300000 0.5723703010253999 -0.14956340037190805 -0.6771456614537252 0.1173321504859155 0 0 0 0
31200000 0.5586896524902735 -0.15114002175160762 -0.6861709243480654 0.13316238194684887 0 0 0 0
35100000 0.5484001282524222 -0.15291515999971372 -0.6924714324927227 0.15010198260307397 0 0 0 0
39000000 0.5398530181998892 -0.155196826809681 -0.697876004101966 0.16787124582168148 0 0 0 0
42900000 0.5316244840053357 -0.15828399476822008 -0.7007815724794534 0.18589716385938504 0 0 0 0
46800000 0.523953117222711 -0.16211506481461374 -0.7021731329882782 0.20381428251637163 0 0 0 0
50700000 0.5178255301563294 -0.1649241698733195 -0.7018928276497229 0.22260928308322098 0 0 0 0
54600000 0.5124145523311264 -0.16811688689737866 -0.699937068259965 0.24081576126053444 0 0 0 0
58500000 0.5080660140162688 -0.1724047054129326 -0.6971541770250642 0.25871667666720194 0 0 0 0
62400000 0.5035544875330474 -0.17642297621004907 -0.6933592717380126 0.27735802519335706 0 0 0 0
66300000 0.49886461543529226 -0.18079531986611763 -0.6887612078106962 0.2957028237645206 0 0 0 0
70200000 0.49459983098260824 -0.18547349456115753 -0.6818186991405606 0.31321267859827745 0 0 0 0
74100000 0.4908777205510747 -0.19094809929188097 -0.6757093828445973 0.33068169050408347 0 0 0 0
78000000 0.4872157564585556 -0.19467222506496792 -0.6674971886586266 0.3482712138778677 0 0 0 0
81900000 0.4840048908132689 -0.20009907974599833 -0.6595646583051723 0.36589625545449067 0 0 0 0
85800000 0.48107671855963663 -0.2044997241960057 -0.6501440429384022 0.3827705633469309 0 0 0 0
89700000 0.4781693807208545 -0.20830579269411226 -0.6394376208428666 0.3989445955112363 0 0 0 0
93600000 0.47450602912331213 -0.21384977704000824 -0.6290474589366774 0.4159249131738091 0 0 0 0
97500000 0.47202851474922447 -0.21779638740028376 -0.6178015719000787 0.4304839077932956 0 0 0 0
101400000 0.4656927284624072 -0.222209678528553 -0.6084768289955571 0.448661014154456 0 0 0 0
105300000 0.4638010467530252 -0.2287494893697141 -0.5957296522163381 0.46240321294575276 0 0 0 0
109200000 0.46241781669563303 -0.23328417537971544 -0.5823985623698639 0.47576549959969305 0 0 0 0
113100000 0.46001937588473857 -0.23898490917547938 -0.5680149041015158 0.4889995378469019 0 0 0 0
117000000 0.4561651999417975 -0.24400517304318337 -0.5547853026918342 0.5012618818920173 0 0 0 0
120900000 0.45407356704016216 -0.24856088465003345 -0.5408392518232928 0.5138971367782973 0 0 0 0
124800000 0.4507648700855853 -0.2544026940730544 -0.5272049106041812 0.5257349906104715 0 0 0 0
128700000 0.4478205032924792 -0.25933916740052176 -0.5127395231547446 0.5370479934054732 0 0 0 0
132600000 0.441611334449924 -0.26353254623214656 -0.499428899209105 0.5506479853394671 0 0 0 0
136500000 0.43988708369728824 -0.2694364024443672 -0.48495450389483763 0.5601425010533919 0 0 0 0
140400000 0.44370161696487365 -0.2842989276100685 -0.46234462537945165 0.5510535007802638 0 0 0 0
144300000 0.44062893587876384 -0.28901844032950125 -0.4466420352408717 0.5599291503501358 0 0 0 0
148200000 0.4369285331845841 -0.29357154951772274 -0.4314142158845285 0.5705349660545509 0 0 0 0
152100000 0.4338984530157804 -0.2988842467109549 -0.41612903809605395 0.5796501984028102 0 0 0 0
156000000 0.43022911112567325 -0.3038408044248537 -0.4001016991738502 0.587271902527763 0 0 0 0
159900000 0.4276465327176873 -0.30908053525374757 -0.38374581785072287 0.5955643607308948 0 0 0 0
163800000 0.42411467653918067 -0.3137205752793411 -0.36723767085518605 0.6027760789426442 0 0 0 0
167700000 0.4206510737051902 -0.319101656258821 -0.35271646558095304 0.6104522635659081 0 0 0 0
171600000 0.41779915483823943 -0.32445044197760936 -0.335893598246755 0.6152180840247444 0 0 0 0
175500000 0.41293278272376077 -0.3291696576127271 -0.31918458147433887 0.6207155584726586 0 0 0 0
179400000 0.40983134753396766 -0.3335780450628084 -0.30294517844246727 0.6253470261015278 0 0 0 0
183300000 0.40747615456596037 -0.33887498247794573 -0.2875210457819537 0.6313357790426815 0 0 0 0
187200000 0.40346140866892893 -0.3437403632211119 -0.27080148543560323 0.6352463344799358 0 0 0 0
191100000 0.40020885067821066 -0.34908476112302894 -0.2550448697242119 0.6389252765751285 0 0 0 0
195000000 0.3959774661236751 -0.3534749160502462 -0.2384823486649457 0.6410849238844449 0 0 0 0
198900000 0.3932927784647374 -0.3584351369200685 -0.22329114759314067 0.6440321680790764 0 0 0 0
202800000 0.3893365593724169 -0.3636326085339984 -0.20677356451516385 0.6463927179900728 0 0 0 0
206700000 0.3861004198553531 -0.3691181402706659 -0.19111677127809493 0.6478401564315872 0 0 0 0
210600000 0.382327463259675 -0.3735741542366635 -0.1758305931849835 0.6486339560186966 0 0 0 0
214500000 0.3783893057917181 -0.3786627462239345 -0.1593918511292265 0.6503144207474459 0 0 0 0
218400000 0.37498072293896134 -0.383553764409922 -0.14379374940354875 0.6508000435145503 0 0 0 0
222300000 0.3707395013899972 -0.3885756683929917 -0.12819271346394293 0.6497284380514188 0 0 0 0
226200000 0.3670344315160332 -0.3933637126773063 -0.11300558205915298 0.6493773948482998 0 0 0 0
230100000 0.36215961463505875 -0.39834071509918123 -0.09878057126640323 0.6477122262062053 0 0 0 0
234000000 0.35872963877545444 -0.40290540197247293 -0.08373208209505112 0.6480776811314337 0 0 0 0
237900000 0.354920587211516 -0.40811741103636207 -0.06939654953880016 0.6474137425750159 0 0 0 0
241800000 0.34979029489956853 -0.41379427401959895 -0.05447536705670285 0.6445288796743477 0 0 0 0
245700000 0.34611207008265593 -0.41794294981143076 -0.04042873797271501 0.6416857343833271 0 0 0 0
249600000 0.34159117710998993 -0.4246322671470145 -0.02801404968549897 0.6401639078316915 0 0 0 0
253500000 0.33715216971732387 -0.42986391843207206 -0.01339452932921522 0.6375491572874551 0 0 0 0
257400000 0.33231511829131954 -0.4351374930910196 -4.155420602108134e-05 0.6352183733678878 0 0 0 0
261300000 0.3268726075757696 -0.4391650283176497 0.013368747048734378 0.6309525037425833 0 0 0 0
265200000 0.3230635031060851 -0.4443170682854486 0.0271092256550862 0.6275068022326463 0 0 0 0
269100000 0.3180093132901861 -0.44879524003774446 0.039993251751277756 0.6232392185621329 0 0 0 0
273000000 0.3132602312512019 -0.45378841258789177 0.05228621089820855 0.6193227326859009 0 0 0 0
276900000 0.30844703028946757 -0.4582785960725599 0.0647628204024143 0.6144095609104454 0 0 0 0
280800000 0.3028550902678882 -0.46263231322276493 0.07644725567079359 0.6110058532215968 0 0 0 0
284700000 0.2973523623152063 -0.46721287171139103 0.08882046506610017 0.6057462899848198 0 0 0 0
288600000 0.29202637404896475 -0.47208952990130454 0.1011290786290572 0.6008010203544386 0 0 0 0
292500000 0.28710128041603866 -0.4764897240940865 0.11215724431212203 0.5966391392757371 0 0 0 0
296400000 0.28123428925440624 -0.4809983755912625 0.12368734875300241 0.5914487255841951 0 0 0 0
300300000 0.2750666720725157 -0.48470092375883034 0.1352643719867677 0.5857925976222611 0 0 0 0
304200000 0.2696562675083362 -0.4890491052867259 0.14759241800177894 0.580542744130197 0 0 0 0
308100000 0.26443021020441626 -0.4930442378819749 0.15833095108618625 0.5751839845713286 0 0 0 0
312000000 0.25906400531811363 -0.4964005081610491 0.16917197332896405 0.56920131376137 0 0 0 0
315900000 0.2532540013018628 -0.5003477257753469 0.17969667367638598 0.563580316379195 0 0 0 0
319800000 0.24706143411700998 -0.5036981722532665 0.18994572637587828 0.5576132226355082 0 0 0 0
323700000 0.24085897470093992 -0.506911160054296 0.20039895280694592 0.551087019462596 0 0 0 0
327600000 0.23472950315328608 -0.5109996219358043 0.21076975268307946 0.5447531799044533 0 0 0 0
331500000 0.22817600597089194 -0.5149417781636662 0.22148427055585196 0.5387157336029154 0 0 0 0
335400000 0.22381778827603108 -0.5174163574743532 0.23080757523572204 0.5327737426484425 0 0 0 0
339300000 0.2173653671702887 -0.5209148907321004 0.24086690370513134 0.5265098705134128 0 0 0 0
343200000 0.21185427892223674 -0.5243639599670208 0.2509457297909108 0.5201290528676489 0 0 0 0
347100000 0.20544403366693467 -0.5282105635965677 0.2607378943217255 0.5136049051737905 0 0 0 0
351000000 0.19880303012042086 -0.5301197370267899 0.2703814402535717 0.5058411543532699 0 0 0 0
354900000 0.19252663733606631 -0.5322549313755197 0.28032199832796684 0.49857241164540406 0 0 0 0
358800000 0.18631366397359952 -0.5345791168782119 0.2891881988507285 0.49110442483654415 0 0 0 0
362700000 0.18047127512528524 -0.5364473935919932 0.2987523075693525 0.48496439893499105 0 0 0 0
366600000 0.17348137602760014 -0.5380572540597549 0.3083276046849366 0.47658545056462703 0 0 0 0
370500000 0.16633366066095107 -0.540639114691971 0.3173545578303085 0.46874654704009056 0 0 0 0
374400000 0.1601660402003006 -0.5419676325307082 0.3258795191896872 0.46028718297960647 0 0 0 0
378300000 0.15450489633124326 -0.5451048598232084 0.33465860677591525 0.45322920002684325 0 0 0 0
382200000 0.14729481795329752 -0.5456221205883908 0.3420193413459797 0.44446146193426955 0 0 0 0
386100000 0.1417305241841753 -0.548182508759722 0.35015958221232213 0.43736122255042215 0 0 0 0
390000000 0.13504131692891777 -0.5497642834624479 0.35790777783080663 0.4292338986399945 0 0 0 0
393900000 0.12808006463648827 -0.5512456370078516 0.36589984268471804 0.4209750814719295 0 0 0 0
397800000 0.12223754668407077 -0.5527738062708041 0.3732741424723155 0.4118861022351106 0 0 0 0
401700000 0.11585523033351462 -0.553979568741378 0.3811145724856007 0.4036333513410846 0 0 0 0
405600000 0.10883659314502007 -0.555519105884351 0.38817543722822256 0.39440030208537996 0 0 0 0
409500000 0.10184736366366494 -0.5562149458990737 0.3959214894468832 0.3847480480039486 0 0 0 0
413400000 0.09479897157119108 -0.557135000756168 0.40187277314838704 0.37626852322038856 0 0 0 0
417300000 0.08784716662031952 -0.5589525765578683 0.4089140602747548 0.36732386751059926 0 0 0 0
421200000 0.08255990604612337 -0.5589030371333491 0.4149131306551136 0.3584491384133708 0 0 0 0
425100000 0.07536119758834517 -0.5602015243202566 0.4218807603691514 0.3490339864413937 0 0 0 0
429000000 0.06648033610916482 -0.5603564416270167 0.42834123186335993 0.33925286466935534 0 0 0 0
432900000 0.06076617111052864 -0.5613377761952796 0.43429816415057043 0.3298315056361499 0 0 0 0
436800000 0.05166371633492376 -0.5614112735790022 0.4402879762500373 0.31945965019936445 0 0 0 0
440700000 0.04505094360386122 -0.5619196896993781 0.4456289338607319 0.31113520325466865 0 0 0 0
444600000 0.03615824262064 -0.562781539516136 0.45133942082421663 0.30032784832700254 0 0 0 0
448500000 0.029723380955396887 -0.5608534165762543 0.45635373475027263 0.2901606928480954 0 0 0 0
452400000 0.02125559729074918 -0.5602959346054446 0.4623834723766594 0.2795103345610677 0 0 0 0
456300000 0.012808406476602238 -0.5583166368481592 0.4676567768116763 0.26784089595467725 0 0 0 0
460200000 0.0028552084402307617 -0.5561133997957307 0.4734555230913586 0.25679057034868874 0 0 0 0
464100000 -0.0060152839136860155 -0.5492602408705642 0.4787390856319963 0.24334849770648967 0 0 0 0
468000000 -0.014413170946100232 -0.5436628369446835 0.4836969885220203 0.23033802758038585 0 0 0 0
471900000 -0.0194689221450696 -0.5364286916027097 0.486336744509905 0.2158981981285973 0 0 0 0
475800000 -0.024244453842333914 -0.5270697570753669 0.48791961078829377 0.20121899864540158 0 0 0 0
479700000 -0.024281135474284184 -0.5209896824719704 0.48873529999585663 0.18693752532779428 0 0 0 0
483600000 -0.02242561652712601 -0.511704940274735 0.4855018551881853 0.1747984409492789 0 0 0 0
487500000 -0.018074954923164473 -0.509075020967595 0.4825254309980758 0.16502334806754132 0 0 0 0
491400000 -0.017069761231279523 -0.5090451495037985 0.4810363098978547 0.15574900012591497 0 0 0 0
495300000 -0.017964342775556745 -0.5108873432785486 0.480616921088382 0.1484022480908892 0 0 0 0
499200000 -0.02040965256074301 -0.5115124559765598 0.4810294938685885 0.14075009841174008 0 0 0 0
503100000 -0.02285048645861388 -0.5121720378644293 0.4821237632914885 0.13239660772787096 0 0 0 0
507000000 -0.025877628630317447 -0.5098848238005357 0.4818806149583217 0.12298324207378182 0 0 0 0
510900000 -0.028384758552135146 -0.5083534245033016 0.48242978430653055 0.11333806298367832 0 0 0 0
514800000 -0.02812185616806087 -0.5072638653541683 0.4818311901973548 0.10437183615631018 0 0 0 0
518700000 -0.02795908785591385 -0.5076699727723409 0.48197760942520884 0.09516537949479284 0 0 0 0
522600000 -0.030186971290076053 -0.5080860927198269 0.4809854040240687 0.08715950822748303 0 0 0 0
526500000 -0.031196733188820953 -0.5092175399373357 0.4810667998395554 0.07909085261716459 0 0 0 0
530400000 -0.03265575450841935 -0.510404379433251 0.48116876610104686 0.07027753666792545 0 0 0 0
534300000 -0.03442292564673223 -0.512144729860292 0.479786069533116 0.06146583222199645 0 0 0 0
538200000 -0.03687323773049723 -0.5132458659972484 0.47911801757381756 0.053273581173082035 0 0 0 0
542100000 -0.03903068900615861 -0.5147371652523988 0.47888687060022245 0.043811394553975 0 0 0 0
546000000 -0.04198847625862003 -0.5167063426131675 0.4780685320392221 0.03689216130665738 0 0 0 0
549900000 -0.046238516042632564 -0.5181039541016534 0.4778863533532837 0.027600322592353496 0 0 0 0
553800000 -0.05010180461355462 -0.5206544027573221 0.47707417230343346 0.020354348077856684 0 0 0 0
557700000 -0.054252214673810376 -0.5214935401013278 0.4763079169438465 0.010888991733763965 0 0 0 0
561600000 -0.05884853054054566 -0.5223837706686608 0.47557669355774224 0.003685369368092482 0 0 0 0
565500000 -0.06389029280846212 -0.5221666676010325 0.47365702290337075 -0.005591258183455707 0 0 0 0
569400000 -0.07016394913084738 -0.5224169052303496 0.473105203702791 -0.013666439525707617 0 0 0 0
573300000 -0.07456636157694307 -0.5231452146458524 0.4723296046700975 -0.022858573995111656 0 0 0 0
577200000 -0.07728301642638326 -0.5231213994833979 0.47086662224468284 -0.03168485734622024 0 0 0 0
581100000 -0.08185836074383837 -0.5216849012669482 0.4696540179175146 -0.03861103063279916 0 0 0 0
585000000 -0.08552374546075127 -0.522408461879641 0.46812130234544885 -0.04739153694507778 0 0 0 0
588900000 -0.08947722379044826 -0.5226270073106482 0.4667125481293404 -0.05636517795562583 0 0 0 0
592800000 -0.09446456009825323 -0.5213629929022978 0.4647928754348259 -0.06458141248273186 0 0 0 0
596700000 -0.0988207588023766 -0.5209052027655376 0.4617660728410681 -0.0721481618149869 0 0 0 0
600600000 -0.1040403992773066 -0.520069728750175 0.4607885924385569 -0.08087381359128853 0 0 0 0
604500000 -0.10827999220863194 -0.5181412291227011 0.45869168412955025 -0.08956280119442377 0 0 0 0
608400000 -0.1128308808170427 -0.5185701902791154 0.4571876472977152 -0.09808385556306567 0 0 0 0
612300000 -0.1183926931017891 -0.5164611051406415 0.45392131740716024 -0.10619426404852333 0 0 0 0
616200000 -0.12326031034482055 -0.5167334221947327 0.45315295000663325 -0.11414748858646381 0 0 0 0
620100000 -0.12665752695499313 -0.5139644760635227 0.4499197937412076 -0.12442518005617148 0 0 0 0
624000000 -0.13135064291055593 -0.5138363732760547 0.44700389463403567 -0.13220442438566152 0 0 0 0
627900000 -0.13402000753597057 -0.5086828807199767 0.44279760467333795 -0.1412933653376216 0 0 0 0
631800000 -0.1395625027989029 -0.5091588173347698 0.4418405504624959 -0.14972437373888117 0 0 0 0
635700000 -0.14163276653810328 -0.5066577110464668 0.43730362082395 -0.15828370724977223 0 0 0 0
639600000 -0.14647082453628563 -0.5046998089723341 0.4344934903655378 -0.16603845227216274 0 0 0 0
643500000 -0.1482724425334209 -0.5019682170947116 0.43033853025703905 -0.17478581016976877 0 0 0 0
647400000 -0.1538711765724085 -0.49894198435142195 0.4266711305012259 -0.18263776058878156 0 0 0 0
651300000 -0.15683366904771506 -0.4973114641262366 0.42202696234779097 -0.19259782025695205 0 0 0 0
655200000 -0.16155662991556022 -0.4971432910680687 0.41811102911444004 -0.20153837546483702 0 0 0 0
659100000 -0.16357557994721203 -0.49425498470471274 0.41378917836344586 -0.20875347409712708 0 0 0 0
663000000 -0.16794711428077774 -0.49172965516809386 0.40934067976088817 -0.21662038678915424 0 0 0 0
666900000 -0.1708890947902671 -0.4894651887385738 0.4045434895617416 -0.22485575548418546 0 0 0 0
670800000 -0.17405824456486563 -0.48839557829185 0.3979414841945227 -0.23374151082996017 0 0 0 0
674700000 -0.17886081047178473 -0.48521277001122226 0.392501150830911 -0.24294515590253957 0 0 0 0
678600000 -0.18026121994214742 -0.4836952882527881 0.38714536537017696 -0.24936919776297667 0 0 0 0
682500000 -0.18389600936281894 -0.4807101940373398 0.38095049685600946 -0.25668149064452184 0 0 0 0
686400000 -0.18798440944088338 -0.4782815883564354 0.37504768247494114 -0.26468391369873595 0 0 0 0
690300000 -0.19228722028928033 -0.47703539073941414 0.3682789325671378 -0.27141684161071905 0 0 0 0
694200000 -0.19284603373838285 -0.4774163079285802 0.3620526127288343 -0.2784019439859519 0 0 0 0
698100000 -0.19691022782750867 -0.47260732991950816 0.35622746383552856 -0.28486080104189165 0 0 0 0
702000000 -0.1997672979543796 -0.4699919300767853 0.3507382141232735 -0.29206126511408387 0 0 0 0
705900000 -0.2044454700223932 -0.46920299809178057 0.3436190832503196 -0.29944661965747593 0 0 0 0
709800000 -0.2083111781966112 -0.4631855770093352 0.3351434614498394 -0.30634710114224 0 0 0 0
713700000 -0.21207950000284914 -0.4643434619182978 0.32790665392324786 -0.3105720362549524 0 0 0 0
717600000 -0.21558943865216584 -0.4588338053579098 0.32137983442365675 -0.3170409277928753 0 0 0 0
721500000 -0.21798018581557874 -0.4566165485386856 0.313344248923122 -0.32213217241774306 0 0 0 0
725400000 -0.22083247064549483 -0.4546203039236143 0.30650123664111273 -0.32976511671912045 0 0 0 0
729300000 -0.22383553323607253 -0.4513161453873742 0.29960662673567257 -0.3326523139410193 0 0 0 0
733200000 -0.22690213359925837 -0.44787525505018083 0.2923345197708842 -0.3374273780129764 0 0 0 0
737100000 -0.22845130474118833 -0.4451451475537784 0.2843353049912004 -0.3421984305980268 0 0 0 0
741000000 -0.23341884478843974 -0.44159995249965894 0.2762552951393285 -0.347906532726666 0 0 0 0
744900000 -0.23583706068010038 -0.4385635770628472 0.26828937621299914 -0.35199662178591523 0 0 0 0
748800000 -0.23861492205558252 -0.4348098264357073 0.26095552513838366 -0.35736296851233684 0 0 0 0
752700000 -0.24047266199368936 -0.4343094941277733 0.25376036203995017 -0.36132743046001903 0 0 0 0
756600000 -0.24413170313561894 -0.4304349160389496 0.24671016441460894 -0.36483716102095826 0 0 0 0
760500000 -0.2472118375105657 -0.4265763223784349 0.23881162979330198 -0.3695855628750293 0 0 0 0
764400000 -0.25019794113413746 -0.4230827484689071 0.23187036897176025 -0.3722045470319538 0 0 0 0
768300000 -0.25106272689549236 -0.4226858168533885 0.22378198226019788 -0.3780635630437719 0 0 0 0
772200000 -0.25553478449515715 -0.41696197117657363 0.21506663997023692 -0.3801722334009671 0 0 0 0
776100000 -0.25720730418656945 -0.4143454126881793 0.2052453852845375 -0.3845245575163695 0 0 0 0
780000000 -0.2603636478903696 -0.41019552753948185 0.19736079123793493 -0.38711066924959553 0 0 0 0
783900000 -0.26364487209683424 -0.4098406605734202 0.19148153236497065 -0.39148351545427557 0 0 0 0
787800000 -0.2653256661670793 -0.4036325446930995 0.18095196768278463 -0.3928167829109296 0 0 0 0
