# HZ S RI R 50
3900000 -0.9972681998919097 0.01758210935339355 0.7188452911443939 -22.813002398505507 0 0 0 0
7800000 -0.9974249219892156 0.012581536811078093 1.2913622563371858 -11.654577214004478 0 0 0 0
11700000 -0.9975913237646513 0.004444844291973767 1.4114695231536987 -7.765576877653944 0 0 0 0
15600000 -0.991978534606449 0.008806982670792732 1.4898268039074671 -5.782903952764002 0 0 0 0
19500000 -0.9871195082146078 0.014119471148798149 1.5221736740731202 -4.581244174909431 0 0 0 0
23400000 -0.9875406636578532 0.02094541784054211 1.5254230433301257 -3.8017527738089987 0 0 0 0
27300000 -0.9874485312127357 0.02205798623566823 1.5316644124511334 -3.2113724984220595 0 0 0 0
31200000 -0.9887146679249996 0.023581660706660103 1.5548069676305332 -2.759344935305143 0 0 0 0
35100000 -0.9786056553695449 0.02685701064722993 1.5415537258860135 -2.3839803036339475 0 0 0 0
39000000 -0.9782865606467777 0.029232636450995355 1.5677866523449988 -2.126306106496881 0 0 0 0
42900000 -0.9708295258858519 0.031916943637631284 1.5640377736308118 -1.8682208616933191 0 0 0 0
46800000 -0.9642854474648914 0.03299902640547397 1.5547838938006096 -1.6554754684849928 0 0 0 0
50700000 -0.9561759182112053 0.036064138367728586 1.5521532194050254 -1.4526806451992447 0 0 0 0
54600000 -0.9540529311618428 0.03719930838637699 1.5801865714307028 -1.3122769612632665 0 0 0 0
58500000 -0.9440041995589262 0.04042696618793324 1.5929185165536575 -1.151395703193486 0 0 0 0
62400000 -0.945731406447467 0.036736811300598145 1.6164424055335522 -1.0334687260905095 0 0 0 0
66300000 -0.9320337958216539 0.04520580425552082 1.6214490917336544 -0.9152935881276909 0 0 0 0
70200000 -0.9246380633350993 0.03714191389897228 1.6362059505360254 -0.7941749132612348 0 0 0 0
74100000 -0.9192863693004824 0.044553359149546584 1.6771238414410023 -0.6750774891114368 0 0 0 0
78000000 -0.904018506556319 0.04944950940395115 1.7197917584378786 -0.5638402438044803 0 0 0 0
81900000 -0.8946660565691399 0.03845360524131081 1.7191399309661648 -0.4264641745675911 0 0 0 0
85800000 -0.8762369103057784 0.06465610315404494 1.7583079663417374 -0.35836837184860604 0 0 0 0
89700000 -0.8658218191355904 0.046707889113921104 1.7959333489539677 -0.23203845818553004 0 0 0 0
93600000 -0.8522310339101482 0.048090146762439896 1.806815557090284 -0.1533627905835846 0 0 0 0
97500000 -0.8247529394232395 0.0524442949382502 1.8407833562418825 -0.041057157482961903 0 0 0 0
101400000 -0.7502397776671638 0.04691162524226507 2.1202039002003876 0.3445942612207037 0 0 0 0
105300000 -0.7230876157820314 0.06139704948982985 2.260610978588848 0.4466259469055619 0 0 0 0
109200000 -0.6838996124001315 0.044854869425960814 2.2503795445997845 0.5847133053652923 0 0 0 0
113100000 -0.6232756059025538 0.04832439964277934 2.4476386558625953 0.9314767363187606 0 0 0 0
117000000 -0.4948346988440742 0.06062243654212556 2.7842866077630544 1.2489322229723536 0 0 0 0
120900000 -0.4004239518208816 0.0526609661948193 2.9336254844425356 1.8533476977262557 0 0 0 0
124800000 -0.3235452133975269 0.04805454872340102 3.1748037183888695 2.187361253876327 0 0 0 0
128700000 -0.14287086894335185 0.058429328443788404 3.4362688706077194 2.959183651754331 0 0 0 0
132600000 0.7621601549074226 0.4002486890340868 5.3537404359956104 7.271386190424651 0 0 0 0
136500000 0.7138239162643584 0.3866697024380148 4.973650675215404 6.565398455618882 0 0 0 0
140400000 0.7416274799839984 0.3773196499512167 4.77019382111293 4.982935362547799 0 0 0 0
144300000 0.7881050607103848 0.2838441927312856 4.973208255460387 5.0605299928317695 0 0 0 0
148200000 0.8102415060183968 0.2876921156433562 3.954669814795704 4.283400711483562 0 0 0 0
152100000 0.8233341375156186 0.27711306023680854 1.7089411111659847 2.352497262827472 0 0 0 0
156000000 0.8430962287566489 0.2435343994408203 2.574045700276741 3.945165227963008 0 0 0 0
159900000 0.8745432682825454 0.16518755247298905 1.0517427751032444 2.9701501059619084 0 0 0 0
163800000 0.8105518385036892 0.15677494518069268 0.707678226303378 2.4257499866104215 0 0 0 0
167700000 0.8357417074463108 0.10141268220443532 -0.14728683296394765 3.7530953291864084 0 0 0 0
171600000 0.8470439614944648 0.12861082424545067 -0.045307412090632104 3.667017041584892 0 0 0 0
175500000 0.8438364002099287 0.1167119061435531 -0.3526988808255957 3.364425794710183 0 0 0 0
179400000 0.8815515380495287 0.07748991508442163 -0.6321251063743565 2.435097858439287 0 0 0 0
183300000 0.9070938615454608 0.06680103136499257 -1.0709960069493303 2.977335638881133 0 0 0 0
187200000 0.8965346889565659 0.057710257098531545 -1.358836382089832 2.7859701751995214 0 0 0 0
191100000 0.8963512031215779 0.03996508505186298 -1.6967491854901462 2.48098950212801 0 0 0 0
195000000 0.9366983208326118 0.01769848945432648 -2.0279255971063055 2.0710385653712144 0 0 0 0
198900000 0.9633217717170783 0.015126492655223606 -2.2970992470914497 1.555447509733561 0 0 0 0
202800000 0.9915100783512047 -0.008301049970046003 -2.572796367619957 1.013381352391971 0 0 0 0
206700000 1.0095541053886843 -0.00020189331156642807 -2.623377047006743 0.8098407616631705 0 0 0 0
210600000 1.0478486451535816 0.008152439439256557 -2.727687466594373 0.31178519185791176 0 0 0 0
214500000 1.075567450037157 0.010198211788841685 -2.759348992416798 -0.19847573944311758 0 0 0 0
218400000 1.0948061751796057 0.024765656580712475 -2.4635824861703797 -0.8334677705727405 0 0 0 0
222300000 1.1325619472722965 0.055548215159666604 -2.3356649872708397 -1.4250984002504294 0 0 0 0
226200000 1.164971872080501 0.11283801705665993 -1.9045622191885925 -1.9281583923680312 0 0 0 0
230100000 1.1579350881272132 0.1607568154006502 -1.162593056114638 -2.4242385188374884 0 0 0 0
234000000 1.1493749997766685 0.21825320432233197 -0.3516913239036082 -2.5425960493149913 0 0 0 0
237900000 1.1067765171759774 0.2702800474492282 0.41803574915960723 -1.9459499009306833 0 0 0 0
241800000 1.0450115548100585 0.3085594864235717 0.6925157283581489 -1.1033405385221322 0 0 0 0
245700000 0.9738057301451011 0.32256584016000994 0.5297541104629208 -0.43369063844464195 0 0 0 0
249600000 0.8755598946066773 0.449603174213421 0.5470164965144363 -0.48101199597329775 0 0 0 0
253500000 0.85512686990367 0.2783869195642163 0.5723628002568909 -0.0656385957331631 0 0 0 0
257400000 0.8180913012804736 0.24203690839701708 0.8379643132771764 -0.04626437922308435 0 0 0 0
261300000 0.790991147283062 0.19542825315410486 1.0343969006560771 0.15539760379918677 0 0 0 0
265200000 0.7765591202745152 0.15759552040264413 0.9843012641035596 0.4504440007493228 0 0 0 0
269100000 0.7707514741575302 0.1201969126197194 0.8799928877087115 0.4981356847788212 0 0 0 0
273000000 0.7677839133812837 0.08388060837505347 0.6651014943419131 0.5155242042235624 0 0 0 0
276900000 0.7711652122820487 0.05361102900503864 0.4927142662452937 0.47949550741350416 0 0 0 0
280800000 0.774583170332872 0.020780560760725413 0.37001927843787497 0.33068528378381773 0 0 0 0
284700000 0.78597871342562 -0.008141108824471381 0.22078075594025023 0.22632676944463706 0 0 0 0
288600000 0.7951002099291867 -0.02830157254833532 0.10908063646814323 0.12428270316127861 0 0 0 0
292500000 0.8057473168855798 -0.04515311946782629 0.02450064816580994 0.00965245533231907 0 0 0 0
296400000 0.8242611951241049 -0.07020753591439582 -0.054241306554212526 -0.1338287339515368 0 0 0 0
300300000 0.8385877091226808 -0.07415309980951831 -0.07730332437615964 -0.2929839059012199 0 0 0 0
304200000 0.8478113162651008 -0.08954840494467094 -0.0721060549174908 -0.4318830102512889 0 0 0 0
308100000 0.8601979288687249 -0.09601185917902871 -0.06375334400052358 -0.5977030444036697 0 0 0 0
312000000 0.8475845973822881 -0.03622975162600333 -0.01282114038390142 -0.7630491984534632 0 0 0 0
315900000 0.7933928099712352 0.024816322919154934 0.031133569624241714 -0.927596191676139 0 0 0 0
319800000 0.7027211472732454 0.11641996531002648 0.10142927733762158 -1.0530131777242397 0 0 0 0
323700000 0.6518169062854126 0.14899341156504542 0.1684014421299751 -1.1482547314317983 0 0 0 0
327600000 0.5740218996742164 0.1683161193793256 0.133038022910141 -1.3082206200861177 0 0 0 0
331500000 0.5230366407024439 0.1862977499261819 0.8039094785264568 -1.1904219492326293 0 0 0 0
335400000 0.45515586356450455 0.17875018182349084 1.2984195464140535 -0.8302848334095235 0 0 0 0
339300000 0.4091308055975556 0.17977177604960431 1.4556222320325345 -0.5904167943203977 0 0 0 0
343200000 0.3831294808688219 0.15829035453586524 1.382518937564653 -1.5317380540555379 0 0 0 0
347100000 0.36588643595543086 0.14718792790490057 1.0354467657953927 -1.4943515233977078 0 0 0 0
351000000 0.33157829467058814 0.11431432747397563 0.9983071924579474 -1.4354707331191474 0 0 0 0
354900000 0.30176945270502437 0.10368851101548818 1.0547504694949217 -1.3849307734015375 0 0 0 0
358800000 0.2848024222024301 0.07486587737807782 1.0043424532813674 -1.5324632856971134 0 0 0 0
362700000 0.25980633503673217 0.052071229738338894 1.0880878740945457 -1.5418930397922317 0 0 0 0
366600000 0.24565772569149003 0.03395020988526742 1.1619168979641379 -1.556768831421177 0 0 0 0
370500000 0.235128134344494 0.006263218949773176 1.2075024892727775 -1.58074590143483 0 0 0 0
374400000 0.21776330294764684 -0.014562953201053575 1.2734234912413243 -1.5460724328833115 0 0 0 0
378300000 0.20171088625209913 -0.03251128830043994 1.325285724767762 -1.5498090799175828 0 0 0 0
382200000 0.1890635147636462 -0.05177090201475224 1.3893157163620573 -1.5404281849600052 0 0 0 0
386100000 0.18730678853380905 -0.06251624404065458 1.4461399478587316 -1.5165469365860653 0 0 0 0
390000000 0.17692237463363525 -0.08890348221292203 1.3830960766559321 -1.499297155854571 0 0 0 0
393900000 0.17825081918352215 -0.11940765403811128 0.9864477604079085 -1.3558926246564291 0 0 0 0
397800000 0.1846379839054126 -0.13012768001353225 1.4339865948804056 -1.4364018607781999 0 0 0 0
401700000 0.2305685793721653 -0.1482363846878899 1.9669227846143365 -1.7070231107111935 0 0 0 0
405600000 0.35720063103077754 -0.14859896555633198 2.068000086937586 -1.7857406044937494 0 0 0 0
409500000 0.866134539457524 -0.18363874887326745 3.1618943729016467 -2.6385278275455017 0 0 0 0
413400000 1.1099507966552082 -0.2204439861462932 3.6052682421401885 -3.273947455294113 0 0 0 0
417300000 1.0848215567030053 -0.23892751401808077 1.993476957292187 -2.119102316005558 0 0 0 0
421200000 1.0481379533393516 -0.23912902038427764 2.370099281187619 -1.7621198756717498 0 0 0 0
425100000 1.0511131447492232 -0.2567047272746027 3.0326439186600638 -1.7821990541457686 0 0 0 0
429000000 1.0592751346049818 -0.24265582033053906 2.831491409817538 -2.1033248886465605 0 0 0 0
432900000 1.0681701241164494 -0.2759656714780436 2.626861748625963 -2.20314702594188 0 0 0 0
436800000 1.0593956416497259 -0.27855635677128604 2.406842000457897 -2.2172086173799364 0 0 0 0
440700000 1.074516004501043 -0.2913943653935671 2.2861037189707933 -2.287782297108363 0 0 0 0
444600000 1.0694406383746053 -0.28867476049733976 2.1919390561159533 -2.2553616205732987 0 0 0 0
448500000 0.9261343257963489 -0.2768559307919627 1.9722688551206575 -2.00821596919288 0 0 0 0
452400000 0.7764812860929484 -0.28560695631807587 1.8398038753054755 -1.750257714242541 0 0 0 0
456300000 1.0816478759383685 -0.2861908734248191 1.9184760061616597 -2.0983331116561574 0 0 0 0
460200000 1.080908160557149 -0.2759672808761303 1.8219649594933398 -2.0212029292381732 0 0 0 0
464100000 1.0853044884372858 -0.2863156917292734 1.7950983684508237 -1.9759277945911577 0 0 0 0
468000000 0.832648708724749 -0.3136458635054452 1.6968375913032483 -1.5574895201724979 0 0 0 0
471900000 0.8243988528349224 -0.33375442664165494 1.6754733211102686 -1.410577046620527 0 0 0 0
475800000 0.9741748944168782 -0.2829436409044778 1.7309025821279576 -1.6228644014654785 0 0 0 0
479700000 1.0783851509454583 -0.2845216945551093 1.5357708918646276 -1.360587496406716 0 0 0 0
483600000 1.099948556928298 -0.31603769509095336 0.18730522466151078 -1.324470418368692 0 0 0 0
487500000 1.105485645364308 -0.3034905638429357 0.12787864061164 -1.070555279579279 0 0 0 0
491400000 1.0931670735778487 -0.31012341742499616 -0.03405965991801402 -0.7877319465433776 0 0 0 0
495300000 1.0643934575953264 -0.30381489798769756 -0.0643024727769414 -0.5468863476550538 0 0 0 0
499200000 1.0626594391616135 -0.3050271040018665 -0.10018736485557336 -0.547304799777969 0 0 0 0
503100000 1.0648551923291503 -0.2926919690745222 -0.1499723495864999 -0.6355822936877944 0 0 0 0
507000000 1.0815820621507337 -0.276700290065039 -0.1347148008872118 -0.7845682976656833 0 0 0 0
510900000 1.0747299856962245 -0.2693419029994121 -0.10174969376686055 -0.9443902067879402 0 0 0 0
514800000 1.06773392334354 -0.24927313370060655 0.20342226032632582 -1.1357152751563786 0 0 0 0
518700000 1.0581481079127004 -0.2295544793873194 0.9053758835392087 -1.0846547972150138 0 0 0 0
522600000 1.0514329497346218 -0.2308919117677685 0.9386587110562762 -1.371887800398226 0 0 0 0
526500000 1.0347206570283796 -0.2226218303992364 1.262238670406658 -1.2966689894758425 0 0 0 0
530400000 1.0247258237321795 -0.23183444941237535 1.3316023962813148 -1.4662055242094758 0 0 0 0
534300000 1.0051986487528501 -0.31310039111091914 1.2801472840128139 -1.792636814452921 0 0 0 0
538200000 0.99430671715889 -0.3069510054561645 1.0625310910575463 -1.721305323593643 0 0 0 0
542100000 0.9977759033169065 -0.24988822526289253 0.9334437457742062 -1.6622325111066263 0 0 0 0
546000000 0.9962663375762032 -0.25738513869001667 0.8469299612318923 -1.626115741774295 0 0 0 0
549900000 0.9848641560641117 -0.2672277866807351 0.7508673372040802 -1.5690930881815777 0 0 0 0
553800000 0.9784877072151945 -0.2749720373014045 0.6687235098812394 -1.5576865400629347 0 0 0 0
557700000 0.9688136681304662 -0.2798732938740812 0.5972910780232348 -1.511404823992829 0 0 0 0
561600000 0.9552592967811875 -0.29520180040076127 0.4816747191323925 -1.5024911950891453 0 0 0 0
565500000 0.9191480782246652 -0.3013110707459485 0.3826739170308243 -1.5117210207611966 0 0 0 0
569400000 0.8999679273521999 -0.301754020593742 0.29985942749323724 -1.4876930239571324 0 0 0 0
573300000 0.9090221871040421 -0.3249384380173888 0.31265243348079064 -1.44635446271499 0 0 0 0
577200000 0.9605517683115481 -0.3496976979090912 0.5406247648971871 -1.370956069555264 0 0 0 0
581100000 0.9581021494931691 -0.3687029866359902 0.2667124890950417 -1.3947557843302976 0 0 0 0
585000000 0.9554173382294068 -0.38332133781585415 0.12734096686639712 -1.3394559885105566 0 0 0 0
588900000 0.9540927911072458 -0.40425162672431453 0.0905899108719313 -1.3003812007942295 0 0 0 0
592800000 0.9611990499681698 -0.4076397607069663 0.11845835279727901 -1.3980395905558318 0 0 0 0
596700000 0.9564847707367892 -0.4180622597617117 0.08340130545005225 -1.421887918019073 0 0 0 0
600600000 0.9674486141489028 -0.4379562576939194 0.06711723972608064 -1.4654459492228753 0 0 0 0
604500000 0.9650107644871939 -0.45238930829015317 0.06078312692264626 -1.4992490544586696 0 0 0 0
608400000 0.96775325163081 -0.46374737511719016 0.04933261241893036 -1.541269685266787 0 0 0 0
612300000 0.9861867792089898 -0.4792594957933579 0.05204647605449601 -1.6210881328127327 0 0 0 0
616200000 0.9804208442007569 -0.4853427750939652 0.04807304982060997 -1.6257606152303599 0 0 0 0
620100000 0.9834507328220687 -0.5009103232438522 0.046259746690656134 -1.6943900753621894 0 0 0 0
624000000 1.002512715113472 -0.5243189791176431 0.0375738469735052 -1.7598549921868722 0 0 0 0
627900000 0.9900547180461676 -0.5419972112063572 0.020802007611952264 -1.8282831335054182 0 0 0 0
631800000 1.0185743811368464 -0.5497319537601228 0.03957755308735994 -1.9271602637995793 0 0 0 0
635700000 0.9942270862461208 -0.5653056513475421 0.030304685645824114 -1.9736909789609034 0 0 0 0
639600000 0.9971525956215778 -0.5794910441099953 0.017080633154290925 -2.029597191251807 0 0 0 0
643500000 1.0037290310018137 -0.5937089981925291 0.004554338522057777 -2.083976928468257 0 0 0 0
647400000 0.9980585142197541 -0.6357225742763256 -0.22172235996524314 -1.9691301517950468 0 0 0 0
651300000 0.9804618632658871 -0.64392112037301 -0.29818689236333584 -1.7919948400473469 0 0 0 0
655200000 0.9706847574012809 -0.6553759095613199 -0.2408116170221657 -1.8075279845671781 0 0 0 0
659100000 0.9675363516125046 -0.6743139739627756 -0.16827495093931177 -1.9743628273368572 0 0 0 0
663000000 0.9581103790437111 -0.6846394929455455 -0.10533157881333077 -2.2321855078756343 0 0 0 0
666900000 0.963355352518642 -0.6959691872757349 -0.09066566268658904 -2.526029440101096 0 0 0 0
670800000 0.9648506589183786 -0.6984842978430957 -0.04267908052838498 -2.7747904406931028 0 0 0 0
674700000 0.9711974300664233 -0.7015709127997033 -0.0011301817632423106 -2.966078576484685 0 0 0 0
678600000 0.9788540780493024 -0.7166590912294242 0.016701102388654743 -3.1135533031189464 0 0 0 0
682500000 0.9922988999741897 -0.7197144095748176 0.046152686713705204 -3.2273784818578504 0 0 0 0
686400000 0.9909970985203042 -0.7243580306518164 0.04172964986785699 -3.296039038425529 0 0 0 0
690300000 0.9782463867555845 -0.7268896563045787 -0.004652743441343032 -3.3151494865217206 0 0 0 0
694200000 1.0089814833230797 -0.7293275662236599 0.02359978650596517 -3.4227857764859877 0 0 0 0
698100000 0.9902525875572115 -0.753521773403595 -0.08156700856545074 -3.4284656422291886 0 0 0 0
702000000 1.0029216145186681 -0.7460902181283244 -0.045658180634820855 -3.386403018838079 0 0 0 0
705900000 1.0005042448039343 -0.7373676938166218 0.07642906658336224 -3.1484843031115997 0 0 0 0
709800000 0.985955305445269 -0.7270600394785255 0.3398950640986951 -2.614863147882608 0 0 0 0
713700000 0.9849675577910113 -0.7334446543609318 0.317230836257798 -2.541599708638841 0 0 0 0
717600000 0.9863805291951977 -0.7402034751238976 0.274599428444565 -2.7066900641562857 0 0 0 0
721500000 0.9823847253173037 -0.7659203942872197 0.0488368374659065 -2.675886902224862 0 0 0 0
725400000 1.009553055573354 -0.8104434403627097 -0.3092682906788664 -2.5065465003002974 0 0 0 0
729300000 1.0016457548877937 -0.7942772119889097 -0.09737099602119792 -2.2328240936685084 0 0 0 0
733200000 1.0045768244238324 -0.7816132168855544 0.10227673127740156 -2.006474900976148 0 0 0 0
737100000 1.0103249366866442 -0.7745657265461814 0.17909931498143228 -1.7870812465790036 0 0 0 0
741000000 0.8885519790604944 -0.88548242584463 -0.5943000608172619 -0.975507211347859 0 0 0 0
744900000 0.5791283122048824 -0.9726630129614438 -0.7629167442818154 -1.0431557601725934 0 0 0 0
748800000 0.6132597610468842 -0.9772870209998874 -0.6382654785926352 -1.0530250066069577 0 0 0 0
752700000 0.6877913435129299 -0.9614948844206395 -0.47727239467995713 -1.0831399324192637 0 0 0 0
756600000 0.7830392310058821 -0.9326639822424704 -0.33233195896386847 -1.0572429866903759 0 0 0 0
760500000 0.8619564383897983 -0.9054971301217349 -0.42870069300556524 -0.9493042398524905 0 0 0 0
764400000 0.9385688236220378 -0.8698330722318103 -0.4641031434849604 -0.9305384957672231 0 0 0 0
768300000 1.0033596402736138 -0.7772907139333057 -0.2326506174840809 -0.9591227477650986 0 0 0 0
772200000 1.0131008985814811 -0.7546864726358662 0.0676802812703054 -1.0739593952089024 0 0 0 0
776100000 1.0054619620413263 -0.7222410931960961 0.2636051585769187 -1.1593382184006957 0 0 0 0
780000000 1.005192515145907 -0.7122360460697501 0.21116362552423396 -1.2936251948320932 0 0 0 0
783900000 1.0010140015106437 -0.7090094534073654 0.1754524776697981 -1.4804646241806751 0 0 0 0
787800000 0.9906827515996917 -0.702124066173113 0.1589081444698407 -1.6884199550244994 0 0 0 0
791700000 0.9905799290302333 -0.7080761278589391 0.1805793497270055 -1.8962936495242588 0 0 0 0
795600000 0.9840868226517537 -0.7098627635435953 0.15160549201759976 -1.8728302091462534 0 0 0 0
799500000 0.9855893953998517 -0.7195154351198585 0.03010188944910419 -1.8005757861725376 0 0 0 0
