#  HZ   S   RI   R     50.00 
! Rohde & Schwarz Vector Network Analyzer 
! Rohde-Schwarz,ZNL20-2Port,1323001220101312,1.72.1.6-23.02.1.246
! Created: UTC 10/7/2024, 7:40:28 PM
! freq[Hz]                re:S11                  im:S11                  re:S21                  im:S21                  re:S12                  im:S12                  re:S22                  im:S22
 3.900000000000000E6     1.010183432780546      -6.857043030687415E-3    1.719610368292569      -1.997812306421848E-2    8.319325237773158E-6    1.926269964641595E-5   -9.969431904358507E-1    7.459604403347760E-3
 3.926536969490964E6     1.010309916277512      -6.919799648473522E-3    1.719830055975088      -2.250345886254437E-2   -1.977202186152768E-6   -1.212285780646236E-5   -9.969904880784415E-1    7.539411139669831E-3
 3.953254505840832E6     1.010349857392648      -6.971393810396955E-3    1.720714863917338      -2.311729796122982E-2    5.811331384233391E-6    2.485752227976709E-6   -9.970188580082749E-1    7.630644968246106E-3
 3.980153837689935E6     1.010487703138803      -6.822535181890035E-3    1.716862273405058      -2.295513260587640E-2    3.366620282325435E-6    1.278124606009972E-5   -9.969193220624805E-1    7.580575007793438E-3
 4.007236202038682E6     1.010453646081852      -6.885581603463316E-3    1.717472462529986      -2.064932380551759E-2    1.559560019764193E-5   -8.531679034365414E-7   -9.970252547623991E-1    7.623995644944022E-3
 4.034502844304462E6     1.010538351133362      -6.955241969649105E-3    1.717893678970466      -2.014142877238537E-2   -1.065452683123068E-7    1.129803952459816E-5   -9.970169420343385E-1    7.754065692687451E-3
 4.061955018378951E6     1.010139965164138      -6.993282960957089E-3    1.717377472060513      -2.208969558079110E-2   -9.403901113443694E-6    2.162329648869630E-6   -9.956987490254542E-1    7.864714785731527E-3
 4.089593986685715E6     1.010175542706962      -7.067765492317154E-3    1.716414451411923      -1.991212726765458E-2    9.379447364028152E-7    1.534904911103918E-5   -9.957654300371550E-1    7.832889105273039E-3
 4.117421020238296E6     1.010123401457929      -7.350209550537238E-3    1.715904205663780      -2.258597939314937E-2    1.387072644067956E-5    2.555764730723644E-8   -9.959042721310587E-1    7.872055311368604E-3
 4.145437398698682E6     1.010207966142468      -7.237904677963867E-3    1.718161750890417      -2.344682762672807E-2    1.133530974739971E-5   -9.380920137020380E-6   -9.956936504159819E-1    8.028647234204694E-3
 4.173644410436107E6     1.010251158679536      -7.034455178706769E-3    1.718999549956908      -2.249338633602119E-2    1.500189139394040E-5   -2.476029805867903E-6   -9.957763254000386E-1    8.124655640556625E-3
 4.202043352586321E6     1.010066088533882      -7.273418348675437E-3    1.720382475861129      -2.280113543200690E-2   -5.988866895767348E-6    7.304738998410125E-6   -9.958443402541562E-1    8.195252368348583E-3
 4.230635531111264E6     1.010198836582243      -7.292353327716266E-3    1.717972100490342      -2.222536979419259E-2    1.791764918398030E-6   -7.359730654390625E-7   -9.959072985686083E-1    8.207138761923676E-3
 4.259422260859069E6     1.010076457977533      -7.489090737214483E-3    1.719656201399230      -2.372661506442872E-2   -1.087453201529421E-5    8.075221923650976E-6   -9.957363539291620E-1    8.290578025077858E-3
 4.288404865624593E6     1.010076123058737      -7.419008600584356E-3    1.719901953269078      -2.124831971091190E-2   -2.229829700535817E-6    1.797070679135449E-5   -9.959648084979279E-1    8.350347587328768E-3
 4.317584678210226E6     1.010094181901256      -7.424387942911020E-3    1.720336955525780      -2.258029759922777E-2    6.083957516894111E-6    6.802672719349905E-6   -9.959133062030908E-1    8.508930873713948E-3
 4.346963040487220E6     1.010000428138533      -7.462870827950907E-3    1.717220252217454      -2.539836764053501E-2   -1.365206470757130E-6    7.408853848560366E-6   -9.959080291774798E-1    8.681780123931237E-3
 4.376541303457410E6     1.010162629756151      -7.513414576294592E-3    1.720352557395505      -2.584187898067671E-2   -1.785809649545855E-6    1.243116375618652E-5   -9.958653498695054E-1    8.700014203233996E-3
 4.406320827315303E6     1.010043010902617      -7.716847167699234E-3    1.721444380426717      -2.573530406975487E-2    1.058414788989572E-5   -4.936711386242593E-6   -9.958963712473741E-1    8.572216016259543E-3
 4.436302981510641E6     1.010001996328186      -7.663090958197481E-3    1.717408995833290      -2.480386908394997E-2    4.652766935874906E-6    5.009710774363670E-6   -9.960749065505152E-1    8.771850540468716E-3
 4.466489144811413E6     1.010020829993799      -7.700427836043983E-3    1.719806375388664      -2.317153239800308E-2   -3.913575671309521E-6    4.359747741729792E-6   -9.960236281110905E-1    8.880833280106594E-3
 4.496880705367200E6     1.009995061256912      -7.859984229906827E-3    1.718157749575376      -2.806671466905116E-2    1.312881521567220E-5   -1.348901199303344E-5   -9.962183005427121E-1    9.013538742966426E-3
 4.527479060773043E6     1.010264334782940      -7.760153483774680E-3    1.719870467892947      -2.627008193748562E-2    1.816569149570980E-5    2.912008484096690E-5   -9.965071581818142E-1    8.892192894036949E-3
 4.558285618133736E6     1.010181143712662      -7.947677539114406E-3    1.718495793692267      -2.561006788980292E-2    4.570857646764530E-6    1.451603487226622E-5   -9.965223000209723E-1    9.027621052704807E-3
 4.589301794128480E6     1.010068992907050      -7.791713492142760E-3    1.718425245770834      -2.735020892929164E-2    3.387326477132619E-6    2.037193448340705E-6   -9.964820059256291E-1    9.083615452101830E-3
 4.620529015076061E6     1.010166053212160      -7.957179749220892E-3    1.719684612422457      -2.636819574654927E-2    1.272712522869709E-5   -1.550227479338994E-5   -9.965202488461840E-1    9.141091363323740E-3
 4.651968717000465E6     1.010140156686877      -7.862905120279793E-3    1.718703111550326      -2.725328507405744E-2    4.718256538528452E-6    1.269444817381849E-6   -9.964265628790407E-1    9.428068914240532E-3
 4.683622345696862E6     1.009990395943924      -8.050466847573391E-3    1.718802139680922      -2.574939116930547E-2    2.689136121546522E-6    1.329421578896926E-5   -9.966215837410500E-1    9.252145505591520E-3
 4.715491356798120E6     1.010140441768506      -8.059283239279461E-3    1.719312926402739      -2.752661656997279E-2   -8.225398015429522E-6    1.386160765444820E-5   -9.965728214714059E-1    9.446471065011860E-3
 4.747577215841772E6     1.009990734308972      -8.207161209362192E-3    1.717567056088775      -2.747139016822247E-2    1.450688294318965E-5   -6.747030361680252E-6   -9.965868218179292E-1    9.468153334700873E-3
 4.779881398337356E6     1.009859937760351      -7.853314999515306E-3    1.717111672360705      -2.908678697813396E-2    1.353853853825784E-6   -4.946453208604928E-6   -9.965409832874400E-1    9.528677902795289E-3
 4.812405389834293E6     1.010093900955933      -8.352899826885394E-3    1.716556480765515      -2.769170179068909E-2   -2.995306290133833E-6    7.732735750249711E-6   -9.966582793413976E-1    9.731530891976441E-3
 4.845150685990234E6     1.010092995331304      -8.344766688006695E-3    1.715849222738791      -2.743772229078893E-2    4.569995370893490E-6    1.137944452082970E-5   -9.965043083505010E-1    9.679442541700086E-3
 4.878118792639771E6     1.009986601074833      -8.494034476323110E-3    1.716496867060081      -2.699402709767655E-2   -5.715079902314804E-6    4.539648777898218E-6   -9.967046420189665E-1    9.735335899024835E-3
 4.911311225863763E6     1.010287341270201      -8.382421333216723E-3    1.717422446433501      -2.826851063271814E-2    1.409943476278923E-5    6.402643982456235E-8   -9.972916022074096E-1    9.891687414820164E-3
 4.944729512058984E6     1.010163412413890      -8.446638640410436E-3    1.714583158901338      -2.693382771401803E-2    6.841335869447969E-6    1.135291728388993E-6   -9.974188703790963E-1    9.846506451258038E-3
 4.978375188008349E6     1.010354574026479      -8.484649266162757E-3    1.713725452738964      -2.738817239124056E-2    1.464430077181820E-5    9.600255711277896E-6   -9.972095608350008E-1    9.968646797015437E-3
 5.012249800951616E6     1.010317619851016      -8.390208316110405E-3    1.715415997323145      -2.758549542747486E-2   -2.593371682668096E-6    5.149749773691719E-6   -9.972604767564458E-1    1.012665428209632E-2
 5.046354908656470E6     1.010190395387182      -8.594100943331240E-3    1.716810112598187      -2.786639506705246E-2    9.834697715491827E-6    7.799736126942515E-6   -9.975123948803506E-1    1.008064146850865E-2
 5.080692079490198E6     1.010080682868442      -8.528200987519370E-3    1.716325862785085      -2.926866959828946E-2    6.089608646975955E-6    8.849874161870736E-7   -9.972937511207416E-1    1.034498175252198E-2
 5.115262892491839E6     1.010104295070560      -8.621724071483729E-3    1.715689441762344      -2.907058846304965E-2    4.209082550395960E-6   -8.800662406654560E-6   -9.973408138622635E-1    1.026533735185272E-2
 5.150068937444737E6     1.009796871806878      -8.823860661460726E-3    1.716545928521441      -2.790517311758178E-2    1.269926305022622E-5    9.806888149949853E-6   -9.964297376212174E-1    1.049601475064340E-2
 5.185111814949680E6     1.009718823921623      -8.763260175274710E-3    1.713359853302618      -2.735385360721048E-2    7.779869494964257E-6    7.660608330606004E-7   -9.962839648896442E-1    1.067687276444660E-2
 5.220393136498538E6     1.009713018503553      -8.918730927249529E-3    1.714858998522929      -2.952051964501928E-2   -6.874486740906963E-6    7.716678502073413E-6   -9.965091453618035E-1    1.063425328932733E-2
 5.255914524548303E6     1.009530294544506      -8.902611866667236E-3    1.715398489948969      -2.867580595926573E-2    2.972287328564301E-6    7.631746584667042E-6   -9.965079944485942E-1    1.066902307519273E-2
 5.291677612595739E6     1.009480889558350      -8.991759718422648E-3    1.713654394515429      -3.181058085728815E-2    7.044097269338261E-6    2.158993707615929E-5   -9.965675889142758E-1    1.079248387777333E-2
 5.327684045252522E6     1.009560177893882      -9.165255135197911E-3    1.713684131576264      -2.701913205758470E-2    2.107169264545209E-5    1.160477310091434E-5   -9.965287764220662E-1    1.092985997645560E-2
 5.363935478320817E6     1.009565597205426      -9.129172001300923E-3    1.716924384785436      -2.720389542202488E-2   -5.747092181861626E-6   -4.820435950735700E-6   -9.964829477214564E-1    1.103567476729698E-2
 5.400433578869442E6     1.009508225248268      -9.312287310981146E-3    1.713993086418626      -3.205822549775242E-2   -2.851236082910473E-6   -6.102950408664943E-6   -9.965875339078630E-1    1.111262218615350E-2
 5.437180025310577E6     1.009589359658294      -9.200192620725843E-3    1.715253500043856      -3.148874727894877E-2    6.649407105587677E-6    7.702861338044207E-7   -9.966266438698108E-1    1.121532347676668E-2
 5.474176507476867E6     1.009401997336866      -9.306304562333301E-3    1.716138157426432      -3.130253136771757E-2    9.508793396011408E-6   -2.744765272352676E-6   -9.966050498237132E-1    1.132483813670001E-2
 5.511424726699176E6     1.009766243634726      -9.341875006691388E-3    1.717035912947549      -3.257383737811940E-2    1.128754825342173E-5    2.784563921157920E-6   -9.979588638129693E-1    1.166391909461338E-2
 5.548926395884855E6     1.009787310542413      -9.378099767265266E-3    1.718337812580890      -3.305551626436203E-2    1.362772150393915E-5   -1.448761030506193E-5   -9.979991309155899E-1    1.176076613612559E-2
 5.586683239596430E6     1.009727090978274      -9.417846010134840E-3    1.716022826366711      -3.246266745941492E-2   -2.604900858932654E-6    4.068503708458681E-6   -9.979810721931639E-1    1.176173465473465E-2
 5.624696994131004E6     1.009767641549357      -9.379404725222914E-3    1.717588549120882      -3.223399564801333E-2    1.141281218456058E-5    4.000804956170800E-6   -9.981573921094925E-1    1.181909643531400E-2
 5.662969407600018E6     1.009729269000442      -9.630668333627022E-3    1.713379654485168      -3.220361406955841E-2   -5.437274204194968E-6    5.978201046341197E-6   -9.980795520019053E-1    1.192026923227161E-2
 5.701502240009680E6     1.009582119539822      -9.524927325173632E-3    1.711819703931254      -3.138824714701801E-2    1.441997698205405E-5    2.768620203425918E-6   -9.981250820264798E-1    1.186328719268097E-2
 5.740297263341933E6     1.009768491433715      -9.456656594945831E-3    1.715486070883628      -3.158309830565915E-2   -5.624752779362842E-6    6.266851443851884E-6   -9.980961058171300E-1    1.202583207739626E-2
 5.779356261635871E6     1.009639497573813      -9.753958867794333E-3    1.713849471702853      -3.245805714044490E-2    3.194697959245900E-6   -1.091460097428733E-6   -9.980533787914745E-1    1.210867309788333E-2
 5.818681031069814E6     1.009629116029837      -9.707401923964635E-3    1.712616841262230      -3.326504579502021E-2    1.193251043706401E-5   -1.507644327539893E-6   -9.980011445002922E-1    1.222919776020321E-2
 5.858273380043952E6     1.009549450489467      -9.799250858392115E-3    1.715384453989388      -3.341929683911973E-2    5.233721073315047E-6   -4.086664191756423E-6   -9.980887406361757E-1    1.237357570413885E-2
 5.898135129263422E6     1.009492625084686      -9.872760462304656E-3    1.713767620194917      -3.320968932046602E-2   -3.073079507338006E-6    9.402256265854192E-6   -9.980425752318342E-1    1.247276319423612E-2
 5.938268111822085E6     1.009676456437690      -9.907240689388277E-3    1.711859783021716      -3.347284488345294E-2    1.508701551094030E-5    2.784962294918663E-6   -9.980076834109082E-1    1.264398395655502E-2
 5.978674173286848E6     1.009564681941683      -9.885276690757169E-3    1.710439406388461      -3.339699012736240E-2    9.686298587689247E-6   -9.765723141081808E-6   -9.980747736195127E-1    1.269762268812637E-2
 6.019355171782466E6     1.009534593683144      -1.017500951534237E-2    1.710524927463156      -3.458902593121131E-2    5.684339485424308E-6    3.962460101793351E-6   -9.980207976845821E-1    1.285713453784268E-2
 6.060312978077031E6     1.009352879273313      -1.005374704500728E-2    1.710937527534774      -3.563958152113469E-2    1.034539939085338E-5   -4.350854637315839E-7   -9.981380634370979E-1    1.289439701405860E-2
 6.101549475668033E6     1.009343824481396      -1.016315473275313E-2    1.710487905387051      -3.412566684952360E-2   -2.275746094962936E-6    6.525810462032977E-6   -9.979586555548341E-1    1.301780978225879E-2
 6.143066560868903E6     1.009340438324875      -1.026410652088530E-2    1.711386698666705      -3.463396403396563E-2    2.907635636208261E-6   -3.063743292278742E-6   -9.980883324793191E-1    1.316694998190390E-2
 6.184866142896255E6     1.009294803511001      -1.035446077342577E-2    1.710840449456783      -3.402299729825638E-2    1.106481211698042E-5    7.661713999418365E-7   -9.980950088788346E-1    1.301259862744159E-2
 6.226950143957722E6     1.009229518285928      -1.052889896488397E-2    1.710333052821936      -3.509396661775611E-2    2.942761317580627E-6    6.502811692086642E-6   -9.981343549485258E-1    1.326732188662671E-2
 6.269320499340272E6     1.008872975691354      -1.056794411726879E-2    1.711317374143545      -3.491820526350842E-2    5.323402928235631E-6    1.029411714086629E-6   -9.969009225979752E-1    1.328855701697005E-2
 6.311979157499246E6     1.008846156092493      -1.065758717654043E-2    1.710946500682548      -3.694385958757418E-2    2.960781453861876E-6    6.674949495232568E-6   -9.970274160942140E-1    1.350638049527427E-2
 6.354928080148001E6     1.008895463049980      -1.074546190309180E-2    1.709710269168937      -3.852327889487216E-2    5.939966893284468E-6    5.904377049858149E-6   -9.970461799488817E-1    1.357529501371478E-2
 6.398169242348038E6     1.008703690401973      -1.089637549837677E-2    1.710707172633835      -3.602813962682094E-2    1.169589190169226E-5   -6.707737865956310E-6   -9.969846832033983E-1    1.363584322693258E-2
 6.441704632599870E6     1.008759713491138      -1.084032020863046E-2    1.711222764001060      -3.632902297150704E-2   -4.056112052710871E-6   -5.167444687244013E-7   -9.969751039089010E-1    1.384919785228701E-2
 6.485536252934507E6     1.008689702856589      -1.101459746103720E-2    1.710391492771684      -3.881563213903960E-2    1.173001102605938E-5    4.461903874678334E-6   -9.969562181298302E-1    1.387369979409761E-2
 6.529666119005430E6     1.008644044666857      -1.103707263069056E-2    1.709103184713815      -3.737787012461698E-2   -2.872134628580045E-6   -1.965229544242373E-6   -9.970232619019057E-1    1.407519721628470E-2
 6.574096260181381E6     1.008633807955535      -1.114337074226521E-2    1.708527888094396      -3.681195171856751E-2    1.465552408681732E-5    4.493801177182944E-6   -9.971122527481182E-1    1.410126914797873E-2
 6.618828719639606E6     1.008675690331458      -1.113151226712062E-2    1.710671597831925      -3.606778121114393E-2    5.834332369965618E-7    2.448823156021127E-6   -9.970796487105077E-1    1.415422609915073E-2
 6.663865554459843E6     1.008731536302575      -1.130904604976706E-2    1.708061144612782      -3.800787349553768E-2    6.513339079436922E-6    3.279147417580188E-6   -9.971081901202717E-1    1.434848032788902E-2
 6.709208835718963E6     1.008505117121610      -1.131154578452841E-2    1.708026380204374      -3.757454691955694E-2    1.249335219997432E-5    3.666055652308358E-6   -9.971172526682776E-1    1.457252368731055E-2
 6.754860648586133E6     1.008553319230000      -1.140608193803804E-2    1.707891511015972      -3.681351918530816E-2   -1.429188472176803E-5    5.260630629631112E-6   -9.970884698065843E-1    1.471004594935558E-2
 6.800823092418741E6     1.008330051034510      -1.147977001034242E-2    1.705231664813014      -3.866800740966310E-2    2.352306260161411E-6   -4.745221655020310E-6   -9.971829303811890E-1    1.466346544425313E-2
 6.847098280858982E6     1.008480256559612      -1.157261472132080E-2    1.706695577398954      -4.021103073915933E-2    2.312173578165299E-6    2.214441631400132E-6   -9.971084756518801E-1    1.489821855557299E-2
 6.893688341930975E6     1.008401802557665      -1.169739658891437E-2    1.704615215941842      -3.843469307665367E-2    7.706678199298309E-6   -9.154373644454992E-6   -9.970392596444555E-1    1.507345525813945E-2
 6.940595418138658E6     1.008326753435052      -1.178413552969186E-2    1.705573959688582      -3.936458941957250E-2    1.446321994433032E-5    6.890711603425824E-6   -9.971125589650647E-1    1.506176634100280E-2
 6.987821666564363E6     1.008326473563788      -1.185900047836120E-2    1.703439900740328      -4.034689665078659E-2    1.123599844801789E-6   -2.768206395776811E-6   -9.970622974210767E-1    1.510838015153495E-2
 7.035369258967927E6     1.008293988314536      -1.199359519132217E-2    1.705013385543116      -4.147583089055954E-2    1.237935880236102E-5   -7.335841721872969E-6   -9.970617827935494E-1    1.536825359738561E-2
 7.083240381886600E6     1.008183567810117      -1.183139296498050E-2    1.702500202001047      -4.250395954950366E-2    9.841375146737415E-6   -3.429625666019133E-6   -9.971330350718476E-1    1.551164039188447E-2
 7.131437236735644E6     1.008302974464457      -1.202748144754248E-2    1.702685562196543      -4.064202552349237E-2    1.425509257281192E-5   -2.664928315121656E-6   -9.972110905827509E-1    1.544900788661333E-2
 7.179962039909479E6     1.008070727129288      -1.207859996236115E-2    1.701776946841269      -3.949404524101952E-2   -4.312359734574479E-7   -4.687469943861254E-6   -9.970831459481689E-1    1.558743807084068E-2
