#  HZ   S   RI   R     50.00 
! Rohde & Schwarz Vector Network Analyzer 
! Rohde-Schwarz,ZNL20-2Port,1323001220101312,1.72.1.6-23.02.1.246
! Created: UTC 10/7/2024, 7:16:00 PM
! freq[Hz]                re:S11                  im:S11                  re:S21                  im:S21                  re:S12                  im:S12                  re:S22                  im:S22
 3.900000000000000E6     1.010116343726711      -6.728709499962634E-3    1.792995478907477      -1.961712000404021E-2   -3.511811472455988E-6   -8.228461247744800E-6   -9.895786923918707E-1    7.801314302904850E-3
 7.800000000000000E6     1.007308474816034      -1.270960706515219E-2    1.782797902679176      -4.573568973600815E-2    6.331040005359427E-6   -3.798156021570342E-6   -9.907025194240642E-1    1.774475724235710E-2
 1.170000000000000E7     1.004242390255592      -1.964142327969834E-2    1.760498981883994      -6.331112528634877E-2   -1.080610811026995E-5    1.347806878058857E-6   -9.893403994923400E-1    2.718789599871532E-2
 1.560000000000000E7     1.002129877472241      -2.658941327039259E-2    1.745721384427385      -8.194412095049487E-2   -3.137391827819337E-5   -8.790894483954730E-6   -9.886109470639501E-1    3.625404718412353E-2
 1.950000000000000E7     1.000345964226848      -3.332995924176833E-2    1.740240683232909      -1.000069467859109E-1   -4.433001349943955E-5   -8.688695369469095E-6   -9.878627406093256E-1    4.515780951909780E-2
 2.340000000000000E7     9.986129554793803E-1   -4.006373843430263E-2    1.746699306356976      -1.175701652564332E-1   -7.988730256042145E-5   -4.160732386316525E-6   -9.874402973149732E-1    5.377637934359687E-2
 2.730000000000000E7     9.971212524562894E-1   -4.667558993529559E-2    1.749503510065211      -1.355055978429539E-1   -1.081918688710492E-4    4.988912778417432E-6   -9.867762760693074E-1    6.182968850537438E-2
 3.120000000000000E7     9.955920552013861E-1   -5.330397350568447E-2    1.749621708920197      -1.540259165973253E-1   -1.457619352548778E-4    1.704489729158705E-5   -9.861185683480800E-1    6.990478092622049E-2
 3.510000000000000E7     9.943316623392592E-1   -6.004800265383898E-2    1.756738880005001      -1.745963812961350E-1   -1.748526506235839E-4    1.966324234194196E-5   -9.855059120473797E-1    7.831857786015411E-2
 3.900000000000000E7     9.932013781379129E-1   -6.691843877255214E-2    1.757904588666626      -1.945966979665499E-1   -2.187441419372965E-4    2.333132254153087E-5   -9.847113474511399E-1    8.663038158661192E-2
 4.290000000000000E7     9.922845020128218E-1   -7.389317324728487E-2    1.759627848963956      -2.171511754919850E-1   -2.584735826829341E-4    2.605767224784859E-5   -9.839324983317644E-1    9.518898383666000E-2
 4.680000000000000E7     9.917627082107838E-1   -8.091804765314628E-2    1.755472617589881      -2.370897018340003E-1   -3.141388015825878E-4    4.418512283838987E-5   -9.830990155867421E-1    1.037143075255835E-1
 5.070000000000000E7     9.914308690720924E-1   -8.807061076049032E-2    1.751206555079666      -2.582823869909830E-1   -3.644993382284770E-4    5.029137537889816E-5   -9.823251457662346E-1    1.121516672598672E-1
 5.460000000000000E7     9.911938326279088E-1   -9.542754372634892E-2    1.744953915217070      -2.752681635883438E-1   -4.234205831915691E-4    6.389171716404372E-5   -9.817600415661418E-1    1.200533483593424E-1
 5.850000000000000E7     9.911099238806408E-1   -1.026917943427141E-1    1.738375145364310      -2.927479896099774E-1   -4.834873194743992E-4    6.969982319036815E-5   -9.813181661142573E-1    1.278874164440764E-1
 6.240000000000000E7     9.910927189851321E-1   -1.101974065074586E-1    1.727491516740022      -3.082256968459172E-1   -5.447089067828671E-4    7.801704724582853E-5   -9.805304659506955E-1    1.358693807185179E-1
 6.630000000000000E7     9.910555432005091E-1   -1.172173169799423E-1    1.719979952049687      -3.208042860131922E-1   -6.171682644931035E-4    9.527608275268090E-5   -9.786334418198176E-1    1.438495219034395E-1
 7.020000000000000E7     9.909699602277656E-1   -1.244853359038971E-1    1.711713498907186      -3.380895482348472E-1   -6.832828027732473E-4    1.186241645509915E-4   -9.776156595394982E-1    1.519111506142680E-1
 7.410000000000000E7     9.908226799478353E-1   -1.314731313675695E-1    1.701992161046344      -3.545066719332204E-1   -7.573710989302806E-4    1.356198988521980E-4   -9.765056842016105E-1    1.598422742817964E-1
 7.800000000000000E7     9.906228161922073E-1   -1.385110639007242E-1    1.693225722667574      -3.696457791713272E-1   -8.363339960879544E-4    1.626014915111522E-4   -9.754202190630584E-1    1.678303412694716E-1
 8.190000000000000E7     9.903563340754243E-1   -1.455056022010392E-1    1.691483886368221      -3.866428277938360E-1   -9.089454564048680E-4    1.709505504061702E-4   -9.741072232780801E-1    1.758006004985438E-1
 8.580000000000000E7     9.898802580702001E-1   -1.523646127483474E-1    1.687239869450430      -4.060672899262748E-1   -1.004668847757972E-3    2.016263889777654E-4   -9.728470795002727E-1    1.837466714852672E-1
 8.970000000000000E7     9.892997775747864E-1   -1.591511706410514E-1    1.685092865453607      -4.249911806560326E-1   -1.088288428027846E-3    2.189833572040740E-4   -9.714336205601204E-1    1.917059497660605E-1
 9.360000000000000E7     9.882835873317316E-1   -1.655855759107358E-1    1.684919341936818      -4.468665547767270E-1   -1.183340127555204E-3    2.496443939041520E-4   -9.698926745170376E-1    1.998192693684085E-1
 9.750000000000000E7     9.873948351345850E-1   -1.719603273054663E-1    1.689819882999243      -4.651898761114066E-1   -1.280223086415894E-3    2.756090923613636E-4   -9.682903612293914E-1    2.079661790102733E-1
 1.014000000000000E8     9.864839143220081E-1   -1.782400133985883E-1    1.691738346304110      -4.842243394452782E-1   -1.385088740743503E-3    3.037961081271912E-4   -9.667389143517533E-1    2.161291408120502E-1
 1.053000000000000E8     9.853335442179295E-1   -1.843256521987442E-1    1.695449276956853      -4.992793565115122E-1   -1.492728026451184E-3    3.355046744055268E-4   -9.650775786399071E-1    2.242189336092494E-1
 1.092000000000000E8     9.841017031644363E-1   -1.902664313759316E-1    1.696515290633275      -5.252859412494653E-1   -1.595080611836079E-3    3.620489476039938E-4   -9.633380427261271E-1    2.324888167943016E-1
 1.131000000000000E8     9.828683693238076E-1   -1.961366943409651E-1    1.705672888751226      -5.476384495715841E-1   -1.710613232545256E-3    4.087602995907374E-4   -9.616402780692711E-1    2.407178843597948E-1
 1.170000000000000E8     9.814147541380254E-1   -2.020932241638357E-1    1.708592393153040      -5.657708483916732E-1   -1.816006828835158E-3    4.421105042613619E-4   -9.598108607251447E-1    2.489277314462838E-1
 1.209000000000000E8     9.798043077822446E-1   -2.081716568437548E-1    1.706833964976054      -5.874860442483094E-1   -1.945462404109725E-3    4.884008289507501E-4   -9.580178353823589E-1    2.570308633836934E-1
 1.248000000000000E8     9.783022549184466E-1   -2.142644286408614E-1    1.706411668198843      -6.039473961237088E-1   -2.060660477157011E-3    5.250251886850122E-4   -9.560821822118952E-1    2.652176871352167E-1
 1.287000000000000E8     9.768086118253576E-1   -2.207519338517319E-1    1.699662105837931      -6.275504078891284E-1   -2.182350299629416E-3    5.748921342151176E-4   -9.541931007128641E-1    2.736809628402823E-1
 1.326000000000000E8     9.753209792681812E-1   -2.273916402398358E-1    1.694532301085638      -6.422117729056155E-1   -2.300404484663299E-3    6.208432100372125E-4   -9.521418505410122E-1    2.817555896921927E-1
 1.365000000000000E8     9.738999019354730E-1   -2.343418162504332E-1    1.683987907762290      -6.654792825453297E-1   -2.432002626601644E-3    6.619400041034736E-4   -9.500951233199585E-1    2.897396516453062E-1
 1.404000000000000E8     9.724298993131625E-1   -2.416138964572431E-1    1.679519258285494      -6.761822269667276E-1   -2.564693827709285E-3    7.029729400917031E-4   -9.482505685120158E-1    2.977771679019082E-1
 1.443000000000000E8     9.711480266946619E-1   -2.494776946261924E-1    1.661156182735185      -6.988242685453684E-1   -2.705498298651306E-3    7.617678039856688E-4   -9.462143161786005E-1    3.059325352223612E-1
 1.482000000000000E8     9.695753604434514E-1   -2.573984506952307E-1    1.641512422525612      -7.141862080015595E-1   -2.852231821469770E-3    8.051263551376353E-4   -9.443224704083315E-1    3.138570527283411E-1
 1.521000000000000E8     9.679991694879043E-1   -2.652148251441827E-1    1.634958515037665      -7.229298299937218E-1   -3.005818988885868E-3    8.545114233797802E-4   -9.426145294835789E-1    3.217059176721819E-1
 1.560000000000000E8     9.664234074529731E-1   -2.726905869092747E-1    1.624224490986217      -7.346994505925034E-1   -3.168945232428274E-3    9.055086265969181E-4   -9.410557621303197E-1    3.294768083020629E-1
 1.599000000000000E8     9.650317797103805E-1   -2.803301387005734E-1    1.613110854058532      -7.513893661522373E-1   -3.343169967486910E-3    9.596318722106322E-4   -9.392515351298374E-1    3.370293223779832E-1
 1.638000000000000E8     9.635436050524470E-1   -2.879489771922591E-1    1.598745297514303      -7.704849792993315E-1   -3.518320655333281E-3    1.025607548468201E-3   -9.376184530350700E-1    3.448733151566469E-1
 1.677000000000000E8     9.620989664253109E-1   -2.954314080949272E-1    1.586263077537828      -7.864038106596289E-1   -3.704504414170692E-3    1.093012114214135E-3   -9.357582184581845E-1    3.527158342212028E-1
 1.716000000000000E8     9.606035853010365E-1   -3.024901853191721E-1    1.583219265151633      -7.998994880910403E-1   -3.891513761046782E-3    1.167753050276379E-3   -9.338527872126506E-1    3.607251307596771E-1
 1.755000000000000E8     9.590105441201299E-1   -3.092925335121513E-1    1.580182727906134      -8.172452182943044E-1   -4.093237856782676E-3    1.241369976796364E-3   -9.317787248912991E-1    3.686060837881152E-1
 1.794000000000000E8     9.577883185364024E-1   -3.158653974937781E-1    1.581831531173885      -8.383645997566667E-1   -4.281690305721679E-3    1.344267364625018E-3   -9.295390110047468E-1    3.766997447364684E-1
 1.833000000000000E8     9.563848014863443E-1   -3.226478200456803E-1    1.572434209300375      -8.624144876205756E-1   -4.487045539357561E-3    1.431709625591157E-3   -9.269966979463996E-1    3.847301522466506E-1
 1.872000000000000E8     9.549020090895228E-1   -3.291940426384432E-1    1.570302372230735      -8.890222811158323E-1   -4.698350824952601E-3    1.533481948750857E-3   -9.244717873530708E-1    3.927085204041430E-1
 1.911000000000000E8     9.532728253669364E-1   -3.356544453315091E-1    1.560319723266990      -9.136614923017161E-1   -4.904455577628113E-3    1.659141568346401E-3   -9.218218214720946E-1    4.008595470495951E-1
 1.950000000000000E8     9.515098154148947E-1   -3.419162742843591E-1    1.559722612289287      -9.350738470617671E-1   -5.107171868142522E-3    1.775146601527013E-3   -9.188713638185385E-1    4.090128745561112E-1
 1.989000000000000E8     9.493913994009314E-1   -3.479607614419526E-1    1.557972078246622      -9.490481473403098E-1   -5.316730775387662E-3    1.903893876912181E-3   -9.158645533211891E-1    4.171862096948083E-1
 2.028000000000000E8     9.472402100579010E-1   -3.537528378616338E-1    1.556162116036694      -9.673365791895957E-1   -5.519728597317778E-3    2.044396266250636E-3   -9.128804248240978E-1    4.254710742044762E-1
 2.067000000000000E8     9.451028677859432E-1   -3.595357624347351E-1    1.555435639121545      -9.894529634529254E-1   -5.722810725250265E-3    2.182647745200694E-3   -9.098095395829050E-1    4.338370349813069E-1
 2.106000000000000E8     9.427236150473837E-1   -3.652895014820063E-1    1.546733799957041      -1.007526171948924      -5.948287587153002E-3    2.335757203694860E-3   -9.067733927715960E-1    4.423522102939337E-1
 2.145000000000000E8     9.405301575029471E-1   -3.711278999931060E-1    1.539336604103564      -1.032460971208535      -6.145470026146772E-3    2.479769513219019E-3   -9.035887218378066E-1    4.508813911480599E-1
 2.184000000000000E8     9.383570380722519E-1   -3.776185697901203E-1    1.509950447055779      -1.056240497977042      -6.360704189999195E-3    2.634951883726526E-3   -9.003178713941463E-1    4.592890233681460E-1
 2.223000000000000E8     9.359177431806960E-1   -3.841213864378148E-1    1.488687967550398      -1.077100398875419      -6.577773727253755E-3    2.805043421238297E-3   -8.970903146226676E-1    4.678804673777983E-1
 2.262000000000000E8     9.335442161286878E-1   -3.910189042281896E-1    1.468011973240782      -1.108492668152599      -6.790963104192940E-3    2.981128950594805E-3   -8.938622234782566E-1    4.763522137095607E-1
 2.301000000000000E8     9.306881347064914E-1   -3.981012464623336E-1    1.439267073809613      -1.119738635973477      -7.004907496894124E-3    3.150176607533318E-3   -8.904356714431877E-1    4.848183741295427E-1
 2.340000000000000E8     9.275165356156682E-1   -4.050629330626918E-1    1.419698488405320      -1.127926096452065      -7.235542596570403E-3    3.330457666655022E-3   -8.870621866552281E-1    4.931216855845790E-1
 2.379000000000000E8     9.242911380966348E-1   -4.120888503246405E-1    1.391607166065244      -1.144162786847391      -7.465755150304529E-3    3.517970268681601E-3   -8.837200573361266E-1    5.015341234795543E-1
 2.418000000000000E8     9.210393492208865E-1   -4.187024299371604E-1    1.382244668754010      -1.148760444670967      -7.671598629508159E-3    3.722073267363703E-3   -8.802557705537839E-1    5.099748887052775E-1
 2.457000000000000E8     9.182897364834279E-1   -4.250715075912475E-1    1.371835829909310      -1.162496769046331      -7.889398730962014E-3    3.918077105609785E-3   -8.765972917755520E-1    5.182114033081846E-1
 2.496000000000000E8     9.160410954722391E-1   -4.314967014092602E-1    1.352292599735660      -1.190690418973279      -8.078431279277222E-3    4.116876433811167E-3   -8.728308658305314E-1    5.266244554454230E-1
 2.535000000000000E8     9.145859722702012E-1   -4.377678378468808E-1    1.329496701623876      -1.221735561687627      -8.298207328223953E-3    4.309088093542827E-3   -8.689142504483730E-1    5.349779896808945E-1
 2.574000000000000E8     9.135660239422014E-1   -4.445298123445173E-1    1.304515300026598      -1.255418039793749      -8.493334438618036E-3    4.487884045321151E-3   -8.649055237669370E-1    5.432626323251672E-1
 2.613000000000000E8     9.126691189337836E-1   -4.514786755055095E-1    1.279998617776085      -1.285470935497171      -8.699065546996756E-3    4.669604275972881E-3   -8.607420246711573E-1    5.514907758650812E-1
 2.652000000000000E8     9.117601154660006E-1   -4.586784378335153E-1    1.263516729072651      -1.317116841089065      -8.921695349951837E-3    4.863208395150511E-3   -8.565289420451253E-1    5.594700014629647E-1
 2.691000000000000E8     9.106217222491209E-1   -4.656827050742004E-1    1.251569667641642      -1.342589607229405      -9.117798003308747E-3    5.062871426351317E-3   -8.522899790475229E-1    5.671987652376317E-1
 2.730000000000000E8     9.091847814941046E-1   -4.724043997597803E-1    1.241606506881447      -1.365288588788862      -9.324404145445169E-3    5.251452458718942E-3   -8.482212353778062E-1    5.746603342881009E-1
 2.769000000000000E8     9.071945293335635E-1   -4.790697700245002E-1    1.233103843835506      -1.375860907446185      -9.544704449331736E-3    5.433981298917852E-3   -8.439056455757487E-1    5.819246588290609E-1
 2.808000000000000E8     9.052851827575760E-1   -4.854927447230165E-1    1.217657947474092      -1.394100702555570      -9.788702482474558E-3    5.640379397783088E-3   -8.396333850961515E-1    5.891950160850783E-1
 2.847000000000000E8     9.032826644724806E-1   -4.920312852352782E-1    1.203420017202599      -1.416431032888162      -1.001146162797188E-2    5.826171641174732E-3   -8.352386279268683E-1    5.963483916126443E-1
 2.886000000000000E8     9.009043379588400E-1   -4.980564770384396E-1    1.198733156944094      -1.430224975891115      -1.022770322662541E-2    6.028280088920138E-3   -8.307461211496846E-1    6.035757804388503E-1
 2.925000000000000E8     8.983874591728835E-1   -5.042332214842027E-1    1.193997208850972      -1.437611936760861      -1.048164418868832E-2    6.216603007859419E-3   -8.261572893840962E-1    6.105616395583926E-1
 2.964000000000000E8     8.957902590384936E-1   -5.104420855809094E-1    1.189851821821342      -1.443291675701785      -1.071225363410571E-2    6.402550051153197E-3   -8.214491109235186E-1    6.175660890180115E-1
 3.003000000000000E8     8.933301640342585E-1   -5.170298119910355E-1    1.177406389208870      -1.459855232173386      -1.098316879961574E-2    6.590675319865717E-3   -8.164670508470303E-1    6.248758872585427E-1
 3.042000000000000E8     8.907719060876590E-1   -5.241076581445889E-1    1.151999902314040      -1.472867810318337      -1.123337192487217E-2    6.802282520082313E-3   -8.114755829936366E-1    6.320902495146495E-1
 3.081000000000000E8     8.874849591366328E-1   -5.312688019437061E-1    1.123968233119401      -1.483355580026609      -1.158963433071936E-2    7.050692426226982E-3   -8.065129037485902E-1    6.399484721289933E-1
 3.120000000000000E8     8.838939221198816E-1   -5.392162884827139E-1    1.080972389236765      -1.486350540044301      -1.192299877652782E-2    7.296463749495085E-3   -8.015749620864298E-1    6.475555120209868E-1
 3.159000000000000E8     8.794521047597925E-1   -5.476859846629790E-1    1.027004085756703      -1.487620914696326      -1.226075565676371E-2    7.563926658658713E-3   -7.965513010733521E-1    6.554040634456944E-1
 3.198000000000000E8     8.750960175130217E-1   -5.551077459070427E-1    1.002919699446012      -1.487016990089212      -1.260782691101326E-2    7.855890590549109E-3   -7.915948446551391E-1    6.636638034553650E-1
 3.237000000000000E8     8.708184852022379E-1   -5.626138174840296E-1    9.711584234425421E-1   -1.495201798724769      -1.295359468916042E-2    8.196709044591048E-3   -7.865509358070781E-1    6.719261648653291E-1
 3.276000000000000E8     8.676048198538211E-1   -5.731870917659057E-1    8.797011324119162E-1   -1.541301696315129      -1.329462733445463E-2    8.515600962044532E-3   -7.812105343466563E-1    6.801780938238203E-1
 3.315000000000000E8     8.627623224173727E-1   -5.854861820431998E-1    7.777075388066380E-1   -1.577469504095013      -1.364881402231854E-2    8.857353134439397E-3   -7.759188354626583E-1    6.884421072846486E-1
 3.354000000000000E8     8.570842238251423E-1   -5.949699013237190E-1    7.286859861168504E-1   -1.589629668392892      -1.400441872392304E-2    9.211498522278807E-3   -7.707085802910812E-1    6.966512527601485E-1
 3.393000000000000E8     8.516318234585935E-1   -6.033499461366897E-1    6.910861897844476E-1   -1.595947006134576      -1.433298231815501E-2    9.566296974408056E-3   -7.650973774635821E-1    7.047608901747511E-1
 3.432000000000000E8     8.468139405658647E-1   -6.112783569100120E-1    6.648727801773083E-1   -1.603596124537899      -1.467612794150705E-2    9.937237512347106E-3   -7.594174530258789E-1    7.126701372559036E-1
 3.471000000000000E8     8.425831289167002E-1   -6.187406469857459E-1    6.526151503705947E-1   -1.615298300525303      -1.502859874631003E-2    1.032647023140518E-2   -7.536646560315204E-1    7.208318045406212E-1
 3.510000000000000E8     8.388486553382150E-1   -6.257506003907778E-1    6.545035475674578E-1   -1.627424912094734      -1.538268221692635E-2    1.069338037541935E-2   -7.478506332037620E-1    7.284691049702000E-1
 3.549000000000000E8     8.351021766637563E-1   -6.329668675839742E-1    6.526192461956628E-1   -1.642990425067833      -1.573428463730348E-2    1.110710817344216E-2   -7.418683627098362E-1    7.361208069078446E-1
