#  HZ   S   RI   R     50.00 
! Rohde & Schwarz Vector Network Analyzer 
! Rohde-Schwarz,ZNL20-2Port,1323001220101312,1.72.1.6-23.02.1.246
! Created: UTC 10/7/2024, 6:59:14 PM
! freq[Hz]                re:S11                  im:S11                  re:S21                  im:S21                  re:S12                  im:S12                  re:S22                  im:S22
 3.900000000000000E6     1.010246757953076      -6.916178103696724E-3    1.750574705520639      -1.447638837225695E-2    6.791734582759868E-6    1.145616740728907E-5   -9.926632437051126E-1    7.998868571827189E-3
 3.926536969490964E6     1.010250299169068      -7.101556324286977E-3    1.747696019086227      -1.572829768217907E-2   -2.462361201381987E-6    8.792011128912343E-6   -9.926165862240283E-1    8.005288665449433E-3
 3.953254505840832E6     1.010104191215338      -7.203396633351319E-3    1.745487433241982      -1.537967758802550E-2    1.351083787293639E-5    6.315915185717451E-6   -9.926858077900684E-1    7.967690110424926E-3
 3.980153837689935E6     1.010150952911423      -7.214285846337610E-3    1.746359403328269      -1.468284866101359E-2   -7.032720943483141E-7    8.569992261060466E-6   -9.929438802415604E-1    8.072807150807354E-3
 4.007236202038682E6     1.009950124757166      -7.119152854042176E-3    1.745566938718710      -1.622756288732872E-2    1.952738932748945E-5    7.674114924872648E-6   -9.930689615485202E-1    8.150821430247665E-3
 4.034502844304462E6     1.009952066799219      -6.860119385601926E-3    1.744541056429486      -1.476108415090809E-2   -1.015864480868875E-6    9.389316371487258E-6   -9.931543486581500E-1    8.338283476203816E-3
 4.061955018378951E6     1.010575986104721      -7.235840623520306E-3    1.740981078981642      -1.822979038966821E-2    1.644211101880820E-5    1.606536926951425E-5   -9.933370216174905E-1    8.636681274311605E-3
 4.089593986685715E6     1.010745247447980      -7.246415509650570E-3    1.741283571306061      -1.748090592297754E-2    1.412605890231386E-5    7.680020480351884E-6   -9.932014890068940E-1    8.904908687647043E-3
 4.117421020238296E6     1.010857185506221      -7.148869295264267E-3    1.742768694358741      -1.887510240319292E-2   -3.942740756668761E-6   -6.572126336078189E-6   -9.933426351714801E-1    8.782680768282135E-3
 4.145437398698682E6     1.010806776700646      -7.288297447624313E-3    1.742492099276501      -1.933693348676441E-2    3.217573170512098E-6    7.610431289198129E-6   -9.932848919722687E-1    8.838368632100005E-3
 4.173644410436107E6     1.010943424858650      -7.168856789173263E-3    1.744593146167578      -1.681605973278900E-2    2.086051078929775E-6    3.863477421374547E-6   -9.933387657345525E-1    8.895929608404128E-3
 4.202043352586321E6     1.010783145695549      -7.416017064501290E-3    1.741765564759860      -1.837200726226758E-2    2.589207076891492E-5    3.439657903547626E-6   -9.932890266151562E-1    8.967112694720664E-3
 4.230635531111264E6     1.010718949554136      -7.479731634565587E-3    1.744627827103891      -1.804013692282018E-2    4.467499566535746E-6   -3.798995957220808E-6   -9.933038621916739E-1    9.049256576808863E-3
 4.259422260859069E6     1.010860672332462      -7.546069630112499E-3    1.742968109182815      -1.918416057985922E-2    7.253517483541234E-6    1.792042224918160E-5   -9.932883051362766E-1    9.030696750509515E-3
 4.288404865624593E6     1.010782045845978      -7.540005306910879E-3    1.742038391648532      -1.899499381011682E-2    2.635443672930511E-6    6.432083394498207E-6   -9.934143726272427E-1    9.205119442726943E-3
 4.317584678210226E6     1.010802320170636      -7.516299399823896E-3    1.746820251992588      -1.992467820709674E-2   -3.000217896682982E-6    1.030442042046858E-5   -9.934203364632668E-1    9.293326689080939E-3
 4.346963040487220E6     1.010923861841920      -7.689678700930770E-3    1.742336356085933      -1.962853582981227E-2    4.698592503073787E-6    8.352759864882520E-6   -9.934002192051831E-1    9.327731212685280E-3
 4.376541303457410E6     1.010710023085335      -7.717193386336869E-3    1.742632136691863      -2.140313604063606E-2    8.691464529020298E-6   -8.981477255093829E-6   -9.934430515169865E-1    9.498379182965901E-3
 4.406320827315303E6     1.010742430840595      -7.645904957894650E-3    1.744496781726708      -1.759453804982457E-2    5.952758167187914E-6   -4.760371921066564E-7   -9.935815084804385E-1    9.437689660254513E-3
 4.436302981510641E6     1.010798524934490      -7.725571318756144E-3    1.744200735514947      -2.018712276025395E-2   -6.131272892770036E-6    1.490789120838700E-5   -9.933836043967870E-1    9.460418198066421E-3
 4.466489144811413E6     1.010801221236332      -7.880029625041068E-3    1.744992059721101      -2.117431807443951E-2   -4.942240560818439E-6    1.685057351057035E-5   -9.934438959746474E-1    9.557092873617242E-3
 4.496880705367200E6     1.010749211767377      -7.909514205744607E-3    1.744928468940818      -1.982880988653389E-2    2.929564302041704E-6    8.264531642122213E-6   -9.934842168612208E-1    9.784260758388388E-3
 4.527479060773043E6     1.010563068300472      -8.035046330186615E-3    1.746404548661202      -2.171347115128294E-2    1.107546443951367E-5    1.639052053878502E-5   -9.935536204070482E-1    9.993616238296112E-3
 4.558285618133736E6     1.010557734246287      -7.909403634320003E-3    1.745671081655791      -2.168755136895152E-2    5.542552484789463E-6    8.462876207634812E-6   -9.936458511038013E-1    1.011577191624986E-2
 4.589301794128480E6     1.010530000564494      -8.067114228765422E-3    1.744604040214541      -2.153935420221101E-2    1.696321884532975E-5   -5.278583223597878E-7   -9.935359503132548E-1    1.034842230209599E-2
 4.620529015076061E6     1.010478419825453      -8.041046739445957E-3    1.745094104440539      -2.196206894342423E-2   -2.236842103511749E-6   -1.319133635073629E-5   -9.934607589277065E-1    1.036773418521648E-2
 4.651968717000465E6     1.010651164580190      -8.177960923321050E-3    1.743736294347609      -2.164254981034247E-2    7.364157223302007E-6    4.355742709579774E-6   -9.935758238723894E-1    1.052720387580803E-2
 4.683622345696862E6     1.010518376754859      -8.195723655840164E-3    1.743967174783404      -2.092198665847182E-2    1.102620021236243E-6   -1.021419480430028E-5   -9.935288184849265E-1    1.054058176947906E-2
 4.715491356798120E6     1.010599481689345      -8.265292953408472E-3    1.744351484219387      -1.938163134996320E-2    6.670442129250424E-6   -7.780142134270018E-6   -9.936103145215941E-1    1.054130140578078E-2
 4.747577215841772E6     1.010612959245855      -8.275271155201165E-3    1.740411424717359      -2.297102614796725E-2    1.280114598109001E-5   -1.067013298557237E-5   -9.937416858949054E-1    1.083024260615955E-2
 4.779881398337356E6     1.010642459378437      -8.663103759794104E-3    1.743721490854867      -2.157924887418220E-2    9.585940126186971E-6   -1.035320888054484E-6   -9.936201793646086E-1    1.087002750806650E-2
 4.812405389834293E6     1.010554452722350      -8.549699417987144E-3    1.741319710357304      -2.034618448919864E-2    1.019644379208107E-5    5.516257255242165E-6   -9.936275075993584E-1    1.092927754169083E-2
 4.845150685990234E6     1.010500477566319      -8.489540654051053E-3    1.743980281526397      -2.107326731761271E-2    1.274273599153915E-5    1.464000007102881E-5   -9.937308297929333E-1    1.085644141702387E-2
 4.878118792639771E6     1.010415936053419      -8.639302000317772E-3    1.741813955289740      -2.327317435138550E-2    4.790976526814843E-7    1.312040648027038E-5   -9.936110921568357E-1    1.092488304080885E-2
 4.911311225863763E6     1.009981552197258      -8.181807177367986E-3    1.743619577944560      -1.953262231983450E-2    2.242361626726548E-5   -5.056862087426321E-7   -9.930534432116068E-1    1.070372368325843E-2
 4.944729512058984E6     1.009965423358379      -8.326279777077332E-3    1.745312955393971      -2.146241088905962E-2   -2.068578455483100E-6    6.029260180045893E-6   -9.930066870181544E-1    1.070553741570686E-2
 4.978375188008349E6     1.009996379789265      -8.341759244142447E-3    1.742871028299176      -2.171708586346281E-2    5.918495200414463E-6    3.793813842783865E-6   -9.930596294886914E-1    1.092005116406385E-2
 5.012249800951616E6     1.010093878484548      -8.302477232338838E-3    1.745252297300256      -2.188643965450036E-2    5.613453724725594E-6    4.034179839784120E-6   -9.930878241274969E-1    1.101297154709466E-2
 5.046354908656470E6     1.010025886936307      -8.450780170522511E-3    1.743617414280511      -2.115570713281002E-2   -8.432493169644052E-6   -5.265330205936851E-8   -9.929887504683692E-1    1.107886318101990E-2
 5.080692079490198E6     1.009945506148877      -8.512319332405418E-3    1.744362058411737      -2.296593692089774E-2    1.166625970283001E-5    1.294264979307111E-5   -9.929573907282329E-1    1.126449906540940E-2
 5.115262892491839E6     1.009854562613201      -8.590834710598547E-3    1.746525245449186      -2.343298934792724E-2    2.008320482840671E-6    2.948563826514702E-6   -9.930998813309332E-1    1.138894993281089E-2
 5.150068937444737E6     1.010518693062982      -9.078055127659090E-3    1.740303437610481      -2.723666143834595E-2    9.201069963246595E-6   -2.756636513659488E-6   -9.937366569948387E-1    1.149987520836961E-2
 5.185111814949680E6     1.010689846378945      -8.945387889395489E-3    1.741042922045299      -2.371446642093405E-2   -5.665982270546534E-6    3.553342602265236E-6   -9.937133788110195E-1    1.157313664187880E-2
 5.220393136498538E6     1.010576278695219      -9.025051150309941E-3    1.740951280651548      -2.602868755811752E-2   -2.811011206804598E-6   -1.900127719052844E-6   -9.937678677428058E-1    1.157969796356783E-2
 5.255914524548303E6     1.010380627353178      -9.080128343137256E-3    1.742612860679023      -2.344569331017273E-2    5.976085796697692E-6   -1.330400531442315E-6   -9.938060526065818E-1    1.172307572758444E-2
 5.291677612595739E6     1.010452396473289      -9.140997892284142E-3    1.740550149234198      -2.638660439324439E-2    4.680149780599157E-6    4.146058307439285E-6   -9.938119537207800E-1    1.181808876063588E-2
 5.327684045252522E6     1.010441789915629      -9.252260855907935E-3    1.742325339609208      -2.576985464078616E-2    5.681655542805031E-6    8.086768330106784E-6   -9.936148467502307E-1    1.185463593095753E-2
 5.363935478320817E6     1.010317409191206      -9.286058347506490E-3    1.743219732966969      -2.701143892037343E-2    9.808042113432629E-6   -7.404976360910627E-6   -9.938121204833340E-1    1.198276409426944E-2
 5.400433578869442E6     1.010409253069925      -9.357793885363888E-3    1.742133612813219      -2.572753599589606E-2    8.819271260396620E-6    9.685803848368888E-7   -9.937909440680269E-1    1.203570715042666E-2
 5.437180025310577E6     1.010298073971515      -9.488987479229249E-3    1.740708055349040      -2.666726904434685E-2   -8.323806697527327E-6    7.996156303429836E-6   -9.937992023022888E-1    1.203660709292935E-2
 5.474176507476867E6     1.010367167001581      -9.450102789499416E-3    1.742771758443958      -2.529608218865967E-2    1.934893081313089E-5    2.361269859933716E-6   -9.938404028135686E-1    1.222673054442902E-2
 5.511424726699176E6     1.009631291365415      -8.396268723788765E-3    1.745689425970204      -2.546882515111629E-2   -1.001072386353339E-5   -1.124407240212098E-5   -9.933912892447824E-1    1.139667698417875E-2
 5.548926395884855E6     1.009603695243218      -8.620189095675733E-3    1.745734154026520      -2.795282709484292E-2    1.094772196599515E-5   -2.029697565735271E-6   -9.933526386854461E-1    1.151191980484001E-2
 5.586683239596430E6     1.009585267866633      -8.546910289197648E-3    1.744925755843984      -2.673513760650961E-2    1.654217963135257E-6    7.996093700445614E-6   -9.933825267299693E-1    1.184346589288145E-2
 5.624696994131004E6     1.009429284243983      -8.572155454447594E-3    1.745719439515697      -2.620508036691776E-2   -1.523373571156104E-6    9.336252793696058E-6   -9.934153235225988E-1    1.176340777351116E-2
 5.662969407600018E6     1.009557194648801      -8.508751891488649E-3    1.747473849397839      -2.668808966359777E-2    7.479970732169128E-6   -8.143525803132940E-6   -9.933480835194721E-1    1.181849061725229E-2
 5.701502240009680E6     1.009596496016255      -8.642784896791005E-3    1.746168706041113      -2.676019624593014E-2    6.899161678729643E-6   -3.975404875004114E-6   -9.934409574284380E-1    1.188266101265026E-2
 5.740297263341933E6     1.009557018153118      -8.764469884318586E-3    1.744454610581432      -2.935928063486116E-2   -2.019275300518290E-6    2.336175591632829E-6   -9.934518381090863E-1    1.218428801170494E-2
 5.779356261635871E6     1.009421135742888      -8.986046838248198E-3    1.746070088040915      -3.004868780659822E-2    2.913864717812762E-6   -7.310046790492353E-7   -9.934764959286672E-1    1.226151004525941E-2
 5.818681031069814E6     1.009367116043858      -8.963643268410147E-3    1.741310643217536      -2.853232469494438E-2   -1.942168914345654E-6    5.603252357139705E-6   -9.934734909922588E-1    1.224390981095758E-2
 5.858273380043952E6     1.009308233066809      -9.040484455146715E-3    1.745481776662785      -2.736670600599703E-2    8.467038903623399E-7   -7.907095046458545E-6   -9.934348544365266E-1    1.229427148244104E-2
 5.898135129263422E6     1.009355841483783      -9.018831342252523E-3    1.743295867636219      -3.059991203314488E-2   -3.154613894737025E-6   -3.432469622416416E-6   -9.935727324853364E-1    1.242518249810528E-2
 5.938268111822085E6     1.009287581390619      -9.214664622838743E-3    1.742361416868961      -3.029372330523595E-2    8.252763358845805E-6   -7.909540399818356E-6   -9.934138562687469E-1    1.257528070754428E-2
 5.978674173286848E6     1.009277824103468      -9.236025532085090E-3    1.741416636889801      -3.129894793160340E-2   -9.789762582668388E-7    2.606426762768445E-6   -9.934134044981648E-1    1.264126510714719E-2
 6.019355171782466E6     1.009257978303707      -9.327615409651146E-3    1.740568751724041      -3.050862245609854E-2    1.132954545595710E-5    6.589808668080467E-7   -9.935859461861951E-1    1.272037478550561E-2
 6.060312978077031E6     1.009247106625416      -9.199189904493373E-3    1.741614589861483      -2.920770699104808E-2    6.408557059045587E-6    9.961144737415094E-6   -9.934234545410852E-1    1.282611318182307E-2
 6.101549475668033E6     1.009303145804781      -9.396634735764638E-3    1.740995292323007      -2.773550757248817E-2    5.180624988867012E-6    1.090036799633636E-6   -9.934811124385000E-1    1.306225808816480E-2
 6.143066560868903E6     1.009094605818528      -9.467866317303335E-3    1.743318439830540      -3.107347411557569E-2    1.129654554200649E-5    5.082100709366350E-7   -9.934382597516803E-1    1.319343376576124E-2
 6.184866142896255E6     1.009106105056903      -9.437014106938812E-3    1.741799744844955      -3.021871120064932E-2    4.243899560975930E-6   -2.403883058558778E-6   -9.934241614940548E-1    1.320636846171461E-2
 6.226950143957722E6     1.009038613142129      -9.577819473050706E-3    1.743034127672276      -2.929334962041304E-2    2.403740870751482E-7   -5.870167015808150E-6   -9.933385177072952E-1    1.335944033121243E-2
 6.269320499340272E6     1.009732039172011      -1.076768268811574E-2    1.737160881637384      -3.178198800032128E-2   -1.001631256703287E-6    2.009454205415247E-6   -9.940488651330648E-1    1.420345417917671E-2
 6.311979157499246E6     1.009729863495702      -1.083518981244930E-2    1.735815862089944      -3.143401788698412E-2    4.759134418473868E-6    1.038705651324259E-5   -9.940688913277681E-1    1.426683224787026E-2
 6.354928080148001E6     1.009573788093040      -1.088093049260678E-2    1.734287179721421      -2.866806335510007E-2    5.547937115983201E-6   -8.016471571527181E-6   -9.940843106608557E-1    1.431606504643148E-2
 6.398169242348038E6     1.009604523225780      -1.100687057926697E-2    1.736464532597518      -3.001612349319339E-2    6.023490861717345E-6   -2.405622022884414E-7   -9.940296369847796E-1    1.452812596513997E-2
 6.441704632599870E6     1.009600713121339      -1.103742725203398E-2    1.736983754225647      -3.380316831506885E-2    9.969553315139657E-6    7.073168424535080E-6   -9.941656943627175E-1    1.466798719390245E-2
 6.485536252934507E6     1.009466086588526      -1.110923011986197E-2    1.733274549220314      -3.081844901914346E-2    2.730595738082588E-6    7.987841586754182E-6   -9.940924309312711E-1    1.478913901098525E-2
 6.529666119005430E6     1.009555856429611      -1.131420987721545E-2    1.735116573040926      -3.278106952523074E-2    1.626670745826611E-6    6.825293778011172E-6   -9.941237245623310E-1    1.477203186706288E-2
 6.574096260181381E6     1.009444609161009      -1.117182618815792E-2    1.732504051772358      -3.384598270800586E-2    2.566741400826467E-5   -8.012456241908264E-6   -9.940498164838725E-1    1.505396929425759E-2
 6.618828719639606E6     1.009464021570973      -1.139331164651284E-2    1.732419872978260      -3.339583244046741E-2   -6.754912206787525E-6   -1.256473990843551E-5   -9.941227553941056E-1    1.515872570209290E-2
 6.663865554459843E6     1.009478848082775      -1.144948903172493E-2    1.734152857229749      -3.223265032757921E-2   -4.968854664873494E-6    3.864796982526763E-6   -9.942359730900542E-1    1.521543304041897E-2
 6.709208835718963E6     1.009427581005952      -1.149638299484952E-2    1.731222538143067      -3.320533009092092E-2   -3.079135592947881E-6    2.894119052630667E-7   -9.940610645391813E-1    1.526573970780309E-2
 6.754860648586133E6     1.009401463913498      -1.152450323621238E-2    1.729280624394027      -3.511567098478569E-2    1.168192839539508E-5    9.355944806103282E-6   -9.941204173089792E-1    1.561113342406478E-2
 6.800823092418741E6     1.009327034837995      -1.164012894666175E-2    1.730738632523426      -3.395269890870296E-2    7.697228724603599E-6   -8.529966253480768E-7   -9.940165129088098E-1    1.575813221445318E-2
 6.847098280858982E6     1.009344371058579      -1.164538434151651E-2    1.729911875875536      -3.656907104117193E-2   -7.439692755260659E-7    1.391808859269724E-5   -9.942099818102038E-1    1.575472200665982E-2
 6.893688341930975E6     1.009349552931613      -1.183101880600722E-2    1.729915782258501      -3.506892971135042E-2   -1.501845433447557E-5   -2.911368471396114E-6   -9.941441820511169E-1    1.583813871750768E-2
 6.940595418138658E6     1.009212701343947      -1.198097962560228E-2    1.729154586738919      -3.367229959616799E-2    2.942299056528595E-6    5.147265374530696E-6   -9.942862368811838E-1    1.595368840437154E-2
 6.987821666564363E6     1.009228449526568      -1.200585318812398E-2    1.729462303065899      -3.478401251733948E-2    2.040264735435828E-6    1.068643669838038E-5   -9.940868271451898E-1    1.622258973651702E-2
 7.035369258967927E6     1.009179138751118      -1.206456442675470E-2    1.728586917658441      -3.480127611988848E-2    5.151680669086021E-7    7.953544573117411E-6   -9.941804408519852E-1    1.624160028972169E-2
 7.083240381886600E6     1.009197691628379      -1.218271941542039E-2    1.729129485007632      -3.750103382103070E-2   -2.029573414990762E-6   -1.095967349512931E-5   -9.940830167115307E-1    1.627917203620207E-2
 7.131437236735644E6     1.009053074144311      -1.224163260711104E-2    1.728436556081435      -3.866554641616905E-2   -1.143059795504818E-5   -1.515526588995574E-5   -9.941164931331098E-1    1.651075797389768E-2
 7.179962039909479E6     1.009083295258055      -1.221706409493503E-2    1.728887116505560      -3.726968428216043E-2    1.112207327462363E-5   -1.224791721122525E-5   -9.941513135756803E-1    1.657894440096963E-2
